! MARKI MICROWAVE INC.
! Email:             	info@markimicrowave.com   				Phone:   408-778-4200
! Model Number:      	C-0265						Date:    09/13
! Filename:		C-0265.S4P						Version: 1.0
! Description:       	4-port S-parameter data for Coupler C-0265
! Frequency Range: 	10 MHz to 65 GHz		
! Port Configuration:	PORT 1: Input 
!			PORT 2: Output 
!			Port 3: Coupled 	
!			Port 4: Isolated

! S4P File: Measurements: Mag<S11> Ang<S11> Mag<S12> Ang<S12> Mag<S13> Ang<S13> Mag<S14> Ang<S14>! row 1 
!			  Mag<S21> Ang<S21> Mag<S22> Ang<S22> Mag<S23> Ang<S23> Mag<S24> Ang<S24>! row 2 
!			  Mag<S31> Ang<S31> Mag<S32> Ang<S32> Mag<S33> Ang<S33> Mag<S34> Ang<S34>! row 3 
!			  Mag<S41> Ang<S41> Mag<S42> Ang<S42> Mag<S43> Ang<S43> Mag<S44> Ang<S44>! row 4

# Hz S  dB   R 50
10000000 -44.311024 65.369133 -0.027806185 -3.9526331 -53.769821 -3.2692716 -74.110817 -66.607712
0.0049190889 -3.8172898 -44.688019 70.061539 -64.469856 25.759596 -61.251797 85.617905
-58.382504 147.14001 -57.98708 91.735153 -44.725601 61.842896 -0.007559808 -3.759938
-61.849758 -84.273926 -61.739727 123.64715 -0.059464674 -3.783138 -44.586159 36.937515
91237500 -44.708107 61.783524 -0.027321016 -5.4903746 -53.119759 12.538153 -74.976295 -79.450279
-7.5710574e-005 -5.3782554 -44.858662 65.121048 -67.051201 46.938248 -59.052391 84.439728
-56.817162 133.17598 -61.547848 57.228043 -44.969162 57.371918 -0.012188687 -5.3183613
-64.743317 -97.795815 -59.460964 114.62315 -0.053059891 -5.3392887 -45.038567 38.939774
172475000 -44.77887 59.766483 -0.027265284 -7.3445206 -52.41864 28.037016 -77.651924 -81.636192
-0.0052126646 -7.2599969 -44.591995 60.572849 -69.340683 52.25552 -56.698803 82.680168
-55.126575 118.66771 -64.293434 26.659996 -44.930264 53.793091 -0.017434312 -7.215404
-67.190887 -113.5236 -57.005394 105.23627 -0.046824157 -7.2111387 -45.44688 40.998032
253712500 -44.749928 55.957394 -0.02723279 -9.5128832 -51.530685 43.430511 -78.099785 -65.933556
-0.011002986 -9.458703 -44.531536 55.219273 -71.598022 40.986145 -54.210785 80.507103
-53.181801 104.20351 -66.930008 -12.360662 -45.056156 50.25069 -0.022280851 -9.398386
-70.737045 -117.88505 -54.493088 95.634918 -0.041869633 -9.3999758 -45.799042 42.099438
334950000 -44.70591 51.788631 -0.027418543 -12.001149 -50.485172 58.122513 -77.844803 -45.08802
-0.017071581 -11.976837 -44.388538 50.163025 -75.146294 40.837719 -51.576748 78.030502
-51.164604 89.612755 -69.401398 -57.33733 -45.044098 45.207832 -0.027460692 -11.903345
-73.097939 -129.63075 -51.781799 85.621414 -0.036714248 -11.900332 -45.932999 42.139694
416187500 -44.602757 47.254162 -0.028061723 -14.797489 -49.345757 72.462738 -78.252335 -25.530594
-0.023932632 -14.808086 -44.386402 45.678986 -77.608711 35.082703 -48.843815 75.24408
-49.083241 74.515854 -71.721718 -103.75943 -44.998627 40.236534 -0.033834279 -14.720612
-76.711227 -148.23741 -48.977646 75.291481 -0.03170434 -14.714585 -46.001869 42.647655
497425000 -43.985867 42.877026 -0.031603556 -17.639624 -47.015965 71.988724 -78.144379 20.81061
-0.027334888 -17.658472 -43.813324 44.837257 -78.382492 29.741287 -46.837852 72.823799
-46.954277 71.349747 -72.015755 -124.90521 -44.463108 36.587418 -0.038026057 -17.542696
-76.219681 -175.80919 -46.870899 72.112274 -0.036303259 -17.539019 -45.723572 37.928734
578662500 -43.29987 38.907005 -0.034999609 -20.48984 -45.308403 68.700363 -79.391739 71.746132
-0.030295685 -20.505484 -43.181206 42.379627 -79.456055 4.4596276 -45.261192 69.815941
-45.343887 68.164391 -72.604881 -152.18747 -44.008762 31.344936 -0.041683223 -20.365551
-75.687881 174.03525 -45.34713 69.030663 -0.03964179 -20.359449 -45.131569 32.871983
659900000 -42.514587 33.417507 -0.037369754 -23.339672 -43.995415 66.959427 -78.901428 98.908951
-0.032759532 -23.354275 -42.882751 39.844181 -80.166046 -44.543877 -43.938587 66.305336
-43.9958 65.662025 -74.192215 -176.28519 -43.282795 28.302946 -0.045060277 -23.188637
-74.56646 163.82942 -44.067009 66.055252 -0.042778913 -23.185921 -44.581078 29.618402
741137500 -42.150715 29.751516 -0.039895754 -26.191101 -42.910904 64.166069 -77.83989 122.76347
-0.035777327 -26.20339 -42.247059 36.615318 -77.854134 -76.906296 -42.916245 63.691452
-42.886772 62.852139 -73.883621 179.89481 -42.811043 23.474186 -0.048927519 -26.018423
-73.999428 165.3804 -42.963936 63.387871 -0.044960212 -26.01408 -44.178535 26.116138
822375000 -41.48164 27.468159 -0.042507395 -29.040873 -42.001968 61.274227 -76.97612 152.59969
-0.038180966 -29.059252 -41.713581 34.033485 -77.485916 -130.29782 -41.963165 60.670898
-41.921638 60.188702 -73.633476 172.23523 -42.549191 21.161299 -0.051288933 -28.845331
-73.962799 160.55614 -42.006393 60.757011 -0.04827626 -28.846416 -43.698299 21.974594
903612500 -41.051109 23.656322 -0.044627208 -31.88946 -41.083256 58.274067 -75.451157 172.64746
-0.040811174 -31.908403 -41.541142 30.62187 -78.222305 -151.58391 -41.077522 57.801727
-41.025921 57.769135 -73.954918 148.14284 -42.467045 17.891682 -0.053978179 -31.645315
-74.533234 151.23755 -41.163342 58.024658 -0.051328577 -31.675344 -43.27874 17.218981
984850000 -40.697926 20.972216 -0.046514161 -34.740471 -40.288818 55.204311 -74.378288 172.40549
-0.041888155 -34.759041 -41.133991 28.022118 -78.479729 -157.78812 -40.285244 55.026665
-40.320728 54.98222 -74.367226 135.81776 -42.218105 14.381049 -0.056930229 -34.473415
-73.6437 136.25459 -40.311901 55.21769 -0.052796803 -34.498135 -42.772217 12.963001
1066087500 -40.340042 18.262764 -0.04832983 -37.593521 -39.602211 52.475792 -75.750496 156.89938
-0.044165839 -37.608807 -40.710312 25.062447 -77.1595 173.58078 -39.581966 52.182549
-39.626263 52.036072 -75.936104 142.90591 -42.04945 11.644612 -0.059218559 -37.294624
-73.490997 117.02718 -39.607365 52.499939 -0.054509822 -37.327454 -42.597069 9.4496746
1147325000 -39.875938 15.449065 -0.050346874 -40.451576 -38.950047 49.778309 -76.037437 148.35561
-0.045173589 -40.459652 -40.143833 21.45599 -77.066467 156.59811 -38.908123 49.346367
-38.948154 49.325191 -77.396042 163.41612 -41.843304 8.6528559 -0.060859833 -40.119556
-71.837387 112.13717 -38.948917 49.833782 -0.05753677 -40.160511 -42.362457 5.9256601
1228562500 -39.53862 12.389825 -0.0523839 -43.303169 -38.386162 46.914486 -76.255692 136.61638
-0.047189847 -43.312405 -39.860851 18.559273 -76.946098 139.93703 -38.31813 46.498192
-38.317364 46.534241 -77.39492 157.65024 -41.568047 5.9567003 -0.062572584 -42.948856
-71.897743 110.06692 -38.353241 47.043827 -0.059202429 -42.995216 -42.147793 2.0968823
1309800000 -39.24794 9.7456837 -0.054179981 -46.15583 -37.79459 43.819389 -75.950714 114.02813
-0.048632022 -46.162647 -39.610226 16.274807 -76.07872 125.59933 -37.768009 43.691929
-37.797161 43.76358 -77.612228 159.50041 -41.29792 3.0439236 -0.064668663 -45.782249
-72.364693 113.01956 -37.776321 44.329094 -0.061522111 -45.828114 -42.024822 -1.174654
1391037500 -38.888058 7.0268807 -0.056426309 -49.012405 -37.258774 40.922249 -75.605515 118.64741
-0.050195422 -49.019035 -39.3218 14.674293 -75.7005 121.12933 -37.240932 40.86351
-37.251289 40.873058 -76.731422 169.2449 -41.022827 0.28616327 -0.067635231 -48.616749
-72.716156 113.56673 -37.248756 41.458073 -0.063421674 -48.66148 -41.868507 -3.4328372
1472275000 -38.575169 3.9394627 -0.058604889 -51.862137 -36.731201 38.103428 -76.352303 94.077652
-0.051473044 -51.874439 -39.138161 12.532178 -77.192444 108.76824 -36.719494 38.070793
-36.7477 38.19973 -77.350273 165.89725 -40.815643 -2.5508862 -0.068914242 -51.44537
-72.483696 108.59211 -36.752186 38.389828 -0.066614725 -51.489983 -41.893356 -6.4640813
1553512500 -38.334 1.0519311 -0.06063104 -54.717098 -36.26321 35.291264 -78.17395 55.469799
-0.052876487 -54.726765 -38.989128 10.521727 -76.639572 110.43488 -36.233555 35.16172
-36.274788 35.324112 -76.998581 146.76906 -40.507267 -4.9151864 -0.070952311 -54.272564
-72.46991 99.562317 -36.277603 35.420063 -0.06814187 -54.316345 -41.786312 -9.5043087
1634750000 -38.178589 -1.889974 -0.062613137 -57.574364 -35.820763 32.47488 -77.876274 -0.95241833
-0.053840514 -57.583954 -38.893063 8.8778419 -75.557365 100.01644 -35.800541 32.302937
-35.821415 32.506569 -76.687424 149.59741 -40.290039 -7.5120411 -0.072608195 -57.101315
-71.958694 94.842072 -35.823685 32.649338 -0.069328979 -57.146168 -41.629513 -12.628931
1715987500 -37.997967 -4.8779492 -0.065204203 -60.430965 -35.400578 29.574142 -78.497307 -49.687214
-0.055922937 -60.44072 -38.851978 6.6517196 -75.373619 84.927155 -35.370972 29.504333
-35.393364 29.676739 -77.657066 148.65332 -40.246017 -10.324435 -0.073189519 -59.926018
-71.94854 90.648354 -35.398064 29.787825 -0.071360424 -59.981548 -41.55912 -15.947598
1797225000 -37.85223 -7.8746872 -0.067605041 -63.278095 -34.984089 26.787735 -76.507339 -87.47834
-0.05719078 -63.291374 -38.791958 4.5459352 -75.535469 86.413918 -34.953274 26.693653
-34.983601 26.791666 -76.662834 132.71599 -40.130203 -12.652445 -0.075033791 -62.756771
-71.822144 91.091385 -34.981579 26.964314 -0.07358519 -62.810844 -41.478489 -18.252373
1878462500 -37.798729 -10.489199 -0.069429055 -66.130028 -34.587051 23.990732 -75.150986 -123.69517
-0.059617829 -66.142151 -38.718464 2.4334791 -75.228539 83.38266 -34.576614 23.96207
-34.58662 23.96277 -75.98819 104.44762 -40.064129 -13.96878 -0.076285943 -65.583557
-72.073769 85.532196 -34.584755 24.132723 -0.074373193 -65.637589 -41.385174 -21.979452
1959700000 -37.693127 -12.286873 -0.071746893 -68.983635 -34.193741 21.071381 -75.098991 -175.36728
-0.060417831 -68.991882 -38.568333 -0.0863121 -73.500343 82.319664 -34.210949 21.097185
-34.221485 21.163534 -75.689812 91.043793 -40.10519 -16.242712 -0.077745847 -68.408539
-71.89048 89.160416 -34.220112 21.176487 -0.075776301 -68.468102 -41.339466 -25.177599
2040937500 -37.448898 -14.307568 -0.074180938 -71.831696 -33.853817 18.336769 -73.926437 146.59644
-0.061970476 -71.839607 -38.370785 -2.2501502 -72.222618 78.045731 -33.872738 18.156162
-33.86739 18.300615 -75.296982 85.553055 -39.998241 -17.304174 -0.078698471 -71.232742
-71.006927 76.35231 -33.855209 18.335609 -0.076587759 -71.299988 -41.268318 -27.17312
2122175000 -37.272301 -16.624348 -0.076278962 -74.678329 -33.501339 15.627929 -73.645363 100.88177
-0.064032122 -74.680992 -38.218334 -4.4537568 -72.216057 76.499153 -33.53862 15.343211
-33.536469 15.606498 -74.862991 80.629303 -40.023426 -18.364088 -0.079512171 -74.050774
-70.328255 74.272087 -33.513439 15.451092 -0.077907816 -74.131401 -41.158611 -29.85601
2203412500 -37.100033 -18.443394 -0.078037314 -77.524864 -33.178188 12.780237 -72.717812 75.918488
-0.065711297 -77.526131 -38.044186 -6.7745509 -70.643486 79.553253 -33.205784 12.461844
-33.221741 12.700515 -74.523598 72.484055 -39.899296 -19.255245 -0.08139281 -76.876724
-70.313599 69.309349 -33.181664 12.662785 -0.079425953 -76.957382 -41.067013 -31.893299
2284650000 -36.800694 -20.512119 -0.079186492 -80.370346 -32.872669 9.9147062 -70.14502 66.701256
-0.067516163 -80.367668 -37.867718 -7.8516474 -70.332481 79.804993 -32.891376 9.5911636
-32.91124 9.9424667 -73.617264 77.690216 -39.843723 -21.172169 -0.08290989 -79.69825
-69.221146 66.779602 -32.866791 9.7643986 -0.080841221 -79.7845 -40.882069 -33.854313
2365887500 -36.616364 -23.645868 -0.080062941 -83.209259 -32.564754 7.1419168 -70.573204 93.389374
-0.069549695 -83.212288 -37.717571 -9.3414555 -70.436905 76.379829 -32.5835 6.807456
-32.609028 7.1471696 -73.776085 76.69236 -39.763088 -22.707611 -0.084186956 -82.520569
-68.711441 63.798996 -32.580544 6.8924584 -0.082833432 -82.607346 -40.863037 -35.388931
2447125000 -36.476849 -25.757357 -0.081294693 -86.056175 -32.267593 4.2989607 -70.016556 95.042633
-0.070542529 -86.057205 -37.45573 -9.9251986 -70.344444 79.261948 -32.286472 3.9154239
-32.311886 4.3273888 -72.429176 74.732025 -39.462986 -23.55682 -0.086654685 -85.349815
-67.8367 57.911999 -32.292011 4.0618377 -0.084121749 -85.432442 -40.799534 -35.969757
2528362500 -36.337048 -28.415785 -0.083069704 -88.903198 -31.993349 1.362818 -70.50589 96.243317
-0.071039863 -88.908485 -37.466148 -10.908892 -69.947136 68.925003 -32.009056 1.1136461
-32.029247 1.5418046 -71.617462 78.666046 -39.233196 -24.661037 -0.088005498 -88.169312
-68.22995 57.084114 -32.016449 1.1947321 -0.085441709 -88.262665 -40.555977 -37.587681
2609600000 -36.262821 -30.591646 -0.084571928 -91.753754 -31.721378 -1.5222985 -70.721565 82.708145
-0.070308201 -91.763016 -37.422894 -11.785813 -70.151802 67.437187 -31.737865 -1.7506506
-31.748936 -1.3231568 -70.997932 75.795654 -39.047054 -26.507936 -0.089915819 -90.99334
-67.694054 56.869507 -31.749113 -1.7316111 -0.087252446 -91.090034 -40.520157 -38.185501
2690837500 -36.086662 -33.623962 -0.085717246 -94.60556 -31.468422 -4.2338333 -69.247887 81.545975
-0.071978062 -94.61718 -37.447857 -11.701156 -70.688507 70.40464 -31.470181 -4.5242157
-31.503967 -4.1478682 -70.482239 73.579712 -38.847794 -27.362356 -0.09237399 -93.823235
-67.568611 51.034561 -31.481064 -4.5117593 -0.090096414 -93.913589 -40.33363 -38.269676
2772075000 -36.066105 -36.82077 -0.086350091 -97.453697 -31.201975 -7.059031 -72.125473 63.24041
-0.073755346 -97.473274 -37.408695 -12.588233 -71.162132 67.712425 -31.20118 -7.2779031
-31.237589 -6.9642968 -71.791275 71.376953 -38.690758 -28.342314 -0.094603971 -96.64798
-68.396957 50.135059 -31.224419 -7.4083886 -0.092425279 -96.738556 -40.107277 -39.728462
2853312500 -36.03677 -38.701828 -0.087763183 -100.30094 -30.958809 -9.8951569 -72.041168 58.162041
-0.073407292 -100.33408 -37.313393 -13.570759 -70.833588 66.139915 -30.955439 -10.133692
-30.991119 -9.8589697 -71.617523 71.196404 -38.504128 -28.862692 -0.096656032 -99.478249
-68.173004 44.736084 -30.979475 -10.247101 -0.094551556 -99.562485 -39.907509 -41.216587
2934550000 -35.973354 -40.937126 -0.088406436 -103.14882 -30.718008 -12.774091 -71.669037 58.476452
-0.073525019 -103.18875 -37.291142 -14.598049 -70.562599 71.482864 -30.71512 -12.977105
-30.735485 -12.699201 -71.557922 75.133179 -38.335911 -30.463221 -0.096749924 -102.30284
-68.651482 45.735973 -30.736532 -13.058275 -0.094046712 -102.38869 -39.667404 -41.994175
3015787500 -36.029289 -43.317524 -0.090046555 -105.99596 -30.47604 -15.650221 -72.603493 49.516495
-0.073970571 -106.05155 -37.186554 -16.152302 -70.771004 68.507423 -30.489523 -15.802251
-30.495169 -15.534593 -71.404449 74.29467 -38.151558 -30.49114 -0.097550415 -105.13566
-71.930626 46.892872 -30.50486 -15.904 -0.094652608 -105.21963 -39.504791 -43.496868
3097025000 -35.998226 -44.383785 -0.0917276 -108.84612 -30.253038 -18.488869 -70.592781 24.976782
-0.074385867 -108.91004 -37.129826 -17.983301 -70.549072 60.153641 -30.265013 -18.688421
-30.25889 -18.406677 -70.525719 65.3992 -38.024944 -31.428669 -0.09907636 -107.96704
-71.892136 50.772934 -30.26037 -18.791754 -0.095122494 -108.05105 -39.251274 -44.344166
3178262500 -35.871326 -46.123055 -0.092273802 -111.68692 -30.032463 -21.297586 -70.3741 21.256638
-0.075417727 -111.75967 -37.01746 -19.55035 -69.956772 57.861771 -30.039974 -21.504223
-30.036613 -21.276487 -70.43782 62.901257 -37.830742 -32.623764 -0.1001674 -110.79506
-71.531136 49.68668 -30.037401 -21.672741 -0.096018851 -110.87609 -38.965714 -45.714027
3259500000 -35.775604 -47.760986 -0.09258689 -114.5362 -29.815355 -24.092937 -70.10759 15.677974
-0.076230451 -114.61506 -36.776237 -21.311888 -70.195747 64.747696 -29.815462 -24.356136
-29.823572 -24.100939 -70.772552 55.559547 -37.790977 -33.526302 -0.10156345 -113.62614
-71.857346 44.93745 -29.825603 -24.568789 -0.097216576 -113.69841 -38.78981 -47.050308
3340737500 -35.614567 -49.679214 -0.093304731 -117.37695 -29.613852 -26.935843 -69.863434 13.748059
-0.077716947 -117.46478 -36.574848 -23.360802 -69.748734 59.85458 -29.603615 -27.241817
-29.617397 -26.966093 -70.969994 53.275024 -37.673702 -34.878929 -0.10282218 -116.46301
-72.102127 40.517696 -29.609602 -27.417912 -0.098312661 -116.5199 -38.452038 -48.423275
3421975000 -35.578236 -51.768871 -0.09387973 -120.21875 -29.401098 -29.825159 -70.533073 10.968028
-0.077951431 -120.31312 -36.33112 -25.242012 -69.224098 53.121586 -29.393133 -30.1003
-29.399193 -29.844812 -70.987259 52.744789 -37.469669 -35.775242 -0.1032493 -119.2939
-71.903702 32.093094 -29.389128 -30.277519 -0.098085769 -119.34344 -38.144428 -49.661076
3503212500 -35.566746 -54.153412 -0.09469144 -123.06504 -29.204889 -32.654163 -67.694397 24.025211
-0.078614496 -123.16517 -36.234787 -26.853125 -68.795799 60.448746 -29.191563 -32.988457
-29.198608 -32.682823 -69.918015 53.550236 -37.466324 -38.134701 -0.10407376 -122.12673
-70.700165 27.356173 -29.18729 -33.106956 -0.099033773 -122.16998 -37.892452 -50.777782
3584450000 -35.512577 -56.824776 -0.095243581 -125.91033 -29.002949 -35.43681 -67.487106 25.406412
-0.079914503 -126.01601 -36.11264 -28.753315 -69.728249 56.340767 -28.990049 -35.790859
-28.995714 -35.495735 -69.720406 52.298161 -37.307964 -40.024315 -0.10495393 -124.95947
-70.560249 25.929646 -28.989119 -35.953186 -0.099940471 -124.98895 -37.664165 -51.513115
3665687500 -35.600971 -59.793491 -0.096297495 -128.7587 -28.810652 -38.253323 -67.423103 20.012304
-0.080984913 -128.86725 -36.073666 -30.215954 -70.259544 52.628906 -28.802475 -38.602337
-28.809683 -38.334866 -69.3629 48.354561 -37.219925 -41.239067 -0.10783299 -127.79536
-69.706734 21.771585 -28.803909 -38.852379 -0.10280687 -127.81257 -37.449604 -52.868073
3746925000 -35.663624 -62.793804 -0.09682782 -131.6042 -28.622374 -41.018963 -66.170067 17.971394
-0.082114272 -131.71669 -36.098991 -32.016853 -70.967766 49.553234 -28.605532 -41.488712
-28.621756 -41.214184 -69.663986 48.976387 -37.116241 -43.08083 -0.11024801 -130.62346
-66.479263 17.73057 -28.616245 -41.655655 -0.10555723 -130.63425 -37.21534 -53.815605
3828162500 -35.733822 -66.050537 -0.097406387 -134.45412 -28.434423 -43.840355 -66.577042 19.179817
-0.083450913 -134.56644 -36.081299 -33.139145 -70.638672 53.75985 -28.42235 -44.29295
-28.445658 -44.0471 -69.790344 51.490475 -37.002804 -44.168983 -0.11206963 -133.45543
-66.455452 14.772143 -28.438875 -44.482597 -0.10860539 -133.45401 -37.00235 -55.245632
3909400000 -35.889622 -69.654404 -0.099106014 -137.30434 -28.256773 -46.63649 -66.497452 16.957336
-0.084584974 -137.4231 -36.173885 -35.07225 -71.223618 57.931187 -28.245455 -47.143024
-28.263247 -46.82217 -69.916573 47.213249 -36.93597 -45.85416 -0.11437735 -136.28914
-66.962502 11.661824 -28.254017 -47.303238 -0.1111583 -136.27348 -36.810108 -56.718651
3990637500 -36.013611 -72.113022 -0.099760726 -140.15128 -28.0811 -49.417221 -66.406662 13.377192
-0.086592324 -140.26791 -36.32938 -36.900845 -70.526123 57.128998 -28.077377 -50.018692
-28.084669 -49.636227 -69.488289 43.763935 -36.754444 -47.255211 -0.11728255 -139.12125
-66.298729 14.226707 -28.074472 -50.090431 -0.11313589 -139.09187 -36.659557 -58.44886
4071875000 -36.141541 -74.813751 -0.10063995 -143.00084 -27.905567 -52.196079 -66.570381 11.960728
-0.08873263 -143.1225 -36.480701 -38.452137 -70.255142 55.767838 -27.898663 -52.847607
-27.918552 -52.455967 -68.904884 43.839413 -36.642841 -48.762489 -0.11926576 -141.94585
-66.162743 15.185478 -27.898552 -52.901718 -0.11590184 -141.91446 -36.46376 -59.635952
4153112500 -36.296474 -77.863319 -0.10241859 -145.85234 -27.73773 -55.039993 -66.220703 11.862537
-0.090696804 -145.97774 -36.578888 -40.609978 -70.054169 55.836487 -27.728674 -55.685913
-27.751301 -55.318966 -68.910744 43.46574 -36.536579 -50.357155 -0.1217108 -144.76886
-66.838043 14.902989 -27.731108 -55.680763 -0.11854792 -144.73688 -36.363567 -61.388191
4234350000 -36.462185 -80.170189 -0.10345619 -148.70279 -27.568201 -57.850925 -66.099884 13.921204
-0.092037186 -148.8277 -36.691257 -42.476925 -70.235886 54.066189 -27.559866 -58.552433
-27.5863 -58.151855 -67.909805 37.362057 -36.355007 -51.572525 -0.12421951 -147.59409
-67.328026 16.147253 -27.565636 -58.494343 -0.12067457 -147.55644 -36.204109 -63.100254
4315587500 -36.520058 -82.90802 -0.10488984 -151.54933 -27.402788 -60.696709 -66.0896 11.56479
-0.094000936 -151.67525 -36.852077 -43.775265 -69.519005 53.241486 -27.396671 -61.407902
