! MARKI MICROWAVE INC.
! Email:             	info@markimicrowave.com   				Phone:   408-778-4200
! Model Number:      	C-0250						Date:    09/13
! Filename:		C-0250.S4P						Version: 1.0
! Description:       	4-port S-parameter data for Coupler C-0250
! Frequency Range: 	10 MHz to 50 GHz		
! Port Configuration:	PORT 1: Input 
!			PORT 2: Output 
!			Port 3: Coupled 	
!			Port 4: Isolated

! S4P File: Measurements: Mag<S11> Ang<S11> Mag<S12> Ang<S12> Mag<S13> Ang<S13> Mag<S14> Ang<S14>! row 1 
!			  Mag<S21> Ang<S21> Mag<S22> Ang<S22> Mag<S23> Ang<S23> Mag<S24> Ang<S24>! row 2 
!			  Mag<S31> Ang<S31> Mag<S32> Ang<S32> Mag<S33> Ang<S33> Mag<S34> Ang<S34>! row 3 
!			  Mag<S41> Ang<S41> Mag<S42> Ang<S42> Mag<S43> Ang<S43> Mag<S44> Ang<S44>! row 4

# Hz S  dB   R 50
10000000 -45.723286 78.262711 -0.024795296 -3.1122925 -52.846264 132.79924 -62.757141 94.33532
-0.0067312876 -3.1177053 -43.713009 82.641632 -66.190758 149.95691 -56.316315 76.23304
-54.673016 24.413496 -63.455265 169.60954 -45.629223 71.763405 -0.016216205 -3.1125722
-65.808868 75.410286 -51.68288 158.82698 -0.056728374 -3.026521 -45.725582 31.193932
72487500 -45.63633 73.416267 -0.024767879 -4.2988501 -53.110432 123.04112 -64.328651 75.026711
-0.0090164421 -4.3061948 -43.952 76.601242 -67.68293 168.14999 -56.061958 77.297531
-54.689983 35.548382 -66.050728 -175.77066 -45.938381 68.896286 -0.018445028 -4.2926979
-67.585403 72.779549 -52.040104 143.11845 -0.049834166 -4.2277269 -45.851414 32.490021
134975000 -45.598053 69.578735 -0.024646088 -5.7318583 -53.257721 113.10622 -66.444504 62.376568
-0.011636165 -5.740046 -44.101639 71.127373 -70.519707 -178.43074 -55.551029 78.352516
-54.423859 46.350399 -67.696487 -145.5462 -46.188705 64.435303 -0.021302518 -5.7110472
-70.052994 60.171291 -52.325962 127.09151 -0.043614611 -5.6684847 -45.931976 36.206032
197462500 -45.250019 64.220619 -0.025456551 -7.4016523 -53.227711 102.49835 -67.467613 69.211983
-0.015053955 -7.4101748 -44.01688 64.328003 -72.547623 -159.19357 -54.904507 78.983131
-54.014347 56.975883 -70.897163 -125.80254 -46.179718 58.531212 -0.024137584 -7.369957
-71.892235 59.000908 -52.473782 110.32563 -0.038068663 -7.3553162 -46.163078 39.18948
259950000 -44.904858 59.60672 -0.025927726 -9.320672 -53.049419 91.153572 -69.806252 89.136421
-0.018554572 -9.3254824 -43.834843 57.820126 -74.339569 -150.69852 -54.108601 79.312233
-53.563244 67.645676 -72.639633 -91.632301 -46.171471 52.743347 -0.026450524 -9.2722502
-73.887283 51.37619 -52.4977 93.144188 -0.031878553 -9.2827539 -46.261436 42.815266
322437500 -44.515949 53.91711 -0.026731972 -11.479648 -52.710899 80.129738 -73.491043 100.5282
-0.021849673 -11.486867 -43.726875 51.376026 -77.061836 -147.95679 -53.194683 79.810661
-52.924915 77.750221 -75.699074 -50.626492 -46.186123 48.056469 -0.029165337 -11.419356
-75.205009 62.924122 -52.391827 76.286285 -0.026279077 -11.44526 -46.31353 44.736958
384925000 -44.004906 50.667557 -0.029291781 -13.657969 -50.650879 75.823715 -76.267799 128.62029
-0.024962146 -13.665069 -43.267212 49.042751 -76.379074 -172.49345 -50.887878 75.026772
-50.803604 76.383759 -74.954865 -2.9992104 -45.995369 44.932449 -0.031891163 -13.566136
-73.237724 75.247757 -50.56456 77.214218 -0.030073715 -13.600813 -46.174362 39.801579
447412500 -43.251625 45.565647 -0.032019716 -15.832879 -49.194447 74.152855 -75.757347 152.64008
-0.027374638 -15.843435 -42.64537 44.752144 -76.014641 164.15714 -49.18269 73.322327
-49.254852 74.248558 -75.023209 36.629383 -45.623493 39.222473 -0.034748103 -15.735136
-73.413376 85.825668 -48.901241 75.170029 -0.033139139 -15.768344 -45.710751 35.78019
509900000 -42.686687 42.798222 -0.034707677 -18.011503 -47.886471 71.695709 -76.091988 148.76381
-0.030409232 -18.026007 -42.086102 42.927147 -76.062965 132.1024 -47.753567 70.65506
-47.987309 71.408852 -75.845726 75.287453 -44.973526 34.620735 -0.037117131 -17.903206
-73.149742 99.336304 -47.594921 72.141251 -0.036348075 -17.935173 -45.515297 30.656475
572387500 -41.958012 40.249493 -0.037809346 -20.189751 -46.639923 68.936676 -76.636375 139.49762
-0.032690041 -20.201372 -41.717178 41.213867 -76.264267 112.15768 -46.630707 69.107376
-46.793232 69.494614 -77.062309 119.87452 -44.523369 31.770735 -0.040433526 -20.073513
-74.685852 88.333397 -46.400673 69.097549 -0.038878966 -20.102264 -45.029896 27.24025
634875000 -41.544369 38.389706 -0.03964325 -22.372622 -45.663555 66.330223 -76.399757 151.1158
-0.035524793 -22.381348 -41.240841 38.696953 -77.133682 100.30091 -45.594452 67.064499
-45.747917 67.342339 -76.14946 -178.60941 -44.148724 27.033495 -0.042339101 -22.242205
-74.085739 57.798611 -45.538212 66.756668 -0.041001569 -22.276243 -44.806065 25.845264
697362500 -41.070541 35.302696 -0.041964408 -24.552191 -44.737465 64.035309 -76.275101 164.04759
-0.038058113 -24.565195 -40.889004 35.1577 -76.401031 88.325966 -44.742249 64.836334
-44.892685 65.225388 -77.761055 -117.93452 -43.777958 23.979195 -0.043777566 -24.412113
-73.074417 38.092175 -44.681915 64.48349 -0.0430234 -24.451082 -44.472519 22.238037
759850000 -40.820686 33.8815 -0.044001248 -26.737492 -43.920506 61.928158 -77.850914 177.13762
-0.039078169 -26.749493 -40.689915 32.635521 -76.452866 73.8666 -43.963474 62.752739
-44.102657 63.123207 -76.500282 -42.982998 -43.672264 21.759356 -0.046163175 -26.588604
-72.617317 0.35240227 -43.91748 62.641987 -0.04412679 -26.623047 -44.136642 18.799704
822337500 -40.551628 31.392635 -0.046067294 -28.914629 -43.231586 60.399506 -78.673225 171.03157
-0.04096368 -28.932009 -40.478996 30.114424 -76.397171 67.676514 -43.265587 60.987854
-43.31712 60.617157 -77.847862 12.76221 -43.535255 19.221487 -0.047926411 -28.764742
-72.020218 -23.345734 -43.209396 60.969433 -0.046961918 -28.797417 -43.748432 14.422882
884825000 -40.315777 29.946295 -0.04887617 -31.097176 -42.617146 58.460007 -77.035461 -169.70621
-0.043187294 -31.111498 -40.166008 27.070036 -75.886505 79.299965 -42.640217 58.699364
-42.67907 58.378208 -77.154877 53.836678 -43.393585 15.743103 -0.051051412 -30.935457
-72.326744 -57.002171 -42.582924 58.74324 -0.048370332 -30.97444 -43.492821 10.74922
947312500 -40.012611 28.086742 -0.050861631 -33.284084 -42.036568 56.693752 -74.839523 -174.53404
-0.044836722 -33.295914 -39.859005 25.079123 -76.47924 86.299866 -42.023712 56.433315
-42.036877 56.427197 -76.286835 67.779503 -43.063343 11.821924 -0.053374857 -33.109684
-74.759872 -90.427475 -42.024014 56.486229 -0.049516033 -33.144234 -43.121159 6.2707214
1009800000 -39.771717 27.874781 -0.052165113 -35.470581 -41.450985 54.470692 -75.401581 -154.02763
-0.045729324 -35.478287 -39.569794 22.95561 -76.939774 100.25867 -41.461807 54.236881
-41.444748 54.195572 -76.502876 92.957901 -42.903912 10.844795 -0.055763461 -35.282719
-75.201141 -99.951447 -41.406818 54.454998 -0.051000986 -35.317642 -42.828049 2.9211459
1072287500 -39.444702 26.69042 -0.052899793 -37.653637 -40.90604 52.113297 -75.593987 -114.18127
-0.046363369 -37.664207 -39.208126 20.721375 -77.589478 94.2509 -40.965431 52.207699
-40.921555 52.063595 -76.859604 121.98012 -42.754101 9.2152309 -0.057376478 -37.455925
-75.802742 -99.62011 -40.886463 52.496178 -0.052119784 -37.492283 -42.560139 0.085030153
1134775000 -39.212341 25.088207 -0.053963814 -39.839333 -40.447014 49.977505 -74.855667 -57.856014
-0.047425576 -39.851673 -38.829708 18.28953 -77.32106 96.806267 -40.45372 50.027946
-40.420994 49.860077 -75.841919 137.58006 -42.610313 6.7063384 -0.057478275 -39.629494
-74.633842 -83.565018 -40.361046 50.321461 -0.053259589 -39.670525 -42.412262 -3.0505681
1197262500 -38.831863 23.273815 -0.055748262 -42.025326 -39.983749 48.124641 -75.949669 -18.916786
-0.048307531 -42.041733 -38.522488 16.497011 -76.901001 92.829468 -39.964081 47.945946
-39.925709 47.594597 -75.810989 136.64777 -42.412998 4.351306 -0.059711423 -41.808788
-75.176994 -45.088852 -39.897068 48.037945 -0.054492567 -41.847095 -42.234356 -5.2073398
1259750000 -38.462101 21.635891 -0.056993742 -44.208897 -39.54406 45.848083 -75.415276 19.523136
-0.049518324 -44.22438 -38.147972 15.149063 -77.051491 91.775955 -39.513329 45.770123
-39.480965 45.37685 -74.463585 124.52526 -42.225346 2.4879622 -0.061994869 -43.991428
-75.341545 -17.977943 -39.458309 45.865906 -0.055675514 -44.020676 -42.112644 -8.3210258
1322237500 -38.178871 19.394606 -0.057847027 -46.393764 -39.1483 43.798126 -74.487411 32.628998
-0.051395856 -46.409031 -37.912392 13.628512 -76.779266 91.146042 -39.08144 43.693607
-39.082214 43.110542 -74.251534 102.7506 -42.036686 0.48266509 -0.063151255 -46.168602
-77.763588 -2.9823792 -39.040806 43.745438 -0.057670165 -46.196323 -41.940784 -10.41909
1384725000 -37.927837 17.723753 -0.059018947 -48.581242 -38.72295 41.612087 -73.751808 51.126884
-0.051865801 -48.595676 -37.767246 11.600884 -77.11882 90.920273 -38.69257 41.468327
-38.664978 41.045639 -73.010315 86.257889 -41.782543 -1.600135 -0.065993346 -48.345116
-78.552284 -14.466138 -38.655655 41.513962 -0.058538925 -48.367214 -42.006123 -12.447218
1447212500 -37.654335 15.03764 -0.059267964 -50.763058 -38.341999 39.293663 -73.309586 44.58379
-0.052951142 -50.783405 -37.616055 9.8179941 -76.391846 84.269287 -38.309212 39.189934
-38.263435 39.043121 -72.714546 78.727402 -41.607006 -4.1799059 -0.067189492 -50.520248
-78.355698 -32.88726 -38.269814 39.420586 -0.059598211 -50.544785 -42.009407 -15.131446
1509700000 -37.468895 13.966558 -0.060947701 -52.949574 -37.960335 36.905769 -72.886292 61.351288
-0.05376206 -52.973804 -37.384926 8.0356035 -75.328926 89.662285 -37.923836 37.11451
-37.908638 36.877102 -73.222397 79.026611 -41.517258 -5.7257075 -0.068247832 -52.69556
-75.87027 -67.382317 -37.898621 37.046669 -0.060222611 -52.721916 -42.093891 -16.902491
1572187500 -37.265366 11.612934 -0.062864393 -55.134789 -37.60471 34.574215 -72.164169 65.895813
-0.055443205 -55.161243 -37.238285 6.1302638 -74.180023 83.640671 -37.556965 34.914776
-37.567635 34.652493 -73.36454 75.905487 -41.568363 -8.460659 -0.06802734 -54.865765
-75.807419 -104.94002 -37.533615 34.855743 -0.061016221 -54.898285 -42.04689 -18.943245
1634675000 -37.127712 9.5950947 -0.064313143 -57.323654 -37.234127 32.420574 -72.649445 70.109459
-0.056383517 -57.341782 -37.158859 4.0530281 -74.910393 98.005409 -37.182095 32.708778
-37.212433 32.621956 -71.966545 70.659485 -41.590137 -11.684376 -0.069720477 -57.046398
-75.464348 -150.76736 -37.174923 32.706135 -0.062919043 -57.07275 -42.184002 -20.545738
1697162500 -37.061306 7.7890983 -0.065706886 -59.511848 -36.906647 30.362774 -72.464096 65.818794
-0.057457626 -59.526077 -37.120701 2.0424194 -74.757378 89.277504 -36.84911 30.551029
-36.88105 30.403706 -72.260422 67.261787 -41.483059 -12.640094 -0.072035864 -59.219448
-75.043808 168.78067 -36.883419 30.559786 -0.064739518 -59.244926 -42.175701 -23.189146
1759650000 -37.040066 6.332984 -0.066664979 -61.697037 -36.585232 28.154903 -72.214172 61.810192
-0.058604579 -61.7108 -37.085583 -0.084952325 -74.278702 80.557823 -36.554756 28.391882
-36.555584 28.282974 -72.638176 67.439079 -41.359253 -13.455941 -0.072450452 -61.395874
-74.585342 124.3136 -36.55928 28.361576 -0.066347361 -61.420074 -42.100163 -25.623325
1822137500 -36.98975 4.3570547 -0.068384632 -63.882267 -36.288826 26.019466 -71.892769 53.461372
-0.059879314 -63.896877 -37.048145 -3.2003675 -73.446747 85.907516 -36.24733 26.257915
-36.254566 26.171671 -72.029984 58.829834 -41.38842 -15.174877 -0.07314337 -63.566536
-74.969299 75.107796 -36.252079 26.047691 -0.067929588 -63.599586 -42.111897 -28.257376
1884625000 -36.925186 3.1062889 -0.069780327 -66.064766 -35.987118 23.945929 -72.449341 53.292152
-0.060965963 -66.083908 -36.795498 -5.7398615 -74.050308 83.326981 -35.965702 24.002813
-35.973183 24.076645 -72.124901 56.269386 -41.37394 -16.502645 -0.073587276 -65.736153
-73.654686 45.290874 -35.943741 23.854488 -0.068735979 -65.769173 -42.131794 -30.535769
1947112500 -36.749352 0.77239639 -0.071724825 -68.248222 -35.697708 21.882338 -72.060448 53.577049
-0.062770821 -68.264282 -36.615673 -7.6730118 -73.87146 87.533371 -35.671112 21.60338
-35.687149 21.844193 -72.654633 53.043812 -41.4995 -17.412752 -0.074011251 -67.900253
-72.615776 47.649471 -35.643814 21.754423 -0.070156232 -67.940483 -42.037735 -33.485786
2009600000 -36.642448 0.083061233 -0.073796816 -70.432098 -35.419327 19.801069 -72.435722 68.115837
-0.064348765 -70.445465 -36.456135 -9.7550287 -73.613159 79.398224 -35.393646 19.535986
-35.418289 19.727839 -72.578003 51.339111 -41.423832 -18.516708 -0.074045509 -70.067169
-72.493721 45.558491 -35.366821 19.401751 -0.072535142 -70.110458 -41.830437 -34.373249
2072087500 -36.51366 -1.7276256 -0.075766481 -72.611198 -35.156116 17.659264 -71.960388 70.230576
-0.065663174 -72.621979 -36.351337 -11.437244 -74.457237 77.479874 -35.138699 17.210678
-35.175018 17.583424 -72.335747 55.173527 -41.433041 -20.010118 -0.075014882 -72.238617
-72.737068 44.041687 -35.096424 17.326899 -0.073944278 -72.285324 -41.68832 -35.693123
2134575000 -36.33012 -2.5494058 -0.077011883 -74.791634 -34.895809 15.530493 -71.679031 68.888222
-0.06688346 -74.801765 -36.176357 -13.517825 -74.081703 69.798492 -34.882244 14.988391
-34.926247 15.516413 -71.650574 53.041237 -41.178688 -21.298786 -0.076403946 -74.410995
-71.633965 35.103821 -34.855053 15.10892 -0.075020507 -74.462502 -41.784393 -36.924126
2197062500 -36.116562 -4.0911245 -0.078286082 -76.969078 -34.635674 13.303472 -70.324417 60.535545
-0.069310322 -76.981827 -36.065521 -15.345354 -72.970589 55.266891 -34.634373 12.800629
-34.684929 13.298414 -70.66301 49.583347 -41.103249 -21.486979 -0.077109896 -76.575302
-71.211418 26.963371 -34.616646 12.98999 -0.075518496 -76.638115 -41.705143 -38.682838
2259550000 -35.86364 -5.1388826 -0.080450989 -79.147209 -34.405632 11.121671 -70.663696 52.192059
-0.07146202 -79.156677 -35.832397 -16.741459 -72.659103 49.629028 -34.381119 10.674365
-34.437382 11.06743 -69.8517 45.181843 -41.009861 -22.969969 -0.077259913 -78.741295
-71.028061 28.603712 -34.367924 10.804543 -0.075722054 -78.810257 -41.538914 -39.724049
2322037500 -35.643375 -7.0645914 -0.081465952 -81.323273 -34.176411 8.9547815 -71.16272 50.789753
-0.072471775 -81.331001 -35.588329 -18.127562 -72.52813 60.624027 -34.131763 8.5703955
-34.217228 8.9199276 -70.058884 32.85239 -40.96172 -24.487511 -0.079089619 -80.905067
-71.011673 24.474905 -34.145466 8.6049528 -0.076675519 -80.980263 -41.508099 -40.330257
2384525000 -35.385468 -7.8472772 -0.082692608 -83.504402 -33.936424 6.6888595 -71.253792 45.219719
-0.073209099 -83.506149 -35.447178 -18.861292 -72.19249 54.014881 -33.915146 6.3878264
-33.980209 6.8005815 -70.435272 33.510468 -40.864727 -26.449995 -0.080291003 -83.073227
-69.516792 39.254978 -33.919189 6.5421143 -0.07752578 -83.151909 -41.566929 -39.822144
2447012500 -35.233192 -9.6469784 -0.084411383 -85.684967 -33.697155 4.4648609 -71.41124 51.193607
-0.074047253 -85.680222 -35.461529 -19.698088 -71.041473 49.697227 -33.691448 4.3203034
-33.741699 4.6012292 -70.232414 30.537207 -40.752621 -28.666389 -0.081596449 -85.243721
-68.305084 46.399513 -33.692577 4.3516526 -0.078657433 -85.330254 -41.60918 -40.417496
2509500000 -35.13102 -10.255474 -0.084720254 -87.863686 -33.465839 2.3261559 -70.96769 50.345596
-0.07455527 -87.864799 -35.319553 -20.932247 -70.117378 47.785374 -33.479652 2.297286
-33.546589 2.4376097 -69.740135 31.599226 -40.555344 -29.918367 -0.082494482 -87.419426
-68.46035 39.727985 -33.479462 2.0709019 -0.078802668 -87.504807 -41.742584 -39.980923
2571987500 -35.044575 -12.525001 -0.08594884 -90.046181 -33.252449 0.14844127 -70.314072 39.426548
-0.074172989 -90.044472 -35.316822 -21.77516 -70.026421 42.44112 -33.267338 0.12793361
-33.324665 0.15590085 -68.998108 26.165144 -40.548286 -31.342417 -0.083923139 -89.590446
-68.062538 35.119041 -33.272026 -0.072110616 -0.079258792 -89.680397 -41.744366 -39.880054
2634475000 -34.926853 -13.933163 -0.086938299 -92.233696 -33.041233 -2.006649 -70.317024 40.820362
-0.074083082 -92.231201 -35.250011 -23.306465 -69.125854 38.487919 -33.05299 -2.0268857
-33.103188 -2.0975318 -68.701302 13.235076 -40.349682 -32.461525 -0.084131673 -91.758781
-68.379539 42.505581 -33.081207 -2.3032432 -0.080465563 -91.856987 -41.930801 -39.21101
2696962500 -34.855682 -15.731051 -0.087670147 -94.410751 -32.84647 -4.1747894 -70.726471 38.783951
-0.074615255 -94.415909 -35.22464 -24.44857 -69.206261 35.015308 -32.851135 -4.1419821
-32.904003 -4.2098584 -68.443481 13.555208 -40.38612 -32.77306 -0.085127428 -93.932869
-68.302124 40.979359 -32.884113 -4.4740934 -0.082257733 -94.023544 -42.156994 -40.28717
2759450000 -34.780231 -17.250942 -0.088707924 -96.592789 -32.662529 -6.3478975 -70.892235 30.693819
-0.074603766 -96.60598 -35.112484 -25.464228 -68.15715 30.040773 -32.658112 -6.3130512
-32.68988 -6.5279479 -69.075188 13.997016 -40.293606 -34.104614 -0.086717561 -96.112663
-67.927673 46.083393 -32.683331 -6.7111397 -0.083304353 -96.197372 -42.000546 -41.139805
2821937500 -34.788525 -18.925425 -0.089243196 -98.772545 -32.44492 -8.5185013 -71.840172 43.176208
-0.074716948 -98.798416 -35.193859 -26.892138 -67.814102 32.84211 -32.460419 -8.5830879
-32.492889 -8.564909 -70.644882 20.073267 -40.237526 -35.235382 -0.088299669 -98.291023
-67.828911 38.332378 -32.48447 -8.8924856 -0.084690362 -98.371246 -42.002739 -40.737328
2884425000 -34.670929 -19.825289 -0.091624402 -100.95859 -32.248138 -10.710413 -71.863564 38.365734
-0.075013719 -100.98772 -35.136002 -28.66361 -67.846863 28.764959 -32.272083 -10.8607
-32.29929 -10.7939 -70.382294 25.861855 -40.194386 -35.948792 -0.089234598 -100.47036
-67.57782 36.115444 -32.302982 -11.029683 -0.086568624 -100.54723 -42.059242 -40.722908
2946912500 -34.669003 -21.726549 -0.092692569 -103.14079 -32.067215 -12.811282 -71.970207 38.890854
-0.076277837 -103.17631 -35.043163 -29.863998 -68.184616 27.82077 -32.073399 -13.013357
-32.122883 -13.011137 -70.465874 17.012011 -40.113064 -36.623528 -0.090664744 -102.64049
-68.024673 31.443993 -32.117973 -13.308878 -0.087776877 -102.70922 -42.016003 -42.593208
3009400000 -34.514896 -22.70499 -0.092001423 -105.32375 -31.897541 -15.000868 -70.812447 29.161407
-0.076482683 -105.36747 -34.897137 -31.50153 -67.599739 29.652489 -31.896151 -15.259358
-31.937296 -15.194199 -72.131126 22.912134 -39.988503 -37.079693 -0.091447167 -104.81618
-68.458656 27.127855 -31.94511 -15.510406 -0.08783143 -104.87883 -41.855335 -42.867985
3071887500 -34.454296 -24.209627 -0.09364184 -107.5024 -31.739803 -17.269176 -70.84903 26.419441
-0.076258533 -107.55354 -34.830475 -33.197712 -67.771896 23.531506 -31.723709 -17.461607
-31.74505 -17.389315 -71.815155 21.695965 -39.912266 -37.423412 -0.091358639 -106.98611
-68.085052 30.549353 -31.769861 -17.628605 -0.088569775 -107.05386 -41.659718 -43.18306
3134375000 -34.258038 -24.94692 -0.093933761 -109.68096 -31.575266 -19.494074 -70.755226 26.187351
-0.07654658 -109.7419 -34.629681 -34.761326 -67.237419 26.206039 -31.555912 -19.792526
-31.579863 -19.570999 -71.83252 24.100374 -39.801258 -37.758705 -0.091895342 -109.16843
-68.324661 32.490452 -31.595076 -19.802437 -0.089437239 -109.22696 -41.713699 -43.74239
3196862500 -34.145077 -26.65284 -0.093903236 -111.85538 -31.409042 -21.653215 -70.80722 24.148327
-0.077757046 -111.93006 -34.514996 -35.969917 -67.554886 22.795288 -31.391996 -21.954937
-31.413025 -21.676121 -71.408943 32.012184 -39.824074 -38.829998 -0.093135759 -111.34375
-68.0177 27.769938 -31.419485 -21.938564 -0.089675121 -111.39662 -41.728237 -44.805145
3259350000 -34.009514 -27.996454 -0.095309116 -114.04174 -31.242159 -23.780979 -71.715446 20.733644
-0.078111202 -114.1162 -34.310379 -37.465229 -67.914604 25.54043 -31.220963 -24.172394
-31.235558 -23.975388 -71.663948 36.022026 -39.699249 -40.395138 -0.094025694 -113.51549
-68.844826 26.476976 -31.239761 -24.103136 -0.089755617 -113.57492 -41.407982 -45.760021
3321837500 -33.90276 -29.324993 -0.096055306 -116.22076 -31.081308 -25.935495 -71.511879 24.724514
