! MARKI MICROWAVE INC.
! Email:             	info@markimicrowave.com   				Phone:   408-778-4200
! Model Number:      	C09-0R418						Date:    02/15
! Filename:		C09_0R418.S4P						Version: 1.0
! Description:       	4-port S-parameter data for Directional Coupler C09-0R418
! Frequency Range: 	10 MHz to 18 GHz		
! Port Configuration:	PORT 1: Input
!			PORT 2: Output 
!			Port 3: Coupled 
!			Port 4: Isolated
!
!
! S4P File: Measurements: Mag<S11> Ang<S11> Mag<S12> Ang<S12> Mag<S13> Ang<S13> Mag<S14> Ang<S14>! row 1 
!			  Mag<S21> Ang<S21> Mag<S22> Ang<S22> Mag<S23> Ang<S23> Mag<S24> Ang<S24>! row 2 
!			  Mag<S31> Ang<S31> Mag<S32> Ang<S32> Mag<S33> Ang<S33> Mag<S34> Ang<S34>! row 3 
!			  Mag<S41> Ang<S41> Mag<S42> Ang<S42> Mag<S43> Ang<S43> Mag<S44> Ang<S44>! row 4

# Hz S DB R 50
10000000 -29.970682 65.202171 -0.057745934 -11.786854 -34.101337 84.542747 -54.178848 97.198959
-0.058499161 -11.772707 -31.575903 68.04599 -72.167664 -177.83775 -34.196781 67.926216
-32.819202 81.227898 -54.160915 -128.00844 -31.703407 65.752716 -0.063196711 -11.587704
-55.893044 -135.10776 -32.853783 74.566544 -0.068751141 -11.850299 -30.896833 63.767349
32487500 -30.582239 60.44072 -0.067862526 -15.24982 -31.569536 81.777931 -54.342941 111.8933
-0.069372825 -15.237559 -31.929098 62.813992 -68.908051 179.51706 -31.651865 64.628738
-30.544792 79.120773 -54.531311 -140.49493 -32.115608 60.376911 -0.071746729 -15.019462
-55.938877 -145.96085 -30.580517 69.96138 -0.075921848 -15.235263 -31.545374 59.247574
54975000 -31.064413 55.074226 -0.080489211 -19.437618 -28.883934 78.536598 -54.387085 124.57484
-0.083023496 -19.434053 -32.226563 56.885715 -65.450478 174.9725 -28.954157 60.350658
-28.121038 76.532257 -54.679504 -155.01784 -32.427814 54.549587 -0.082438067 -19.179607
-55.599884 -158.75845 -28.15489 64.365776 -0.086838454 -19.344751 -32.103439 54.024479
77462500 -31.506569 48.920933 -0.096504256 -24.351233 -26.07456 74.825493 -54.230469 135.34074
-0.10006205 -24.352888 -32.441566 50.404728 -61.750042 169.67165 -26.132645 55.101379
-25.570993 73.495361 -54.593204 -170.88904 -32.662235 47.959248 -0.096080102 -24.052034
-55.133808 -173.00229 -25.601683 57.814022 -0.10054285 -24.170544 -32.614784 48.150631
99950000 -31.868832 42.182076 -0.11554302 -29.987089 -23.15711 70.647186 -53.916203 144.58815
-0.12046034 -29.99436 -32.607204 43.291763 -57.958202 162.74513 -23.202967 48.886395
-22.91287 69.992775 -54.350525 172.17383 -32.879089 40.904659 -0.11322328 -29.639299
-54.500458 171.47209 -22.941528 50.284966 -0.11798362 -29.709167 -33.052067 41.763702
122437500 -32.198193 34.569546 -0.13844036 -36.340916 -20.146408 66.021721 -53.581829 152.20358
-0.14437605 -36.355316 -32.737556 35.652443 -54.101318 154.86142 -20.181911 41.694714
-20.1639 66.033508 -54.045685 153.9782 -33.034931 33.181126 -0.13340406 -35.935989
-53.767979 154.51105 -20.189316 41.787865 -0.13975418 -35.963127 -33.450432 34.987366
144925000 -31.705141 27.937531 -0.16333145 -42.852196 -18.337004 61.850868 -51.798649 139.55705
-0.16946122 -42.866261 -32.212681 29.160059 -52.572586 140.77428 -18.375793 32.969681
-18.339722 61.83847 -52.365654 141.0415 -32.593601 26.170101 -0.15895116 -42.381779
-52.163166 140.58136 -18.382076 33.069183 -0.16425009 -42.408928 -32.968067 28.441071
167412500 -31.169016 21.360401 -0.19203228 -49.355663 -16.960331 57.69445 -50.399067 125.35581
-0.19740331 -49.373512 -31.670586 23.816065 -50.988358 126.12955 -17.003643 24.222603
-16.961222 57.625362 -50.998047 126.10775 -32.056099 19.972843 -0.18587182 -48.839264
-50.708672 125.51396 -17.002796 24.256311 -0.19184206 -48.854923 -32.465031 22.916067
189900000 -30.677952 15.378331 -0.22132865 -55.848801 -15.845277 53.560562 -49.187416 111.50996
-0.22821841 -55.868126 -31.173513 18.882626 -49.594093 113.54478 -15.896688 15.472204
-15.851612 53.492306 -49.622028 114.34425 -31.548454 13.840879 -0.21662623 -55.278278
-49.230209 110.52929 -15.890349 15.492272 -0.22059678 -55.290363 -31.964695 17.648125
212387500 -30.22303 9.0553331 -0.25266516 -62.325306 -14.917072 49.464108 -48.039001 97.995552
-0.25905454 -62.346397 -30.727642 13.713018 -48.409798 99.308235 -14.972349 6.7048049
-14.923085 49.400459 -48.41658 99.558861 -31.104891 7.503808 -0.24807458 -61.699081
-48.116226 96.425224 -14.966119 6.7350264 -0.25185686 -61.708656 -31.50404 12.905741
234875000 -29.839914 2.7547793 -0.28563985 -68.77755 -14.125395 45.396187 -47.003872 83.86293
-0.29169068 -68.803917 -30.398546 8.8826561 -47.316807 86.532135 -14.185353 -2.0715966
-14.136114 45.360603 -47.251724 86.08461 -30.733858 1.5299861 -0.27932066 -68.090881
-46.864586 83.103844 -14.179802 -2.0307391 -0.28403056 -68.104332 -31.13727 8.2934151
257362500 -29.60931 -3.6755071 -0.31910765 -75.215157 -13.44796 41.398869 -46.085964 70.227516
-0.3246254 -75.230492 -30.109728 4.2681313 -46.382214 74.143524 -13.51141 -10.845693
-13.456804 41.389175 -46.284931 73.266144 -30.481678 -4.7453971 -0.31191006 -74.449577
-45.95282 70.058342 -13.504757 -10.797024 -0.31630692 -74.468445 -30.877838 3.8991125
279850000 -29.41954 -9.9555321 -0.35206687 -81.625656 -12.857504 37.459141 -45.281651 57.098866
-0.3580946 -81.637344 -29.949406 -0.30967289 -45.595669 61.315647 -12.925791 -19.630041
-12.867331 37.454556 -45.460491 60.595821 -30.309132 -10.714091 -0.34525174 -80.792519
-45.109421 57.467628 -12.921795 -19.594715 -0.349581 -80.813049 -30.650763 -0.50278616
302337500 -29.340105 -16.409029 -0.38524997 -88.013039 -12.344499 33.585907 -44.592026 44.258812
-0.39116186 -88.022713 -29.8367 -4.6364255 -44.859333 49.03933 -12.418015 -28.43774
-12.354488 33.579929 -44.733387 48.073391 -30.146881 -16.768536 -0.3784337 -87.120483
-44.387096 44.844448 -12.414668 -28.400883 -0.38250944 -87.141525 -30.477306 -4.9278975
324825000 -29.303236 -22.515612 -0.41812247 -94.381439 -11.897681 29.763432 -43.893356 32.245171
-0.42370644 -94.389694 -29.745729 -8.7474718 -44.139225 36.409451 -11.975689 -37.263863
-11.906557 29.769417 -44.042557 34.980991 -30.052458 -22.903971 -0.41229656 -93.425407
-43.753948 32.566845 -11.972507 -37.231445 -0.41344956 -93.443474 -30.307144 -9.4346371
347312500 -29.381729 -28.774536 -0.44918376 -100.73292 -11.506926 26.026617 -43.269405 20.360777
-0.45503932 -100.73246 -29.74423 -12.98821 -43.459827 23.794655 -11.590178 -46.113331
-11.516698 26.014099 -43.429741 22.824924 -30.065044 -28.671566 -0.4455772 -99.710938
-43.199322 20.297062 -11.587441 -46.096706 -0.44467381 -99.724052 -30.239864 -13.757092
369800000 -29.474846 -34.942532 -0.47919348 -107.06646 -11.164558 22.344189 -42.771271 8.7178049
-0.48542088 -107.05833 -29.762293 -17.061317 -42.883202 12.432117 -11.25488 -54.993591
-11.175632 22.337923 -42.871014 11.369689 -30.124889 -34.258232 -0.47627294 -105.97462
-42.728039 8.2745514 -11.251341 -54.984543 -0.47394902 -105.99009 -30.194763 -18.196472
392287500 -29.640585 -41.069012 -0.50838411 -113.3746 -10.868382 18.727053 -42.230888 -3.1049857
-0.51346058 -113.37261 -29.825933 -21.115978 -42.433361 0.97640157 -10.964458 -63.915703
-10.879133 18.729885 -42.396027 0.2481553 -30.213316 -40.029015 -0.50526732 -112.22027
-42.254189 -3.3855631 -10.959109 -63.915771 -0.50250411 -112.2448 -30.222836 -22.560448
414775000 -29.906244 -47.072945 -0.53563797 -119.66858 -10.610882 15.186285 -41.798275 -14.682123
-0.54112154 -119.67309 -29.956251 -25.250145 -41.971771 -9.9349546 -10.711536 -72.880882
-10.622753 15.186978 -42.038864 -10.813817 -30.402056 -45.754925 -0.53170508 -118.44976
-41.797104 -15.010452 -10.706415 -72.884338 -0.52884293 -118.47729 -30.235023 -27.168657
437262500 -30.240446 -52.898407 -0.56014776 -125.9512 -10.391212 11.735212 -41.512718 -26.23616
-0.56482923 -125.95853 -30.130659 -29.216869 -41.602741 -20.761992 -10.495749 -81.893784
-10.399974 11.727717 -41.625866 -21.448332 -30.615643 -51.457726 -0.55670577 -124.67123
-41.454838 -26.717583 -10.488861 -81.907875 -0.55451941 -124.69596 -30.313208 -31.766571
459750000 -30.592575 -58.614731 -0.58258462 -132.22209 -10.200784 8.3434019 -41.196617 -37.459805
-0.58769566 -132.23506 -30.363529 -33.250755 -41.241695 -31.389702 -10.310869 -90.972931
-10.210404 8.3477459 -41.260563 -31.551991 -30.863966 -56.965534 -0.58028978 -130.88474
-41.157894 -37.737221 -10.304444 -90.985031 -0.57695794 -130.91422 -30.384148 -36.253181
482237500 -31.008759 -64.427567 -0.60414392 -138.48738 -10.040768 5.0424871 -40.93148 -48.81163
-0.60764766 -138.50449 -30.5905 -37.227367 -40.96323 -41.664795 -10.155392 -100.11534
-10.049326 5.0442972 -40.961124 -41.888386 -31.127245 -62.607086 -0.60063332 -137.08809
-40.891113 -49.216629 -10.14919 -100.12733 -0.59750342 -137.11882 -30.478977 -40.528725
504725000 -31.535652 -70.085892 -0.62237567 -144.74792 -9.9063253 1.8228526 -40.68861 -59.930485
-0.62580204 -144.7683 -30.863369 -41.153957 -40.754173 -52.066975 -10.026143 -109.33301
-9.9156237 1.8177004 -40.770412 -52.491165 -31.496124 -68.320038 -0.61886257 -143.27682
-40.682133 -60.603367 -10.020101 -109.3407 -0.61477375 -143.31328 -30.691927 -44.68195
527212500 -32.139744 -75.924576 -0.63829029 -151.00401 -9.7955904 -1.3140625 -40.509583 -71.409485
-0.64249724 -151.02203 -31.230658 -44.954231 -40.554703 -61.904984 -9.9198532 -118.62119
-9.8046036 -1.3150475 -40.548687 -62.007431 -31.876019 -73.75251 -0.63354415 -149.47116
-40.480545 -71.848236 -9.9154711 -118.63334 -0.63149178 -149.50594 -30.961332 -49.087879
549700000 -32.77813 -81.722328 -0.65298933 -157.25066 -9.7069845 -4.3578305 -40.39785 -82.47773
-0.65513229 -157.27551 -31.61714 -48.156612 -40.397156 -71.801697 -9.8366613 -127.99216
-9.7144251 -4.354754 -40.391804 -71.796379 -32.24369 -79.326218 -0.64595079 -155.66075
-40.389748 -82.612808 -9.8330088 -128.00125 -0.64475346 -155.69968 -31.204813 -53.568443
572187500 -33.519089 -87.774979 -0.66442198 -163.49751 -9.6392212 -7.3168712 -40.306644 -93.577599
-0.66628247 -163.528 -32.07592 -51.710197 -40.349266 -82.068855 -9.7724972 -137.46371
-9.6440182 -7.3187928 -40.309952 -81.902565 -32.738083 -85.000854 -0.65664047 -161.85161
-40.331818 -93.485168 -9.7702885 -137.46678 -0.65701181 -161.88901 -31.52039 -57.627556
594675000 -34.40728 -93.282326 -0.67384368 -169.75443 -9.586297 -10.176003 -40.347446 -103.93562
-0.67477399 -169.77977 -32.621723 -54.559891 -40.222404 -91.951492 -9.7263737 -147.02426
-9.5908499 -10.177949 -40.215382 -91.861809 -33.244244 -90.24456 -0.66551226 -168.03868
-40.311623 -103.8402 -9.7260828 -147.03149 -0.66680908 -168.07907 -31.878542 -61.560242
617162500 -35.427292 -99.754135 -0.6822356 -176.01291 -9.5503254 -12.938419 -40.365005 -114.35985
-0.68241686 -176.03297 -33.16288 -56.510368 -40.144657 -101.70628 -9.698329 -156.68164
-9.5540867 -12.941009 -40.158764 -101.44225 -33.775497 -95.471092 -0.67344469 -174.22905
-40.401466 -114.17155 -9.6983776 -156.68414 -0.67485911 -174.27341 -32.271076 -65.565254
639650000 -36.589718 -106.77328 -0.6877352 177.72192 -9.5272808 -15.611851 -40.336063 -124.45078
-0.68930566 177.70917 -33.758095 -58.482983 -40.113941 -111.08965 -9.683176 -166.43889
-9.5332451 -15.616415 -40.186947 -110.84747 -34.369015 -100.68903 -0.67989129 179.5769
-40.43108 -124.12126 -9.6830578 -166.45888 -0.68082029 179.52667 -32.775467 -69.025085
662137500 -37.916218 -114.30323 -0.69266468 171.45834 -9.5180702 -18.185659 -40.38028 -134.51904
-0.69399923 171.44431 -34.439064 -59.59288 -40.170696 -120.08292 -9.6814928 -176.30511
-9.5220242 -18.198683 -40.261711 -120.30433 -35.103661 -105.45238 -0.68378675 173.37595
-40.486423 -134.63535 -9.6800184 -176.33029 -0.6862002 173.32788 -33.311523 -72.341873
684625000 -39.621143 -123.26704 -0.69539726 165.18846 -9.517415 -20.662174 -40.554428 -143.95215
-0.69762588 165.17474 -35.107819 -60.115822 -40.243778 -129.29401 -9.689867 173.71106
-9.5214167 -20.679943 -40.342056 -129.4942 -35.850994 -110.20425 -0.68713218 167.16592
-40.620125 -144.51033 -9.6874542 173.69156 -0.6886847 167.1228 -33.94138 -75.647484
707112500 -42.103649 -135.79376 -0.69716465 158.91609 -9.5258532 -23.045904 -40.826275 -153.62375
-0.69977611 158.89941 -35.740452 -59.308071 -40.285519 -138.46625 -9.706459 163.61806
-9.528388 -23.043365 -40.350838 -138.4189 -36.712322 -115.47059 -0.68894374 160.94972
-40.80756 -154.1412 -9.7036333 163.60263 -0.69201279 160.90807 -34.537548 -78.340614
729600000 -44.262466 -156.47298 -0.6984852 152.6344 -9.5406055 -25.329748 -41.07148 -163.18143
-0.70060903 152.61253 -36.236469 -57.559952 -40.369926 -147.85704 -9.7292356 153.41028
-9.5427341 -25.326715 -40.421242 -147.66824 -37.75428 -120.80444 -0.69048005 154.73009
-41.042885 -163.87613 -9.7268381 153.39989 -0.69217432 154.68697 -35.15984 -80.160942
752087500 -45.622475 -178.15192 -0.69824851 146.33928 -9.5587416 -27.529873 -41.367844 -172.43594
-0.7015087 146.3175 -36.673477 -55.555573 -40.527435 -156.75745 -9.7576847 143.0905
-9.5619202 -27.527796 -40.55167 -156.57129 -39.09914 -125.93145 -0.69159168 148.50491
-41.332355 -173.30019 -9.7532072 143.07765 -0.69283444 148.45671 -35.826656 -80.774788
774575000 -46.477818 158.28044 -0.69821012 140.03743 -9.5811539 -29.627069 -41.724136 178.65608
-0.70282614 140.017 -36.941238 -52.340157 -40.646904 -165.33032 -9.7891788 132.66293
-9.584939 -29.629826 -40.626266 -165.17494 -40.558372 -131.08856 -0.69155371 142.27019
-41.735451 177.72617 -9.7843761 132.64597 -0.69328612 142.21884 -36.450405 -81.035614
797062500 -46.835213 134.21562 -0.69796801 133.73242 -9.6047859 -31.648132 -42.185844 169.66545
-0.7044524 133.7075 -37.048985 -49.357525 -40.884697 -173.3167 -9.8219175 122.1319
-9.6086292 -31.661831 -40.809937 -173.56282 -42.482903 -134.53633 -0.69068956 136.01906
-42.228168 168.65291 -9.8158245 122.12843 -0.69288868 135.97791 -36.999825 -80.345398
819550000 -46.820499 110.65427 -0.69653577 127.42292 -9.6278524 -33.591808 -42.67963 161.28545
-0.70499092 127.39294 -37.02039 -46.459709 -41.0854 178.38606 -9.854166 111.50394
-9.6315517 -33.598255 -40.997154 178.17392 -44.563805 -144.14604 -0.69072688 129.76198
-42.711769 160.46373 -9.845808 111.49951 -0.69226819 129.72964 -37.487728 -78.823196
842037500 -46.486774 87.441231 -0.69701737 121.10718 -9.6497669 -35.454342 -43.345417 153.70808
-0.70508546 121.07082 -36.879166 -43.221783 -41.388901 169.97163 -9.8854637 100.78236
-9.652132 -35.468109 -41.308041 169.79848 -47.096325 -167.92075 -0.69001704 123.50007
-43.318581 152.52333 -9.8759375 100.78785 -0.69175112 123.47529 -37.80315 -77.026779
864525000 -45.783989 64.447647 -0.69783807 114.78454 -9.6689768 -37.248772 -44.018318 146.91359
-0.70491028 114.74522 -36.515919 -40.54414 -41.695438 162.02382 -9.9115286 89.981354
-9.6723251 -37.268063 -41.534836 161.85718 -48.343372 167.13643 -0.68981606 117.2328
-43.986309 146.1245 -9.9035063 89.987144 -0.69171029 117.21439 -38.008778 -74.972008
887012500 -44.534485 42.85059 -0.69721407 108.4538 -9.6849184 -38.99696 -44.694016 141.19978
-0.70575798 108.4135 -36.106102 -38.245552 -42.004833 154.70052 -9.9347916 79.113892
-9.6881275 -39.015915 -41.864899 154.67043 -49.124828 140.60638 -0.68962407 110.96116
-44.720131 140.00723 -9.9260349 79.122307 -0.69364607 110.94364 -38.107792 -72.33036
909500000 -42.29826 24.521759 -0.698928 102.11715 -9.6957941 -40.680923 -45.363308 136.5379
-0.70729375 102.07696 -35.658043 -37.226845 -42.399231 147.82808 -9.9538956 68.199944
-9.6999874 -40.721462 -42.318806 147.63962 -49.436417 115.39925 -0.69078207 104.6977
-45.423214 135.70302 -9.9447355 68.197815 -0.69492835 104.68832 -38.095226 -69.837555
931987500 -40.224186 14.301329 -0.70069486 95.778336 -9.7021217 -42.336525 -46.030781 133.14648
-0.70930344 95.735664 -35.227207 -37.312557 -42.841007 142.01761 -9.9679737 57.224667
-9.7050962 -42.386456 -42.749046 141.60556 -49.365643 89.58403 -0.6919142 98.424667
-46.138142 132.24345 -9.958209 57.219753 -0.6971643 98.412582 -38.044746 -67.276176
954475000 -38.808506 5.306849 -0.70355278 89.440651 -9.7046976 -43.962822 -46.568954 131.15373
-0.71250403 89.396271 -34.773205 -37.836918 -43.238819 136.53302 -9.9753351 46.21973
-9.7069769 -44.018639 -43.092232 135.77692 -48.780708 64.020996 -0.69388449 92.146263
-46.696236 130.05006 -9.9669867 46.217377 -0.69969153 92.136765 -37.831768 -65.262093
976962500 -37.766956 -1.9459066 -0.70668828 83.100113 -9.70016 -45.574314 -47.011925 130.34474
-0.71491653 83.053406 -34.38509 -39.104267 -43.648151 131.73199 -9.9777727 35.195461
-9.7025738 -45.630432 -43.52021 130.87933 -47.867546 38.523766 -0.69753522 85.866585
-47.000751 129.24022 -9.969512 35.188999 -0.70203948 85.858948 -37.635914 -63.367451
999450000 -37.028023 -8.9608479 -0.71082795 76.760185 -9.691309 -47.176445 -47.1591 129.56923
-0.71813333 76.713684 -34.064175 -40.80405 -43.872456 127.34653 -9.9743881 24.150244
-9.6947317 -47.219963 -43.858578 127.14892 -46.331993 10.625075 -0.7020241 79.587578
-47.187557 128.56213 -9.9659386 24.141762 -0.70473927 79.576126 -37.365097 -62.132095
1021937500 -36.444038 -15.73499 -0.71485323 70.414703 -9.6770687 -48.775356 -47.131123 129.27974
-0.7224825 70.375923 -33.842419 -42.880539 -44.156776 124.03087 -9.9660044 13.105766
-9.6811914 -48.819736 -44.162521 123.99496 -44.540653 -10.768634 -0.70536172 73.307396
-47.074661 128.36861 -9.957242 13.092676 -0.70751262 73.294975 -37.116043 -61.269291
1044425000 -35.981697 -22.454954 -0.71852005 64.079018 -9.6596537 -50.379654 -46.872097 128.60776
-0.72657406 64.038109 -33.668118 -45.050304 -44.258869 121.08333 -9.9514246 2.0677848
-9.6633472 -50.414608 -44.272919 121.03709 -42.154896 -18.51255 -0.70945835 67.028572
-46.860039 127.90588 -9.9438314 2.0585055 -0.71162552 67.019508 -36.899845 -60.546894
1066912500 -35.7155 -28.968679 -0.72308719 57.739956 -9.6377697 -51.996723 -46.493889 127.27148
-0.7313717 57.700478 -33.601177 -47.272537 -44.199844 118.38878 -9.9347057 -8.9486303
-9.6412868 -52.029385 -44.26178 118.1853 -40.860111 -25.910574 -0.71443182 60.755955
-46.459915 126.59089 -9.9264364 -8.9673338 -0.71617401 60.744274 -36.780621 -59.8237
1089400000 -35.614544 -35.524792 -0.72871876 51.409641 -9.6139374 -53.619781 -45.8699 124.95987
-0.7361114 51.3699 -33.586361 -49.627228 -44.019852 115.37727 -9.9137011 -19.942709
-9.6176558 -53.646954 -44.082561 115.2055 -39.982182 -32.11216 -0.72030044 54.488892
-45.809101 124.80212 -9.9057112 -19.967892 -0.72022915 54.473709 -36.641731 -59.175686
1111887500 -35.616432 -41.436325 -0.73428309 45.080811 -9.5880604 -55.276737 -45.133858 121.78481
-0.74100888 45.045708 -33.614609 -51.721859 -43.73077 112.32158 -9.8903389 -30.919563
-9.5926533 -55.283257 -43.731102 112.19173 -39.422337 -39.162621 -0.72582477 48.213039
-45.129112 121.47094 -9.8831758 -30.950064 -0.72472376 48.185711 -36.514927 -58.701229
1134375000 -35.766365 -47.721478 -0.73967707 38.754028 -9.5613708 -56.940723 -44.292755 117.57082
-0.7453723 38.723267 -33.704762 -53.654469 -43.357487 108.48405 -9.8661089 -41.865185
-9.5660992 -56.944023 -43.365337 108.55522 -39.03931 -45.552464 -0.73121005 41.946377
-44.25396 117.43787 -9.8592367 -41.895111 -0.73069555 41.921753 -36.353878 -58.406315
1156862500 -36.028526 -54.385475 -0.74556464 32.426926 -9.5337658 -58.615044 -43.476112 111.95593
-0.74977517 32.40522 -33.833164 -55.699982 -42.850216 104.49506 -9.8415575 -52.781513
-9.5398188 -58.626095 -42.94968 104.70353 -38.872131 -53.12149 -0.73662794 35.683155
-43.371784 112.09615 -9.836256 -52.815208 -0.73482656 35.662361 -36.280754 -58.384567
1179350000 -36.455177 -60.378956 -0.75088698 26.103188 -9.5087328 -60.318588 -42.656647 104.86678
-0.75429231 26.088602 -34.043182 -57.82103 -42.240826 99.776993 -9.816328 -63.67226
-9.5150471 -60.327488 -42.336861 100.06528 -38.8759 -61.036396 -0.74094146 29.422827
-42.654243 105.17835 -9.812521 -63.699341 -0.73944294 29.403866 -36.127747 -58.639572
1201837500 -36.950073 -66.662613 -0.75536209 19.786062 -9.4845247 -62.031834 -41.952206 97.783073
-0.758901 19.774555 -34.259575 -59.266148 -41.761585 94.076309 -9.7937746 -74.525917
-9.4916744 -62.054134 -41.772915 93.948906 -38.98518 -68.282265 -0.74541384 23.167294
-41.908394 98.024956 -9.7917833 -74.557762 -0.744789 23.151852 -36.051403 -58.953686
