! MARKI MICROWAVE INC.
! Email:             	info@markimicrowave.com   				Phone:   408-778-4200
! Model Number:      	C09-0R412						Date:    02/15
! Filename:		C09_0R412.S4P						Version: 1.0
! Description:       	4-port S-parameter data for Directional Coupler C09-0R412
! Frequency Range: 	10 MHz to 12 GHz		
! Port Configuration:	PORT 1: Input
!			PORT 2: Output 
!			Port 3: Coupled 
!			Port 4: Isolated
!
!
! S4P File: Measurements: Mag<S11> Ang<S11> Mag<S12> Ang<S12> Mag<S13> Ang<S13> Mag<S14> Ang<S14>! row 1 
!			  Mag<S21> Ang<S21> Mag<S22> Ang<S22> Mag<S23> Ang<S23> Mag<S24> Ang<S24>! row 2 
!			  Mag<S31> Ang<S31> Mag<S32> Ang<S32> Mag<S33> Ang<S33> Mag<S34> Ang<S34>! row 3 
!			  Mag<S41> Ang<S41> Mag<S42> Ang<S42> Mag<S43> Ang<S43> Mag<S44> Ang<S44>! row 4

# Hz S DB R 50
10000000 -30.454576 68.986397 -0.039680351 -9.2619228 -34.475864 90.724297 -55.368847 -3.5945117
-0.043650102 -9.4996519 -31.516935 72.78511 -63.828815 -139.1452 -34.918449 77.891434
-34.613998 85.388756 -55.661201 113.75782 -31.503901 65.313881 -0.041161038 -9.0093317
-56.359665 -85.544418 -34.91925 78.233704 -0.066470891 -9.4827194 -30.895798 72.008987
24987500 -31.240988 65.192085 -0.046999563 -11.533167 -32.465057 87.844917 -56.396416 -34.818748
-0.052146353 -11.725501 -32.118496 67.64106 -62.986774 -146.82079 -32.821293 74.905121
-32.569481 83.520332 -56.350212 126.324 -32.16386 61.937031 -0.048148196 -11.281179
-57.18787 -103.80272 -32.815891 75.178093 -0.069304995 -11.663979 -31.65238 67.360909
39975000 -31.988987 60.99107 -0.055944465 -14.289036 -30.300381 84.642731 -57.397568 -67.77607
-0.062054485 -14.434746 -32.719936 62.446236 -61.8423 -155.32965 -30.573006 71.275429
-30.374323 81.354614 -57.0406 139.96272 -32.728409 58.11047 -0.056574516 -14.027153
-57.545612 -123.79884 -30.563473 71.461517 -0.073658243 -14.320616 -32.401138 62.175716
54962500 -32.673069 56.054569 -0.067039609 -17.533445 -28.007412 81.099586 -58.192173 -101.2579
-0.073591404 -17.633198 -33.237473 57.060482 -60.476437 -164.20065 -28.196781 66.989815
-28.049635 78.869125 -57.478748 151.77394 -33.209385 53.780434 -0.066418089 -17.260559
-57.805656 -144.13744 -28.182056 67.086205 -0.079974711 -17.45887 -33.057751 56.67149
69950000 -33.292915 50.665241 -0.079853453 -21.25868 -25.604017 77.239693 -58.779297 -137.17067
-0.087385267 -21.314423 -33.703964 50.732681 -59.044186 -175.48318 -25.710318 62.053425
-25.614058 76.071594 -57.833893 161.11227 -33.625114 48.842308 -0.078195587 -20.971027
-57.873386 -165.33704 -25.689062 62.069344 -0.087806515 -21.083263 -33.686737 50.855286
84937500 -33.855865 44.934765 -0.094277091 -25.468418 -23.100317 73.071426 -59.133015 -172.99496
-0.10307465 -25.4813 -34.124107 44.042183 -57.51643 172.49065 -23.12402 56.449532
-23.080408 72.954926 -58.010235 169.24022 -34.021709 43.518764 -0.091831073 -25.168913
-57.888893 172.17247 -23.097221 56.38588 -0.09779723 -25.188572 -34.249977 44.49662
99925000 -33.684315 39.924931 -0.10681184 -29.786783 -21.339415 70.222206 -57.360104 165.77586
-0.11528404 -29.80224 -34.08139 39.170162 -56.49316 165.12752 -21.395592 50.723003
-21.347496 70.145309 -56.687752 161.73636 -33.944981 38.072475 -0.10656801 -29.443699
-57.036983 166.47171 -21.365267 50.57806 -0.11039443 -29.459648 -34.185596 39.32505
114912500 -33.252327 34.849598 -0.12284997 -34.138363 -19.974522 67.441429 -55.639603 154.46431
-0.12989418 -34.160225 -33.782631 34.348484 -54.98637 156.69205 -20.019823 44.833385
-19.981255 67.386345 -55.04871 152.78603 -33.555664 33.624798 -0.12081308 -33.747837
-55.654022 158.73511 -20.012613 44.767899 -0.12505287 -33.766743 -33.898705 34.748158
129900000 -32.847652 30.286125 -0.13995922 -38.486046 -18.835897 64.608315 -54.11076 146.51086
-0.14652331 -38.506645 -33.352531 30.490942 -53.930939 146.78349 -18.88166 38.992176
-18.842493 64.613106 -53.719078 146.73921 -33.226391 29.609133 -0.13612027 -38.06427
-54.546734 148.74699 -18.875055 38.940907 -0.14078638 -38.078476 -33.581131 30.693172
144887500 -32.427082 26.344463 -0.1584677 -42.841381 -17.864689 61.795715 -52.934387 138.33771
-0.16351613 -42.854618 -32.963234 26.962444 -52.409031 136.32352 -17.908388 33.034878
-17.87171 61.788063 -52.737545 137.95819 -32.830818 25.465252 -0.1552812 -42.474251
-53.350475 139.89316 -17.903814 32.999077 -0.15738514 -42.48954 -33.207714 26.681913
159875000 -32.064415 22.207809 -0.17701341 -47.187531 -17.017649 58.967052 -51.888023 128.41182
-0.18183629 -47.198997 -32.625828 23.40799 -51.225498 127.32552 -17.066528 27.195133
-17.027365 59.015507 -51.741859 129.78123 -32.401497 21.440626 -0.17350271 -46.774986
-52.027981 130.04399 -17.062437 27.144674 -0.17541097 -46.790035 -32.849152 23.026247
174862500 -31.69364 17.903473 -0.19635262 -51.52219 -16.272659 56.164089 -50.745106 118.80812
-0.20136125 -51.539768 -32.252361 19.693998 -50.334927 118.04668 -16.325186 21.351599
-16.28178 56.233105 -50.650684 119.18945 -32.047081 17.283527 -0.19170648 -51.074398
-51.040001 120.89342 -16.319128 21.310411 -0.19517674 -51.091393 -32.460987 19.559412
189850000 -31.392334 13.845952 -0.21642798 -55.845406 -15.608651 53.403835 -49.780258 108.92168
-0.22265141 -55.864609 -31.960739 15.666316 -49.521099 107.84126 -15.663627 15.509427
-15.618685 53.462395 -49.771412 108.8574 -31.730038 13.021002 -0.21243373 -55.363022
-50.134304 110.76826 -15.656556 15.489066 -0.21524233 -55.380001 -32.173355 16.072123
204837500 -31.149538 9.6905584 -0.23705022 -60.163498 -15.011379 50.67268 -49.020557 100.12707
-0.24363364 -60.182026 -31.724195 12.169353 -48.674442 99.175331 -15.068313 9.6669989
-15.021923 50.721607 -48.818138 99.619843 -31.467707 8.9661999 -0.23381932 -59.639553
-49.353909 100.61152 -15.06276 9.6656466 -0.2356201 -59.654243 -31.875513 12.475124
219825000 -30.931278 5.5879841 -0.25867149 -64.472588 -14.474474 47.964596 -48.499004 90.396957
-0.26477137 -64.488953 -31.514547 8.9129944 -47.985928 90.888443 -14.535073 3.8406723
-14.485076 48.005047 -48.160778 91.477081 -31.23715 4.9577017 -0.25614238 -63.900723
-48.531223 91.044479 -14.527566 3.8476846 -0.25640073 -63.913475 -31.620941 9.1986189
234812500 -30.737911 1.2585912 -0.28097323 -68.771011 -13.986181 45.269157 -47.946796 81.335716
-0.28703642 -68.786224 -31.337366 5.5321984 -47.271229 81.914413 -14.049936 -2.0007901
-13.998546 45.297966 -47.438541 81.756393 -30.994999 0.88102871 -0.27757737 -68.159492
-47.889351 81.671753 -14.043204 -1.9937969 -0.2774415 -68.167168 -31.419828 6.3689318
249800000 -30.603487 -2.8200347 -0.30303004 -73.056511 -13.541969 42.600464 -47.260868 72.486382
-0.30907124 -73.069771 -31.199373 2.4523029 -46.600719 73.21228 -13.609463 -7.8284411
-13.551781 42.618702 -46.762005 73.170815 -30.783552 -3.2517753 -0.29962561 -72.40094
-47.202324 72.633537 -13.602189 -7.832541 -0.2997762 -72.41024 -31.247877 3.3426149
264787500 -30.494675 -7.1550522 -0.32619441 -77.336426 -13.138109 39.958115 -46.791931 63.232239
-0.33129331 -77.347816 -31.086494 -0.54940283 -46.009747 64.546951 -13.208268 -13.672834
-13.148069 39.956459 -46.130341 64.598358 -30.58445 -7.540451 -0.3225247 -76.633553
-46.717438 63.580116 -13.200755 -13.687117 -0.32143691 -76.648094 -31.106737 0.64613986
279775000 -30.453997 -11.6825 -0.34861496 -81.605698 -12.769566 37.333717 -46.355976 54.083004
-0.3542681 -81.618858 -31.069281 -3.546701 -45.488762 55.737831 -12.841805 -19.421976
-12.77951 37.321831 -45.572723 55.568054 -30.419886 -11.516145 -0.34389326 -80.764961
-46.25988 54.024967 -12.833369 -19.442314 -0.34381938 -80.769318 -31.013842 -2.2896187
294762500 -30.408577 -15.903735 -0.37125078 -85.864403 -12.432848 34.746166 -45.921364 45.273994
-0.37683353 -85.871826 -31.015463 -6.2918267 -44.995678 46.979061 -12.507792 -25.281189
-12.442021 34.724087 -45.062328 46.568058 -30.324343 -15.798467 -0.36684343 -84.98101
-45.77837 45.432556 -12.499502 -25.29195 -0.36630851 -84.983513 -30.902004 -4.9712343
309750000 -30.413418 -20.036251 -0.39334294 -90.116585 -12.124702 32.177109 -45.528419 37.008114
-0.39972603 -90.118835 -31.021847 -9.2390118 -44.531239 38.718079 -12.20118 -31.149952
-12.132511 32.152134 -44.656174 37.636883 -30.276129 -19.802683 -0.3903394 -89.186234
-45.394684 37.191753 -12.192885 -31.160675 -0.38780916 -89.189026 -30.83881 -7.7400446
324737500 -30.411926 -24.085915 -0.41533723 -94.360413 -11.84268 29.640173 -45.164707 28.898087
-0.42013544 -94.361649 -31.011124 -11.876593 -44.204079 31.163015 -11.921009 -37.019192
-11.849922 29.621958 -44.283829 29.890732 -30.276924 -23.650873 -0.4117119 -93.374664
-44.91386 29.26158 -11.91506 -37.03619 -0.40921924 -93.383804 -30.763519 -10.577556
339725000 -30.4536 -27.893505 -0.43766934 -98.594078 -11.583366 27.129696 -44.765007 21.961107
-0.44099617 -98.588364 -31.005125 -14.368015 -43.935909 24.152899 -11.664525 -42.902191
-11.590736 27.107183 -43.999516 22.848547 -30.276661 -27.252089 -0.43283066 -97.561729
-44.550373 21.873011 -11.659308 -42.930843 -0.43119195 -97.571045 -30.696844 -13.136167
354712500 -30.532963 -32.016949 -0.45834926 -102.81529 -11.347385 24.635042 -44.335991 15.0858
-0.4622038 -102.80761 -31.022537 -16.805197 -43.608593 16.069784 -11.430866 -48.795837
-11.353069 24.627098 -43.604275 14.705141 -30.281996 -31.194977 -0.45377812 -101.7319
-44.279572 14.165984 -11.425701 -48.826855 -0.45216534 -101.7533 -30.644541 -15.941353
369700000 -30.657393 -35.815506 -0.47816598 -107.02776 -11.132541 22.186441 -43.971909 7.5343065
-0.48198658 -107.0148 -31.047411 -19.403757 -43.261986 8.957202 -11.217109 -54.696445
-11.136842 22.185219 -43.235485 7.5756216 -30.335747 -34.928047 -0.4735857 -105.89778
-43.923256 6.7492456 -11.212585 -54.739323 -0.47260475 -105.92944 -30.602978 -19.267714
384687500 -30.785927 -39.993572 -0.49839962 -111.23756 -10.935467 19.761877 -43.622604 -0.3357563
-0.5025019 -111.22246 -31.126486 -21.986526 -42.99173 1.2477013 -11.0228 -60.631527
-10.941775 19.763138 -42.958927 0.18409061 -30.44907 -38.649139 -0.49383804 -110.06074
-43.557014 -1.3501837 -11.0179 -60.68343 -0.49192145 -110.09821 -30.629482 -22.458242
399675000 -30.955322 -43.713665 -0.51640511 -115.4331 -10.755239 17.366777 -43.311588 -7.6955061
-0.52110618 -115.41804 -31.247746 -24.470371 -42.757374 -5.9909396 -10.847127 -66.582802
-10.761517 17.377399 -42.631359 -7.2966161 -30.551813 -42.08815 -0.51329774 -114.21951
-43.307705 -8.7737789 -10.840841 -66.623146 -0.51100606 -114.25162 -30.636923 -25.66563
414662500 -31.170309 -47.522514 -0.53396332 -119.62201 -10.591515 15.008201 -43.100227 -15.440585
-0.53909254 -119.60789 -31.327234 -27.240795 -42.378479 -13.089646 -10.686313 -72.548744
-10.596967 15.024838 -42.340076 -13.97448 -30.682041 -45.609741 -0.53022087 -118.36595
-43.01445 -16.102205 -10.680718 -72.581078 -0.52949297 -118.40513 -30.663649 -28.615469
429650000 -31.368887 -51.398441 -0.55074507 -123.80399 -10.44398 12.680097 -42.845184 -23.024281
-0.55675709 -123.80439 -31.460861 -29.750399 -42.172997 -20.071409 -10.541282 -78.543037
-10.449679 12.691339 -42.118122 -21.317642 -30.825005 -49.255909 -0.54608619 -122.50679
-42.75219 -23.583996 -10.535643 -78.569839 -0.54686165 -122.54958 -30.724728 -31.640175
444637500 -31.66247 -55.286812 -0.56686425 -127.98312 -10.310391 10.39849 -42.687267 -30.309593
-0.57168794 -127.99046 -31.604509 -32.218185 -41.909058 -27.363361 -10.410783 -84.55632
-10.315912 10.397875 -41.860561 -28.243315 -30.983616 -53.130863 -0.56187254 -126.64596
-42.550838 -31.288357 -10.405231 -84.590752 -0.56295514 -126.69044 -30.791075 -34.704746
459625000 -31.952791 -59.199776 -0.58155519 -132.16017 -10.189709 8.1427546 -42.480366 -37.809555
-0.58653045 -132.1666 -31.786997 -34.848839 -41.687305 -34.461998 -10.293488 -90.601418
-10.194076 8.1380625 -41.618504 -35.413097 -31.176941 -56.997707 -0.57588983 -130.78157
-42.400169 -38.716564 -10.286699 -90.638443 -0.57772404 -130.83266 -30.889471 -37.491108
474612500 -32.243156 -62.89172 -0.59504193 -136.32887 -10.084077 5.9117398 -42.305935 -45.666073
-0.60032845 -136.34685 -31.984333 -37.335506 -41.49461 -42.376934 -10.191027 -96.672058
-10.086596 5.9188652 -41.442841 -42.919342 -31.431431 -61.128799 -0.59019017 -134.91519
-42.237026 -46.381935 -10.181998 -96.698799 -0.59143728 -134.96101 -31.059509 -40.377529
489600000 -32.586834 -66.5765 -0.60797077 -140.5024 -9.9877234 3.7317188 -42.165077 -53.600285
-0.6132974 -140.52304 -32.23901 -40.205399 -41.256046 -49.285015 -10.097717 -102.76575
-9.9903708 3.7355945 -41.234844 -49.724796 -31.673512 -64.916283 -0.60261577 -139.04655
-42.08778 -54.129692 -10.09026 -102.79443 -0.6043812 -139.08934 -31.214539 -43.117146
504587500 -32.879227 -70.459648 -0.62003171 -144.67314 -9.9004536 1.5844707 -41.992592 -60.990353
-0.62587029 -144.69913 -32.468468 -42.852859 -41.149399 -56.319374 -10.017672 -108.90424
-9.9054556 1.5835096 -41.114174 -56.74353 -31.936071 -68.663406 -0.61453915 -143.16882
-41.937195 -61.749336 -10.008768 -108.93117 -0.61579108 -143.20975 -31.367884 -45.269985
519575000 -33.219093 -73.76268 -0.63019037 -148.83862 -9.8252506 -0.52069336 -41.923485 -68.059402
-0.63573432 -148.86739 -32.692059 -45.497715 -41.032047 -62.714279 -9.9477329 -115.07181
-9.8296824 -0.52354318 -41.030914 -63.469479 -32.214844 -72.475128 -0.62510908 -147.29048
-41.918449 -68.677116 -9.9394798 -115.08511 -0.62666547 -147.3322 -31.535429 -47.352642
534562500 -33.694939 -77.523018 -0.63975853 -153.00255 -9.760025 -2.5866477 -41.842857 -75.627472
-0.6458714 -153.03719 -32.937675 -47.966145 -40.942314 -69.897751 -9.8872528 -121.27634
-9.7649593 -2.5883758 -40.955509 -70.324593 -32.523045 -76.599785 -0.63459897 -151.41331
-41.816059 -76.392838 -9.8794804 -121.28595 -0.63685316 -151.44978 -31.763044 -49.678181
549550000 -34.160622 -81.237175 -0.64948201 -157.16724 -9.7049475 -4.6099024 -41.746796 -82.972603
-0.65388221 -157.20258 -33.229527 -50.101822 -40.92231 -77.121803 -9.8365946 -127.51556
-9.7101383 -4.6186209 -40.880783 -77.55397 -32.839115 -80.544235 -0.64460015 -155.53616
-41.786335 -83.593987 -9.8285408 -127.52578 -0.64540899 -155.56602 -31.994244 -51.909241
564537500 -34.628193 -85.073082 -0.65734684 -161.3364 -9.6572399 -6.5955844 -41.726318 -90.053467
-0.66132879 -161.36443 -33.523758 -52.183048 -40.860508 -83.939545 -9.7940903 -133.79561
-9.6626472 -6.6094203 -40.816074 -84.238853 -33.107197 -84.514336 -0.65239269 -159.66003
-41.741623 -90.78418 -9.78584 -133.8055 -0.6526444 -159.68579 -32.177925 -54.354771
579525000 -35.13028 -88.908806 -0.66452926 -165.49933 -9.6192074 -8.5485287 -41.621967 -97.201492
-0.66872913 -165.52664 -33.847767 -53.741104 -40.778202 -90.726494 -9.7592001 -140.12083
-9.6249409 -8.5579338 -40.740856 -90.94381 -33.411472 -88.187408 -0.65969461 -163.78017
-41.699162 -98.091606 -9.7516966 -140.11206 -0.65910524 -163.79933 -32.39183 -56.588146
594512500 -35.733021 -92.699463 -0.6695956 -169.66095 -9.5885801 -10.450435 -41.605438 -104.09163
-0.67524248 -169.69019 -34.214008 -55.452164 -40.666592 -97.533386 -9.7341843 -146.48422
-9.5934448 -10.465236 -40.649986 -97.602608 -33.682606 -91.839096 -0.66711903 -167.90356
-41.695076 -104.95164 -9.7240524 -146.47029 -0.66477478 -167.91191 -32.616241 -58.759796
609500000 -36.446426 -96.923813 -0.67444307 -173.83122 -9.5629463 -12.310672 -41.625439 -111.84048
-0.68158585 -173.85384 -34.604477 -56.74324 -40.629932 -104.12041 -9.7149086 -152.88101
-9.5696526 -12.339757 -40.587021 -104.0946 -34.00486 -95.567047 -0.67172718 -172.01988
-41.708954 -112.40288 -9.7047596 -152.88863 -0.67021817 -172.03738 -32.82095 -60.996056
624487500 -37.235229 -100.51605 -0.67871422 -177.99615 -9.5472603 -14.136671 -41.606106 -118.76717
-0.68542206 -178.02139 -34.977066 -57.385338 -40.609066 -110.93121 -9.7012444 -159.33516
-9.5519743 -14.168587 -40.545673 -110.6964 -34.389133 -99.352623 -0.67558509 -176.1434
-41.709423 -119.42378 -9.6914873 -159.34993 -0.67538232 -176.1627 -33.122051 -62.893818
639475000 -38.105965 -105.27675 -0.68208575 177.83485 -9.5363388 -15.915814 -41.687233 -126.13879
-0.68856269 177.8064 -35.432354 -57.772896 -40.540611 -117.79115 -9.6942024 -165.8356
-9.5389099 -15.950607 -40.438801 -117.46208 -34.819603 -103.21164 -0.67936808 179.73007
-41.760391 -126.34177 -9.6831656 -165.84801 -0.67888874 179.7093 -33.402222 -65.093971
654462500 -39.039291 -110.79538 -0.68494254 173.66479 -9.5312557 -17.657549 -41.792824 -133.26439
-0.69249344 173.63258 -35.897003 -57.947311 -40.502632 -124.61011 -9.6913204 -172.39494
-9.5336781 -17.684349 -40.382561 -124.44278 -35.206451 -106.95913 -0.68205523 175.59442
-41.805939 -133.37671 -9.6800098 -172.40271 -0.68147296 175.57909 -33.717995 -67.242973
669450000 -40.128616 -116.2566 -0.68760496 169.48503 -9.5298309 -19.359684 -41.816101 -140.14412
-0.69469225 169.46043 -36.36237 -57.607395 -40.473682 -131.0567 -9.6934156 -178.98911
-9.5309935 -19.376669 -40.358543 -131.04253 -35.676895 -110.52887 -0.68380678 171.46344
-41.836159 -139.77614 -9.684268 -179.00731 -0.68420994 171.44229 -34.085068 -68.687355
684437500 -41.313961 -122.04964 -0.68897003 165.30403 -9.5315924 -21.013628 -41.956364 -146.64995
-0.69733739 165.28311 -36.830139 -57.332027 -40.450054 -137.48105 -9.7003098 174.36026
-9.5339527 -21.032776 -40.378319 -137.53094 -36.228264 -114.22489 -0.68515068 167.32953
-41.948795 -146.47008 -9.691762 174.33546 -0.68583763 167.30099 -34.442192 -70.023407
699425000 -42.719727 -128.85985 -0.69049484 161.12387 -9.5378065 -22.629511 -41.983921 -153.14279
-0.69774109 161.0988 -37.27755 -55.470577 -40.460136 -143.76653 -9.7118263 167.65985
-9.5381746 -22.638693 -40.426075 -143.84024 -36.945503 -117.81068 -0.68720192 163.19147
-42.044346 -153.01872 -9.7028675 167.6282 -0.68782693 163.15314 -34.866486 -70.888123
714412500 -44.258446 -137.40332 -0.69084561 156.93663 -9.5469799 -24.193066 -42.203587 -159.83971
-0.69879425 156.91617 -37.664188 -54.295338 -40.545387 -150.10391 -9.7268133 160.90439
-9.5454273 -24.20018 -40.52721 -150.48576 -37.641621 -121.43349 -0.68723685 159.04965
-42.19083 -159.09947 -9.7161732 160.8707 -0.68925869 159.00876 -35.275043 -71.800179
729400000 -46.50964 -150.50429 -0.69203621 152.74796 -9.5580521 -25.722988 -42.40448 -166.55844
-0.69989395 152.72737 -37.945686 -51.801125 -40.651981 -156.79431 -9.7440796 154.10207
-9.5589743 -25.722231 -40.631062 -157.08029 -38.549477 -126.25823 -0.68798155 154.90265
-42.399529 -165.845 -9.7344027 154.06718 -0.6902746 154.85725 -35.665005 -72.143288
744387500 -47.688248 -166.93858 -0.69272625 148.55679 -9.5729198 -27.200212 -42.575119 -172.63019
-0.70033759 148.53122 -38.144104 -49.502609 -40.701836 -163.20502 -9.7635345 147.23782
-9.5733194 -27.196796 -40.745232 -163.51477 -39.438374 -130.6328 -0.6872521 150.75322
-42.545822 -172.57477 -9.7547379 147.2149 -0.6906997 150.71066 -36.037022 -71.7061
759375000 -48.635399 173.56793 -0.69334912 144.36031 -9.5867043 -28.644056 -42.845417 -179.62515
-0.70096546 144.34195 -38.188362 -46.747952 -40.770191 -169.56964 -9.7859945 140.33247
-9.58846 -28.631445 -40.806583 -169.95918 -40.549076 -136.2827 -0.68795657 146.59921
-42.72559 -179.02914 -9.776329 140.31523 -0.69010013 146.56146 -36.313709 -71.285248
774362500 -49.060745 153.92682 -0.69337684 140.16548 -9.602747 -30.049192 -43.130459 174.29791
-0.70100337 140.14746 -38.143089 -44.057419 -40.859119 -175.97763 -9.8092241 133.38329
-9.6056881 -30.025478 -40.956448 -176.27989 -41.697166 -143.30754 -0.68797022 142.44534
-42.998569 174.71288 -9.7999973 133.36488 -0.69038641 142.4016 -36.580471 -69.510941
789350000 -49.367161 134.93974 -0.69323629 135.96361 -9.6194353 -31.413008 -43.332176 168.25818
-0.70009291 135.94658 -38.00193 -41.054966 -40.988308 177.62025 -9.831851 126.39544
-9.6214457 -31.391607 -41.062935 177.62865 -43.295155 -152.16895 -0.68795282 138.29439
-43.286144 168.55891 -9.8230295 126.37286 -0.68999428 138.24377 -36.743309 -67.665207
804337500 -49.027248 115.04076 -0.69340074 131.76538 -9.6367092 -32.736221 -43.76498 161.87953
-0.70006102 131.74248 -37.724972 -38.65049 -41.116985 171.29613 -9.8560581 119.34676
-9.6393261 -32.720219 -41.227875 171.38084 -44.846985 -163.12842 -0.68779457 134.13521
