!Keysight Technologies,N5225A,MY51451185,Z.10.48.20
!Date: Tuesday, March 28, 2017 16:19:17
!Correction: S11(Full 4 Port(1,2,3,4)) 
!S12(Full 4 Port(1,2,3,4)) 
!S13(Full 4 Port(1,2,3,4)) 
!S14(Full 4 Port(1,2,3,4)) 
!S21(Full 4 Port(1,2,3,4)) 
!S22(Full 4 Port(1,2,3,4)) 
!S23(Full 4 Port(1,2,3,4)) 
!S24(Full 4 Port(1,2,3,4)) 
!S31(Full 4 Port(1,2,3,4)) 
!S32(Full 4 Port(1,2,3,4)) 
!S33(Full 4 Port(1,2,3,4)) 
!S34(Full 4 Port(1,2,3,4)) 
!S41(Full 4 Port(1,2,3,4)) 
!S42(Full 4 Port(1,2,3,4)) 
!S43(Full 4 Port(1,2,3,4)) 
!S44(Full 4 Port(1,2,3,4)) 
! Description:       	4-port S-parameter data for Directional Coupler C09-0R430
!Port Configuration : Port 1 = Input ; Port 2 = Output ; Port 3 = Coupled ; Port 4 = Isolated
!S4P File: Measurements: <S11,S12,S13,S14>,
!<S21,S22,S23,S24>,
!<S31,S32,S33,S34>,
!<S41,S42,S43,S44>:
# Hz S  dB   R 50
10000000 -26.743328 80.048141 -0.044778723 -5.9399228 -39.291168 83.940575 -60.105267 -142.56261
-0.041150257 -5.9416041 -26.585127 81.097496 -60.187752 -6.6012812 -39.161407 79.229874
-38.877453 82.076889 -60.433865 -171.5038 -26.203814 80.162094 -0.077766307 -6.0354762
-60.022415 -63.592197 -39.398495 82.751007 -0.040360823 -5.901834 -26.256741 77.812057
11237500 -27.237745 79.497749 -0.044932641 -5.9889264 -38.788967 84.264435 -59.917442 -158.47107
-0.040184617 -5.985857 -27.125185 79.7929 -60.762836 -50.832668 -38.768703 80.110565
-38.534977 82.476151 -60.883217 170.08492 -26.85239 79.080521 -0.070912659 -6.040349
-60.981827 -68.97348 -38.957569 82.998932 -0.042869546 -5.9419708 -26.759682 77.200821
12475000 -27.827961 78.346375 -0.043554749 -6.0681405 -38.279175 84.139885 -61.058125 -179.6463
-0.039734747 -6.0596628 -27.646572 78.448891 -61.627472 -89.67099 -38.30336 81.115997
-38.13702 82.707161 -61.142479 167.07228 -27.53064 78.221878 -0.065447927 -6.1053271
-62.238876 -55.565529 -38.33823 82.86039 -0.044528715 -6.0276566 -27.294439 76.348389
13712500 -28.440712 77.267906 -0.043862823 -6.1814747 -37.67564 84.271057 -62.601254 162.21851
-0.041229673 -6.1747184 -28.208582 77.374443 -63.728107 -118.58419 -37.761318 81.828178
-37.736839 82.781975 -63.600624 161.74548 -28.202763 76.737068 -0.058286715 -6.2059307
-62.703701 -26.892462 -37.682892 82.307098 -0.044422526 -6.155488 -27.833109 75.432114
14950000 -29.041372 76.299927 -0.044130858 -6.3407817 -37.017403 84.252518 -62.913528 150.06995
-0.041394882 -6.320631 -28.80636 76.056839 -64.258224 -154.56668 -37.154469 82.472366
-37.146313 83.054199 -63.505028 150.39729 -28.95484 75.330696 -0.05191268 -6.3386831
-65.883797 -14.51603 -36.991127 81.946266 -0.047412053 -6.3163967 -28.433432 74.658844
16187500 -29.658417 75.162727 -0.04457156 -6.5309496 -36.366859 84.239197 -64.067535 151.88268
-0.042248569 -6.5009627 -29.410522 74.352814 -64.969612 166.46126 -36.502716 83.475479
-36.558956 83.26619 -63.776623 145.84383 -29.67477 74.258339 -0.045464858 -6.5058165
-65.567024 13.050748 -36.277054 81.755272 -0.048869137 -6.5007153 -29.065428 73.759331
17425000 -30.134909 73.415009 -0.047647964 -6.7608123 -35.709637 84.663643 -64.711288 145.85812
-0.045455676 -6.7618756 -29.950274 73.432838 -65.799324 145.68875 -35.757385 82.759155
-35.780464 83.675224 -65.706177 156.0368 -30.199615 73.279716 -0.043882117 -6.7395239
-65.85598 23.150835 -35.613464 81.016068 -0.05060054 -6.7524948 -29.652933 73.517799
18662500 -30.461189 71.954071 -0.04988043 -7.0550537 -35.070324 84.389786 -65.206909 154.77074
-0.049311168 -7.0454788 -30.247559 72.468353 -66.089439 142.85817 -35.199223 82.259979
-35.200626 83.305115 -65.493042 150.70865 -30.482981 72.056236 -0.048479334 -7.02283
-67.476738 27.488922 -35.093369 81.005142 -0.049919181 -7.0486403 -30.123138 73.102661
19900000 -30.710411 71.273994 -0.049095403 -7.3667116 -34.509968 84.198372 -65.722542 154.08821
-0.051047117 -7.3657856 -30.474945 71.170601 -66.303452 141.2354 -34.499138 81.500244
-34.629631 83.105614 -65.210869 151.92331 -30.783678 70.672218 -0.054277737 -7.3039508
-66.953949 47.5369 -34.565273 80.487061 -0.051894646 -7.3429127 -30.533953 72.393951
21137500 -31.010796 70.482132 -0.05197151 -7.6771617 -33.972073 84.638023 -65.553017 153.80916
-0.055410512 -7.6751752 -30.729567 69.784454 -66.464111 143.45366 -33.974815 81.004585
-34.090992 83.346878 -65.719284 158.7964 -31.157808 69.622818 -0.056026209 -7.6022925
-65.857323 60.316296 -34.092731 80.470612 -0.053799357 -7.6489863 -30.911161 71.562027
22375000 -31.30331 69.402977 -0.053342015 -7.9797597 -33.527725 84.281647 -66.704712 153.00249
-0.057286438 -7.9792233 -31.022812 68.900986 -66.268265 146.46794 -33.456532 80.461105
-33.625858 83.410744 -64.827827 167.55443 -31.409203 68.4562 -0.057163317 -7.9240422
-66.101768 91.146652 -33.537304 79.887329 -0.054517072 -7.9638925 -31.251137 70.613075
23612500 -31.532879 68.700821 -0.055579521 -8.2797098 -33.042595 84.286697 -66.288902 156.75749
-0.059542853 -8.2835379 -31.380611 68.024437 -65.658768 143.76199 -32.973217 79.752953
-33.147648 83.457748 -65.582481 156.31364 -31.691071 67.242729 -0.057460479 -8.2145185
-65.092514 108.37782 -33.116547 79.377754 -0.056493256 -8.2600889 -31.641994 69.783485
24850000 -31.787338 68.023827 -0.055962302 -8.5929947 -32.590431 84.053856 -64.925026 159.68262
-0.05953547 -8.5836649 -31.729769 66.959808 -63.808392 132.09802 -32.51683 79.15905
-32.596512 83.789917 -63.283337 146.51825 -31.981127 67.18689 -0.058859568 -8.5015078
-64.271515 109.04435 -32.685577 79.307793 -0.058591008 -8.5458126 -32.12059 68.590736
26087500 -32.114025 67.059891 -0.055532537 -8.8982401 -32.173264 83.861931 -64.847076 152.98334
-0.061126128 -8.8874187 -32.130318 65.948059 -64.181374 126.96166 -32.084969 78.753349
-32.208752 83.82444 -63.630947 145.8989 -32.289989 66.8563 -0.059338924 -8.8106699
-61.230461 125.87463 -32.27404 79.064384 -0.059257243 -8.8330641 -32.496788 67.094215
27325000 -32.45174 66.261589 -0.056375869 -9.1940155 -31.685244 83.673157 -64.035751 138.37581
-0.061046183 -9.1887836 -32.576038 65.368301 -64.088188 129.29688 -31.652506 77.935387
-31.771906 83.782417 -63.497677 142.22832 -32.700447 65.926926 -0.058979236 -9.1034594
-61.625385 131.34135 -31.813934 78.63636 -0.060090765 -9.1335716 -32.840614 65.799118
28562500 -32.783451 65.292946 -0.05672105 -9.4974241 -31.311125 83.444359 -63.954041 138.74609
-0.06068578 -9.4905605 -32.997372 64.748131 -63.094067 129.50009 -31.285776 77.551041
-31.33926 83.316223 -62.660892 127.79582 -33.204502 65.346519 -0.059474304 -9.390976
-62.394028 135.58749 -31.40419 78.099075 -0.060237393 -9.43717 -33.113274 64.588417
29800000 -33.126118 64.588104 -0.055834074 -9.7924309 -30.9494 83.188881 -63.454208 129.57567
-0.05975312 -9.7946854 -33.390663 64.376137 -63.03334 131.76363 -30.922815 77.3097
-30.935938 83.000534 -61.870785 122.51826 -33.643139 64.664146 -0.059353098 -9.6879187
-61.944386 131.72359 -31.004549 77.834694 -0.060478739 -9.7243462 -33.393707 63.372871
31037500 -33.506084 63.753326 -0.054683473 -10.096473 -30.589981 82.984459 -63.23354 132.40211
-0.058834285 -10.101354 -33.724903 63.890869 -62.246933 126.84775 -30.588686 76.850029
-30.578138 82.848373 -62.925659 125.49399 -33.92601 64.301178 -0.059334621 -9.9984484
-62.756035 131.27292 -30.637392 77.319443 -0.059662245 -10.02305 -33.723957 62.183437
32275000 -33.775169 62.679607 -0.054482643 -10.407013 -30.242771 82.672699 -63.010975 132.69849
-0.057609394 -10.41842 -33.997009 63.492737 -61.940815 131.65097 -30.240482 76.410896
-30.2283 82.846474 -62.960396 129.46667 -34.12606 64.239601 -0.058253419 -10.310937
-63.753944 132.42918 -30.293692 76.774689 -0.060009759 -10.333196 -34.033081 61.008453
33512500 -34.045288 61.644905 -0.053810284 -10.729242 -29.898626 82.412125 -62.435631 132.05978
-0.058312416 -10.733963 -34.224091 62.99791 -61.733109 136.54924 -29.911385 75.934631
-29.870237 82.510796 -63.978477 130.42584 -34.355236 64.475227 -0.058778249 -10.635878
-62.406307 133.52715 -29.96817 76.161148 -0.05876511 -10.641936 -34.277618 60.048161
34750000 -34.262508 60.570759 -0.05469029 -11.062111 -29.575493 82.199486 -61.666584 130.30658
-0.057562917 -11.056928 -34.482689 62.302502 -62.520409 133.24672 -29.584356 75.51609
-29.534189 82.302574 -63.352402 129.85365 -34.611725 64.162514 -0.05825666 -10.964658
-62.110378 133.51698 -29.641649 75.742241 -0.058465347 -10.959397 -34.415154 59.080917
35987500 -34.462894 59.289097 -0.056066431 -11.38634 -29.282635 81.947052 -61.917542 128.20462
-0.057711437 -11.380435 -34.717052 61.371674 -63.127533 131.64426 -29.28973 75.170715
-29.244255 81.943665 -63.643059 132.95152 -34.844597 62.94339 -0.058010388 -11.297243
-62.949097 130.17004 -29.332062 75.280457 -0.059596356 -11.27541 -34.534782 58.438698
37225000 -34.622608 57.925598 -0.058537524 -11.701359 -28.979803 81.796196 -61.599247 128.61232
-0.058339868 -11.711758 -34.863594 60.474358 -62.792324 130.59541 -28.994125 74.730827
-28.966532 81.727676 -63.23238 132.20853 -35.019188 62.220543 -0.058554769 -11.610211
-62.98484 128.27209 -29.016239 74.860001 -0.05866795 -11.595031 -34.732307 57.794987
38462500 -34.762455 56.509377 -0.059255332 -12.036594 -28.714733 81.5784 -61.219498 120.64246
-0.060013339 -12.045688 -34.969425 59.547707 -62.644146 126.78674 -28.722225 74.225342
-28.703768 81.595718 -63.336403 131.35114 -35.104633 61.502636 -0.059440106 -11.943256
-63.373142 121.57296 -28.735847 74.291702 -0.059521314 -11.927094 -34.992496 57.108891
39700000 -34.892544 55.620842 -0.059710562 -12.371531 -28.431999 81.388893 -61.721886 118.05056
-0.061364964 -12.382376 -35.092762 58.430214 -62.548752 126.39679 -28.445696 73.726974
-28.427757 81.554939 -63.075294 130.83835 -35.147034 60.428719 -0.060715236 -12.295515
-62.2551 116.49967 -28.475937 73.799515 -0.059347611 -12.253569 -35.272011 56.503757
40937500 -35.02792 54.910568 -0.060678884 -12.721294 -28.166939 81.19455 -61.846401 120.71164
-0.061864782 -12.715744 -35.246262 57.448093 -62.126503 122.91879 -28.175688 73.270706
-28.175585 81.428833 -63.030502 130.09363 -35.242344 59.533699 -0.06020765 -12.629446
-61.74614 116.97066 -28.206949 73.228333 -0.060782667 -12.593826 -35.447109 55.685246
42175000 -35.12669 54.51001 -0.062613137 -13.060602 -27.9097 81.021416 -61.629177 120.3749
-0.063089654 -13.063477 -35.378399 56.509121 -61.671017 125.02448 -27.929955 72.869003
-27.926018 81.195641 -62.150101 121.79177 -35.387054 59.045605 -0.060217291 -12.960921
-61.281727 110.56443 -27.958849 72.819817 -0.062300403 -12.933937 -35.585911 54.61721
43412500 -35.270981 53.892387 -0.06395781 -13.400599 -27.672661 80.769279 -61.195854 117.971
-0.063756905 -13.405215 -35.519398 55.496986 -61.589329 121.57359 -27.687065 72.32666
-27.66917 80.995979 -61.900135 118.96023 -35.495007 58.226501 -0.060924117 -13.297132
-60.651939 110.27539 -27.703684 72.257416 -0.064161621 -13.27879 -35.737415 53.620201
44650000 -35.402473 52.762753 -0.065761924 -13.73887 -27.426329 80.595253 -60.799301 115.63818
-0.063724019 -13.74879 -35.667305 54.424175 -61.644897 115.69627 -27.441463 71.920242
-27.411541 80.72805 -61.243641 115.00407 -35.614075 57.52076 -0.061998997 -13.628628
-60.885822 110.58559 -27.440733 71.784851 -0.065622859 -13.611656 -35.931644 52.902328
45887500 -35.581905 51.97607 -0.06707336 -14.080392 -27.189911 80.4076 -60.945435 116.79374
-0.064153478 -14.090937 -35.752377 53.843227 -60.789028 119.14912 -27.206726 71.447762
-27.180496 80.491714 -61.325031 117.23772 -35.656132 56.917061 -0.062168118 -13.972801
-60.612892 108.65941 -27.203217 71.351791 -0.066808045 -13.946663 -36.166679 51.945774
47125000 -35.717369 51.239914 -0.067572579 -14.417467 -26.953196 80.212082 -60.386189 113.83009
-0.065231308 -14.43716 -35.847694 53.488232 -60.370991 118.38508 -26.967609 71.044556
-26.953754 80.335411 -60.790264 116.34188 -35.726662 56.275509 -0.064153895 -14.312365
-60.763725 106.2564 -26.974482 70.938377 -0.066535503 -14.295994 -36.34074 50.897961
48362500 -35.821678 50.486958 -0.069071554 -14.775607 -26.724226 80.128281 -60.781002 112.62746
-0.065337509 -14.780418 -35.934372 53.359909 -60.188446 116.82006 -26.746399 70.620857
-26.714289 80.007896 -61.681301 118.23654 -35.754745 54.949745 -0.063834146 -14.674701
-60.093243 101.92324 -26.754044 70.31189 -0.069797255 -14.637313 -36.525444 49.491943
49600000 -35.952034 49.853039 -0.068742417 -15.131787 -26.510941 79.927475 -62.060532 111.56247
-0.065979414 -15.122289 -36.073814 52.755539 -59.667305 115.64856 -26.527308 70.175957
-26.487999 79.636559 -61.272038 116.43372 -35.862469 53.516117 -0.064599387 -15.024383
-59.863705 103.71508 -26.514343 69.933334 -0.071648479 -14.987288 -36.521267 49.291214
50837500 -36.073898 49.635441 -0.068881176 -15.486462 -26.295971 79.608444 -60.643509 111.93954
-0.066795051 -15.464791 -36.17704 51.984386 -59.194473 114.86667 -26.314682 69.805809
-26.264143 79.451492 -61.100262 115.22492 -35.970165 52.264423 -0.06577424 -15.357831
-60.258381 104.46746 -26.302408 69.486984 -0.071694255 -15.323036 -36.624687 48.67247
52075000 -36.188492 49.033478 -0.06991294 -15.828969 -26.084723 79.371262 -60.189644 106.73629
-0.067190073 -15.815201 -36.328815 51.287773 -59.041004 115.19121 -26.114822 69.293266
-26.059885 79.266853 -60.893627 115.72733 -36.011196 50.465298 -0.067562148 -15.692267
-59.929596 97.881943 -26.088001 69.021263 -0.071894132 -15.670817 -36.781929 47.046062
53312500 -36.240429 47.927677 -0.070917934 -16.179905 -25.87892 79.169014 -60.136349 105.4306
-0.065383665 -16.156885 -36.571686 51.318382 -58.704971 113.05594 -25.916483 68.859642
-25.851686 79.159355 -60.039288 118.41761 -36.067654 48.555309 -0.06909702 -16.030767
-60.491417 94.592331 -25.89064 68.476891 -0.072854944 -16.019297 -36.830063 45.412304
54550000 -36.249214 46.885178 -0.071079537 -16.522812 -25.674913 79.020348 -59.802143 106.83089
-0.066375859 -16.497437 -36.757874 50.359028 -58.476093 110.8596 -25.717751 68.335258
-25.652969 78.902077 -61.161942 131.22968 -36.084343 47.675014 -0.070338354 -16.373077
-60.221947 94.096542 -25.696579 68.12011 -0.072337031 -16.357801 -36.986736 44.440239
55787500 -36.321934 46.004272 -0.072585657 -16.870064 -25.491022 78.751015 -59.729652 101.58325
-0.067039713 -16.840528 -36.879314 49.954502 -58.588707 110.47556 -25.536831 67.881577
-25.463415 78.709099 -61.218605 135.99928 -36.178936 46.121983 -0.071641952 -16.710443
-60.063717 93.246902 -25.494987 67.700722 -0.074725509 -16.702538 -37.084618 43.635525
57025000 -36.323761 44.632668 -0.073786445 -17.213736 -25.292868 78.527405 -59.447754 100.0456
-0.069009453 -17.192671 -36.976631 49.971886 -58.353542 108.48161 -25.351717 67.389694
-25.276257 78.49292 -60.786148 136.66289 -36.418743 44.336525 -0.073459424 -17.042391
-59.894779 93.024025 -25.310242 67.328888 -0.075650193 -17.048613 -36.998077 42.687431
58262500 -36.473766 43.706139 -0.074509799 -17.563061 -25.108967 78.274109 -59.54369 98.455978
-0.06976068 -17.545517 -36.979794 49.083031 -57.878319 109.18884 -25.1621 66.865517
-25.09284 78.227608 -60.198124 137.16083 -36.540413 42.343559 -0.073993959 -17.385086
-59.038067 91.014557 -25.118153 66.837738 -0.078371041 -17.392361 -36.909088 41.818836
59500000 -36.571957 43.323025 -0.07429681 -17.906849 -24.927393 77.947159 -58.900833 98.627205
-0.070351616 -17.896803 -37.011887 47.820164 -58.208099 113.40107 -24.994247 66.331551
-24.918383 78.144653 -59.463963 133.20139 -36.676273 41.205448 -0.077744409 -17.714071
-59.077385 93.151398 -24.933289 66.401543 -0.075350165 -17.744329 -36.826897 41.250584
60737500 -36.698391 42.791386 -0.077362739 -18.250105 -24.736153 77.778885 -57.815281 100.77673
-0.070564769 -18.247465 -36.987713 47.059917 -58.554119 110.8804 -24.819044 65.881378
-24.730572 78.026688 -59.689877 128.61827 -36.959362 41.331005 -0.079740122 -18.038393
-58.871468 92.968697 -24.784781 65.928726 -0.073620841 -18.0765 -36.98267 39.184711
61975000 -36.787323 41.656544 -0.079095654 -18.5882 -24.569887 77.685295 -58.378231 97.455269
-0.072091855 -18.593863 -37.073017 46.701591 -58.710995 107.10321 -24.644743 65.39283
-24.567768 77.845932 -59.90601 125.52013 -37.163109 40.758652 -0.079628371 -18.379953
-58.512016 91.658958 -24.603706 65.519676 -0.076209687 -18.415092 -36.996487 38.121418
63212500 -36.795124 40.391537 -0.079755031 -18.930002 -24.405064 77.453568 -58.561016 100.55556
-0.073304728 -18.944511 -37.061039 46.30265 -59.124561 107.1649 -24.470917 64.960831
-24.391197 77.654991 -59.6521 124.33944 -37.297962 39.93541 -0.079077452 -18.735027
-58.672943 90.698517 -24.43659 65.111359 -0.077753879 -18.745222 -36.944462 38.174526
64450000 -36.830124 39.473061 -0.080583043 -19.272564 -24.243824 77.219917 -58.499035 96.291061
-0.076631084 -19.300159 -36.98732 45.526672 -59.057041 107.01456 -24.292873 64.489769
-24.225895 77.301323 -60.87093 127.84433 -37.49152 39.57132 -0.079220712 -19.092278
-57.769463 96.387184 -24.266176 64.727112 -0.077069186 -19.08147 -37.016174 38.376289
65687500 -36.886974 38.933685 -0.081641942 -19.626631 -24.080032 76.960686 -58.55917 93.767181
-0.07653185 -19.655416 -37.004948 45.059368 -58.942986 106.74583 -24.129829 64.139862
-24.054264 77.139359 -59.388062 113.1255 -37.708988 38.061768 -0.07826563 -19.424231
-57.487137 95.177048 -24.109818 64.215958 -0.078335561 -19.42919 -36.996418 37.864079
66925000 -36.854393 38.739449 -0.081316754 -19.981857 -23.90937 76.77034 -58.699795 96.913368
-0.07753469 -20.006189 -37.094521 44.360439 -58.704033 104.01384 -23.96324 63.659966
-23.882704 76.882484 -59.409336 110.51064 -37.742298 37.223782 -0.078135468 -19.775497
-57.362667 95.914009 -23.957293 63.72538 -0.078267463 -19.784029 -37.085075 36.474377
68162500 -36.902 38.673531 -0.081408031 -20.335028 -23.752722 76.547852 -58.544079 94.72683
-0.07763467 -20.361012 -37.154385 42.859829 -58.843296 102.56279 -23.806057 63.215191
-23.720623 76.679657 -58.710712 107.04642 -37.664215 36.888046 -0.078634158 -20.123953
-57.916836 91.357735 -23.791845 63.208382 -0.078786343 -20.129995 -37.378979 35.934113
69400000 -36.832531 38.352871 -0.083504193 -20.682373 -23.604774 76.339371 -58.167667 94.657761
-0.078816026 -20.71125 -37.28933 42.025494 -58.903481 101.2571 -23.657446 62.753456
-23.569281 76.508698 -59.086006 105.67803 -37.716084 37.12286 -0.080018103 -20.472321
-58.104439 96.197762 -23.647484 62.784718 -0.07837525 -20.472021 -37.760147 35.979103
70637500 -36.79282 37.721306 -0.085265554 -21.027908 -23.45789 76.090691 -58.185501 92.670158
-0.080375515 -21.063698 -37.39035 41.053146 -58.190548 96.871254 -23.499565 62.264858
-23.416401 76.171333 -58.728844 106.71051 -37.754932 37.794388 -0.079887472 -20.813711
-58.22971 96.33252 -23.48702 62.371937 -0.081139661 -20.829178 -38.001259 35.598122
71875000 -36.742622 36.995499 -0.085464336 -21.37801 -23.318386 75.823586 -57.660915 89.937256
-0.08150883 -21.419573 -37.503727 40.233303 -57.756676 98.059753 -23.3507 61.824966
-23.283358 75.972656 -58.254166 107.65285 -37.563683 37.189911 -0.081065528 -21.167377
-57.585735 94.320015 -23.330383 61.86142 -0.082925215 -21.186123 -37.989902 35.407093
73112500 -36.721016 36.121609 -0.085542388 -21.733786 -23.177364 75.564514 -57.443718 90.729942
-0.082913786 -21.768078 -37.481606 39.467079 -57.615448 99.431686 -23.214727 61.357502
-23.144268 75.669426 -58.089214 106.7697 -37.450188 36.516422 -0.083059661 -21.508944
-57.305119 94.554993 -23.186535 61.350414 -0.083365276 -21.55238 -37.974247 35.086472
74350000 -36.744328 35.788647 -0.086264022 -22.09417 -23.02825 75.379265 -57.131042 88.303955
-0.084350839 -22.115696 -37.496353 38.431705 -57.198318 97.670265 -23.070982 60.874699
-23.003338 75.385696 -58.072582 107.29427 -37.410561 37.189602 -0.085030027 -21.86047
-57.129623 97.499626 -23.051882 60.824265 -0.08373785 -21.906559 -38.013111 34.582489
75587500 -36.754944 35.546326 -0.086591125 -22.451553 -22.884071 75.15728 -57.003914 93.21624
-0.08506383 -22.465019 -37.502274 37.106895 -57.238415 96.333 -22.93671 60.402779
-22.864225 75.153526 -57.03878 101.32079 -37.338184 37.39949 -0.086848155 -22.206961
-57.217987 97.121254 -22.905003 60.316608 -0.086990863 -22.254057 -38.008175 34.241802
