! MARKI MICROWAVE INC.
! Email:             	info@markimicrowave.com   				Phone:   408-778-4200
! Model Number:      	C09-0R426						Date:    02/15
! Filename:		C09_0R426.S4P						Version: 1.0
! Description:       	4-port S-parameter data for Directional Coupler C09-0R426
! Frequency Range: 	10 MHz to 27 GHz		
! Port Configuration:	PORT 1: Input
!			PORT 2: Output 
!			Port 3: Coupled 
!			Port 4: Isolated
!
!
! S4P File: Measurements: Mag<S11> Ang<S11> Mag<S12> Ang<S12> Mag<S13> Ang<S13> Mag<S14> Ang<S14>! row 1 
!			  Mag<S21> Ang<S21> Mag<S22> Ang<S22> Mag<S23> Ang<S23> Mag<S24> Ang<S24>! row 2 
!			  Mag<S31> Ang<S31> Mag<S32> Ang<S32> Mag<S33> Ang<S33> Mag<S34> Ang<S34>! row 3 
!			  Mag<S41> Ang<S41> Mag<S42> Ang<S42> Mag<S43> Ang<S43> Mag<S44> Ang<S44>! row 4

# Hz S DB R 50
10000000 -29.849398 62.611923 -0.077731252 -15.279949 -32.063114 77.218842 -57.362587 -148.54109
-0.046299614 -15.374713 -30.999968 64.706001 -60.824474 -118.18347 -32.801735 74.814529
-32.858719 74.401543 -62.770481 -143.63272 -31.635674 60.008335 -0.042724911 -15.153516
-56.433674 165.47485 -32.681152 76.274956 -0.10704345 -15.351565 -30.371202 65.692085
43737500 -30.208641 55.894642 -0.094579302 -20.577805 -29.346203 74.272987 -56.417122 -161.43471
-0.069625035 -20.657549 -31.215117 57.866611 -59.231972 -137.08759 -29.948986 66.744789
-29.984701 72.021912 -60.755882 -158.35324 -31.837004 53.465256 -0.065096296 -20.39488
-55.592251 160.7097 -29.848959 67.905098 -0.11687277 -20.553965 -30.837973 58.457287
77475000 -30.505276 48.024769 -0.11614916 -26.958178 -26.488081 70.638161 -55.357769 -176.52705
-0.098515972 -27.023932 -31.368971 50.110775 -57.401794 -157.57388 -26.952591 57.212341
-26.967697 68.945763 -58.601517 -175.48564 -31.950596 46.075115 -0.092191152 -26.705875
-54.750492 153.38982 -26.873524 58.082474 -0.13316377 -26.825304 -31.256836 50.501301
111212500 -30.761856 39.209263 -0.14306916 -34.41761 -23.512173 66.322327 -54.094486 165.40834
-0.13292465 -34.469612 -31.457602 41.597607 -55.34481 179.10899 -23.841774 46.217808
-23.83462 65.198456 -56.197933 165.23352 -31.980734 37.53521 -0.12589315 -34.082478
-53.586998 144.0486 -23.782274 46.786224 -0.15409452 -34.166241 -31.626446 41.463936
144950000 -30.988577 29.321968 -0.17631103 -42.943691 -20.441513 61.355721 -52.704517 145.52895
-0.17354508 -42.977581 -31.525656 32.388454 -53.238037 153.54854 -20.636265 33.769909
-20.606825 60.78828 -53.64769 144.25937 -32.013145 28.070986 -0.16573285 -42.51553
-52.334198 132.52327 -20.59794 34.039246 -0.18092953 -42.562984 -31.941654 31.894447
178687500 -31.184584 18.32443 -0.21620241 -52.534122 -17.292974 55.734585 -51.253464 123.63208
-0.21901661 -52.553791 -31.574919 22.458023 -50.938808 126.05109 -17.352739 19.855627
-17.302187 55.74361 -51.006935 121.34247 -32.003551 17.537306 -0.21021098 -52.001305
-50.935215 118.85383 -17.338167 19.817471 -0.2137375 -52.017342 -32.249191 21.659472
212425000 -30.56016 8.4697046 -0.25951639 -62.240658 -15.491186 49.645267 -48.464043 99.128616
-0.26282272 -62.259464 -31.01157 14.594262 -48.933704 102.20815 -15.550235 6.6950698
-15.495897 49.614079 -48.655533 100.25728 -31.386675 7.5224185 -0.25226814 -61.608944
-48.667156 98.118225 -15.540842 6.6853056 -0.25726882 -61.620232 -31.77763 14.074363
246162500 -30.064693 -0.74992973 -0.3056263 -71.914421 -14.186055 43.618603 -46.927784 77.651237
-0.30904737 -71.92981 -30.527178 7.4977555 -47.123207 82.016487 -14.246663 -6.502913
-14.189711 43.605377 -47.013531 80.052025 -30.855291 -1.4164184 -0.29839009 -71.192871
-46.926605 78.095322 -14.243044 -6.5012693 -0.30226243 -71.201195 -31.254562 6.4823861
279900000 -29.736744 -9.9912291 -0.35240427 -81.538551 -13.170442 37.695126 -45.5634 58.72163
-0.35656515 -81.561882 -30.220478 0.52186698 -45.859627 62.27977 -13.241652 -19.717756
-13.177859 37.702396 -45.742363 60.995518 -30.488056 -10.756873 -0.34571084 -80.72377
-45.508698 59.379665 -13.239429 -19.700195 -0.34887636 -80.736183 -30.831894 -0.47521657
313637500 -29.614374 -19.235527 -0.39950231 -91.118988 -12.362422 31.918987 -44.389709 39.632076
-0.40388694 -91.137917 -29.997324 -6.1085453 -44.740719 43.586117 -12.441006 -32.957932
-12.37213 31.926374 -44.602917 42.875622 -30.323633 -19.58931 -0.39296079 -90.203888
-44.402382 39.850983 -12.438563 -32.953373 -0.39480039 -90.21756 -30.553904 -7.3833809
347375000 -29.643291 -28.525291 -0.44493556 -100.65854 -11.711591 26.281363 -43.483276 20.745983
-0.45013338 -100.67905 -29.905722 -12.546582 -43.671741 25.658489 -11.797451 -46.267605
-11.722294 26.284447 -43.651718 24.838568 -30.270926 -28.323538 -0.43911546 -99.645172
-43.523411 21.399532 -11.794415 -46.263618 -0.44003806 -99.660469 -30.427301 -14.163009
381112500 -29.820364 -37.575634 -0.48794022 -110.16188 -11.181628 20.79665 -42.637188 2.4502084
-0.49390724 -110.17934 -29.955072 -18.727036 -42.890934 7.3566465 -11.277379 -59.655277
-11.195592 20.814621 -42.834984 7.5136213 -30.390234 -37.116161 -0.48185915 -109.05457
-42.603168 3.650878 -11.273641 -59.651855 -0.48188335 -109.07057 -30.365049 -20.891447
414850000 -30.147686 -46.608471 -0.52874815 -119.62788 -10.755656 15.490775 -42.010162 -14.730544
-0.53359985 -119.645 -30.13324 -24.909569 -42.257793 -9.4911213 -10.85819 -73.134727
-10.770322 15.49748 -42.206059 -9.0259676 -30.62919 -45.747974 -0.52152956 -118.42495
-42.008808 -14.127437 -10.856414 -73.119972 -0.52127874 -118.44154 -30.390587 -27.145535
448587500 -30.613226 -55.552509 -0.56421936 -129.06815 -10.414534 10.340368 -41.460785 -31.940952
-0.56894845 -129.08452 -30.396765 -30.94647 -41.690674 -25.791525 -10.526185 -86.729935
-10.429168 10.356785 -41.709209 -25.557362 -30.942463 -54.388882 -0.55624413 -127.76852
-41.480667 -31.449675 -10.522927 -86.724907 -0.5573048 -127.78963 -30.51169 -33.604359
482325000 -31.298347 -64.479401 -0.59483027 -138.48404 -10.146393 5.3811183 -41.003532 -49.083344
-0.60126448 -138.50098 -30.763927 -36.685341 -41.275341 -41.967247 -10.267142 -100.46731
-10.15913 5.3830647 -41.284428 -41.805225 -31.377686 -62.739059 -0.58713478 -137.09242
-41.127148 -48.392303 -10.260569 -100.45464 -0.58876961 -137.10913 -30.71277 -40.346153
516062500 -32.097382 -73.357773 -0.62115443 -147.88412 -9.9394083 0.59975421 -40.707466 -65.154655
-0.62866485 -147.90399 -31.254496 -42.102982 -40.834076 -57.178974 -10.068069 -114.35932
-9.9530916 0.59544247 -40.893635 -57.261368 -31.859196 -70.767899 -0.61365515 -146.39845
-40.800056 -64.798729 -10.061055 -114.34565 -0.61500245 -146.41995 -30.967651 -46.907272
549800000 -33.13863 -81.802109 -0.64257681 -157.27827 -9.7846394 -3.9878871 -40.536812 -81.619514
-0.65041238 -157.29483 -31.841541 -46.752502 -40.564587 -72.308235 -9.92243 -128.41223
-9.797739 -3.9946749 -40.670544 -72.471985 -32.483135 -79.127022 -0.63540667 -155.69035
-40.640903 -81.22419 -9.9152422 -128.41655 -0.63739192 -155.71851 -31.376434 -52.958778
583537500 -34.599239 -90.624573 -0.66051018 -166.67055 -9.6767826 -8.3772717 -40.460995 -97.870712
-0.66853827 -166.68304 -32.565063 -51.095436 -40.388256 -87.204597 -9.8225765 -142.68372
-9.6881971 -8.3857117 -40.489513 -87.562309 -33.227055 -87.164124 -0.65293866 -164.98553
-40.566448 -97.506119 -9.8153954 -142.68883 -0.65496129 -165.01511 -31.978273 -59.076321
617275000 -36.159954 -101.38014 -0.67437637 -176.06905 -9.6059942 -12.559142 -40.460777 -113.68345
-0.68150491 -176.0742 -33.400833 -54.429207 -40.247677 -101.28254 -9.7612066 -157.1601
-9.6151171 -12.56411 -40.38295 -102.19171 -34.099186 -94.784805 -0.66645652 -174.27919
-40.588837 -113.37361 -9.7546864 -157.17143 -0.66858917 -174.31708 -32.618664 -64.518784
651012500 -38.641537 -113.49444 -0.68356568 174.53342 -9.5668106 -16.520876 -40.581661 -128.59338
-0.69108939 174.52708 -34.194958 -56.145874 -40.271515 -115.66 -9.7315092 -171.86536
-9.5746078 -16.527281 -40.314964 -116.07526 -35.076488 -103.17111 -0.67526835 176.41077
-40.710423 -128.53696 -9.7256298 -171.88013 -0.67825693 176.37494 -33.33683 -69.293571
684750000 -41.155106 -136.20316 -0.69078475 165.12401 -9.5518284 -20.280426 -40.834293 -143.73132
-0.69696742 165.11803 -34.915169 -56.060375 -40.250187 -129.45251 -9.727457 173.187
-9.5585365 -20.28628 -40.31945 -129.64101 -36.330681 -110.98678 -0.68234223 167.09613
-40.889679 -143.8649 -9.7223167 173.16803 -0.68482304 167.06221 -34.103256 -73.192787
718487500 -42.673771 -161.81528 -0.69431382 155.70183 -9.5543842 -23.829157 -41.191643 -158.59166
-0.70168203 155.69986 -35.543034 -54.487659 -40.365189 -143.17955 -9.7430286 158.0042
-9.5611763 -23.832218 -40.431019 -143.28148 -37.912369 -119.01796 -0.6864922 157.76686
-41.200817 -158.31918 -9.7371283 157.97421 -0.68852717 157.73099 -34.95536 -75.97596
752225000 -43.659874 171.4534 -0.69735712 146.26552 -9.5709562 -27.178095 -41.749352 -172.93289
-0.70471275 146.25757 -35.981037 -52.227093 -40.539074 -156.25925 -9.7704306 142.57878
-9.5773163 -27.180021 -40.659729 -156.38667 -40.192219 -125.20406 -0.68842942 148.42296
-41.693336 -172.30652 -9.7655792 142.55528 -0.69043237 148.39253 -35.767357 -77.221344
785962500 -44.156418 144.26697 -0.69816643 136.81012 -9.5944033 -30.335978 -42.401886 174.18005
-0.7066927 136.80812 -36.223808 -49.60041 -40.771107 -168.99138 -9.8065987 126.93649
-9.6018257 -30.335894 -40.871956 -169.00908 -44.14188 -148.43092 -0.69024301 139.06953
-42.333057 175.11694 -9.8020315 126.89982 -0.69092053 139.03325 -36.451412 -77.183968
819700000 -44.370148 116.84474 -0.70002061 127.34183 -9.6206083 -33.310955 -43.101665 162.59383
-0.70636111 127.34241 -36.270775 -46.720543 -41.151009 178.82785 -9.8432398 111.06799
-9.6268272 -33.317986 -41.244564 178.78247 -45.869587 -175.4351 -0.69078815 129.69194
-43.021191 163.2049 -9.8419285 111.0383 -0.69152254 129.66483 -37.010738 -76.208443
853437500 -44.144363 88.69445 -0.70215517 117.86467 -9.6445112 -36.131805 -43.970234 152.76016
-0.70851153 117.85833 -36.134926 -44.213142 -41.569702 167.80064 -9.881361 95.007568
-9.6514111 -36.1451 -41.6465 167.37836 -47.018059 155.94398 -0.6921441 120.3025
-43.930141 153.68279 -9.8787966 94.996666 -0.69145948 120.27981 -37.43264 -74.328987
887175000 -43.355412 60.896595 -0.7033599 108.37573 -9.6645784 -38.823582 -44.852898 144.80611
-0.70940429 108.36597 -35.845875 -42.051014 -42.021339 157.28479 -9.9130793 78.794334
-9.670311 -38.831585 -42.100895 157.07153 -47.613171 127.45696 -0.69244409 110.90205
-44.753098 145.46085 -9.9105339 78.78875 -0.69310713 110.88576 -37.661106 -71.956924
920912500 -42.373394 35.002769 -0.70497036 98.880013 -9.6764421 -41.416607 -45.616657 139.19612
-0.71284169 98.867889 -35.37653 -40.463013 -42.500946 147.89072 -9.9358368 62.454395
-9.6842928 -41.425686 -42.560989 147.57317 -47.848812 98.394241 -0.69370449 101.4949
-45.468288 139.8241 -9.9323969 62.449738 -0.69519883 101.4796 -37.712627 -69.314285
954650000 -40.406937 10.617186 -0.708345 89.374207 -9.6787252 -43.936954 -46.130207 134.02548
-0.71597236 89.362175 -34.920483 -40.329792 -42.924988 140.02898 -9.9486923 46.023106
-9.6875839 -43.935642 -43.031902 139.68288 -47.745869 70.083405 -0.69743288 92.086479
-45.932514 134.69972 -9.9452333 46.025608 -0.69818735 92.065437 -37.633057 -66.613823
988387500 -38.285465 -3.4298692 -0.7128489 79.870056 -9.672368 -46.392361 -46.350571 130.33894
-0.72123688 79.851204 -34.490528 -41.968906 -43.239494 132.98904 -9.9506979 29.533886
-9.6818581 -46.401138 -43.321735 132.53912 -47.243195 41.400364 -0.70203435 82.673584
-46.259758 131.31601 -9.9476433 29.547155 -0.70193255 82.646461 -37.467388 -63.818439
1022125000 -37.12611 -14.942398 -0.71829194 70.362793 -9.6580811 -48.831188 -46.29195 127.17266
-0.72588521 70.340981 -34.102009 -44.277992 -43.444427 126.6172 -9.9420948 13.02502
-9.6669197 -48.84404 -43.518551 126.30917 -46.340836 12.258227 -0.70669711 73.258865
-46.268608 127.72033 -9.9396114 13.037113 -0.70870388 73.235794 -37.222424 -61.541492
1055862500 -36.441948 -25.247938 -0.72412366 60.860416 -9.6349287 -51.261269 -45.982582 123.92288
-0.73221886 60.840729 -33.880924 -47.02668 -43.425812 120.19905 -9.9257765 -3.4830644
-9.6436167 -51.284046 -43.442806 120.09982 -44.7304 -19.096958 -0.71382689 63.846794
-45.966499 124.02886 -9.9222374 -3.4678597 -0.71411735 63.820126 -36.952526 -60.056652
1089600000 -36.16217 -35.025215 -0.73095524 51.367023 -9.60534 -53.712608 -45.404606 119.81399
-0.73770601 51.340939 -33.809593 -49.934639 -43.367176 114.3047 -9.9007273 -19.971401
-9.6135187 -53.737583 -43.383995 113.96813 -41.372662 -33.396572 -0.72055119 54.438393
-45.376896 119.51501 -9.8988171 -19.941198 -0.72125131 54.413036 -36.684452 -59.036358
1123337500 -36.208992 -44.625301 -0.73743224 41.871487 -9.5723562 -56.186268 -44.692379 114.21877
-0.74545217 41.848988 -33.869339 -53.027714 -43.00248 107.86642 -9.8737659 -36.403496
-9.5813665 -56.21579 -43.039982 107.86921 -40.24744 -44.733822 -0.72810268 45.036732
-44.704819 114.23873 -9.8704586 -36.379093 -0.72864622 45.013893 -36.466877 -58.466911
1157075000 -36.567738 -53.703575 -0.74385929 32.389503 -9.5391674 -58.703228 -43.740177 107.08099
-0.75141335 32.361103 -34.041851 -55.798756 -42.541916 100.84569 -9.8427725 -52.788666
-9.5474119 -58.727161 -42.577831 101.00732 -39.621754 -54.301483 -0.7350682 35.64196
-43.684586 106.89098 -9.8407526 -52.770367 -0.73603505 35.616283 -36.270245 -58.783798
1190812500 -37.374722 -62.850822 -0.75073045 22.91107 -9.5065184 -61.251602 -42.665955 98.441467
-0.75764662 22.878111 -34.273216 -58.643089 -41.962864 93.380608 -9.8139277 -69.116188
-9.514863 -61.281975 -42.019825 93.506454 -39.568073 -64.267265 -0.74216539 26.253918
-42.63158 98.475525 -9.8108263 -69.103851 -0.74185705 26.226271 -36.125557 -59.450424
1224550000 -38.675194 -72.723358 -0.75772882 13.430923 -9.4770184 -63.832516 -41.692692 87.550919
-0.76279241 13.400665 -34.601364 -60.806702 -41.316269 84.606117 -9.7896376 -85.394676
-9.4855471 -63.867912 -41.38681 84.992424 -39.94482 -74.898315 -0.74851942 16.874245
-41.696102 87.58564 -9.7875233 -85.390831 -0.74822247 16.845072 -36.04702 -60.678337
1258287500 -41.096626 -84.343498 -0.76366484 3.9609394 -9.4550695 -66.434845 -40.822865 75.754272
-0.768103 3.9288888 -35.005238 -62.341171 -40.65197 74.675034 -9.7703686 -101.64639
-9.4632053 -66.479881 -40.699402 75.036377 -40.625275 -86.336235 -0.75292242 7.4940639
-40.852722 75.656578 -9.7702618 -101.6402 -0.75383753 7.4702072 -36.034821 -62.581451
1292025000 -43.170551 -112.29253 -0.76796985 -5.5109916 -9.4412575 -69.053879 -40.158588 62.56073
-0.7722773 -5.5366096 -35.526546 -62.851006 -40.050205 64.019241 -9.7608643 -117.86561
-9.4486074 -69.100784 -40.094276 64.325493 -41.710033 -99.719971 -0.75762111 -1.8759917
-40.138927 62.565269 -9.7604427 -117.87144 -0.7589792 -1.9030724 -36.072498 -65.104408
1325762500 -44.320797 -140.66866 -0.77155787 -14.972689 -9.4344015 -71.675301 -39.6493 48.909317
-0.77603602 -15.002719 -36.070316 -62.902115 -39.495598 52.577179 -9.7603207 -134.07901
-9.4422197 -71.714745 -39.532372 52.659927 -43.01276 -115.62354 -0.76088816 -11.243893
-39.604008 49.140419 -9.7598791 -134.09518 -0.761195 -11.275809 -36.146523 -67.656754
1359500000 -45.008923 -169.1393 -0.77331257 -24.440231 -9.4379091 -74.285347 -39.256226 35.225163
-0.7777158 -24.46858 -36.500523 -62.101093 -39.109287 40.811031 -9.7683229 -150.31282
-9.4448938 -74.313965 -39.142307 40.809017 -44.418884 -134.53574 -0.76233691 -20.616198
-39.245308 35.562775 -9.7692709 -150.33762 -0.76353794 -20.648834 -36.351906 -70.529945
1393237500 -45.282974 162.08606 -0.77548134 -33.910862 -9.4497147 -76.858887 -39.030666 21.484276
-0.77918553 -33.938812 -36.782665 -60.401405 -38.724236 28.560915 -9.7857456 -166.57962
-9.4571886 -76.893837 -38.737934 28.523266 -45.513145 -156.36215 -0.76362604 -29.996857
-39.001675 21.801004 -9.7875986 -166.60583 -0.76490694 -30.022352 -36.560276 -72.63826
1426975000 -45.130562 133.7332 -0.77532321 -43.377956 -9.46945 -79.397919 -38.945278 7.8336935
-0.77923208 -43.414341 -36.917442 -58.057304 -38.482147 16.166706 -9.8110733 177.09851
-9.4777937 -79.424973 -38.476337 15.824951 -46.073883 -179.57422 -0.76324326 -39.371635
-38.868652 8.0491915 -9.8118324 177.0771 -0.76432544 -39.403294 -36.756207 -74.933128
1460712500 -44.608341 105.14803 -0.7747919 -52.86483 -9.4954252 -81.882576 -38.958851 -5.7411656
-0.77939785 -52.89468 -36.916187 -55.412868 -38.317562 3.6968694 -9.8436966 160.71774
-9.5035362 -81.904617 -38.323513 3.4965262 -46.275997 156.16235 -0.76268315 -48.757362
-38.904682 -5.6666059 -9.8428698 160.69333 -0.76326442 -48.788727 -36.932022 -76.097038
1494450000 -43.665409 76.658524 -0.77318573 -62.354149 -9.5251989 -84.307899 -39.094681 -19.440144
-0.77813905 -62.384007 -36.761753 -52.730667 -38.207172 -8.9094353 -9.8797941 144.25287
-9.5338993 -84.323036 -38.223282 -9.1783218 -46.074543 132.27611 -0.76123077 -58.14851
-39.067951 -19.311882 -9.879632 144.23503 -0.76268458 -58.185043 -37.00045 -77.116508
1528187500 -42.141102 48.725891 -0.77177107 -71.841484 -9.5582981 -86.664108 -39.366215 -32.505924
-0.77743161 -71.879044 -36.415962 -50.949989 -38.195911 -21.547096 -9.9185724 127.70225
-9.5661621 -86.669968 -38.18734 -21.844696 -45.386761 108.35352 -0.7599631 -67.550446
-39.292671 -32.520615 -9.9176493 127.69189 -0.76093614 -67.582428 -36.872475 -78.045769
1561925000 -39.464615 22.483671 -0.76991594 -81.341492 -9.5906811 -88.951408 -39.767273 -45.172077
-0.77617002 -81.377808 -35.909523 -49.961399 -38.284908 -34.116684 -9.9564323 111.08161
-9.5979013 -88.957191 -38.290726 -34.375916 -44.452389 84.964752 -0.7580592 -76.956123
-39.71265 -45.183163 -9.9555092 111.06653 -0.76008391 -76.985779 -36.641693 -78.374245
1595662500 -37.134407 12.894742 -0.7677452 -90.842766 -9.6187973 -91.178474 -40.318771 -56.492512
-0.77490652 -90.887779 -35.180313 -50.133835 -38.491581 -46.457348 -9.9916449 94.380295
-9.6262884 -91.184807 -38.49036 -46.57795 -43.048592 63.00349 -0.75600475 -86.369629
-40.253731 -56.804363 -9.9904528 94.368767 -0.75868213 -86.398567 -36.319267 -79.013748
1629400000 -35.628693 4.0778461 -0.76708186 -100.35654 -9.6443901 -93.361969 -40.941288 -66.62265
-0.77444905 -100.40345 -34.408817 -51.555874 -38.809883 -58.546642 -10.022463 77.604355
-9.6509352 -93.360001 -38.801727 -58.601391 -41.35297 43.916317 -0.75518644 -95.792664
-40.912834 -67.168228 -10.021832 77.599998 -0.7583375 -95.819946 -35.84885 -79.922798
1663137500 -34.526279 -4.5297441 -0.76738828 -109.87405 -9.6624784 -95.494713 -41.635128 -76.039101
-0.77518135 -109.92583 -33.664925 -54.373806 -39.211124 -69.762962 -10.047261 60.778145
-9.6708012 -95.497696 -39.202942 -69.695549 -39.414288 28.171579 -0.75629312 -105.21831
-41.618378 -76.386169 -10.044377 60.776363 -0.7585755 -105.24367 -35.276981 -81.335716
1696875000 -33.765541 -12.669712 -0.76712883 -119.39568 -9.6734343 -97.599831 -42.212093 -83.91452
-0.77645481 -119.44592 -33.093262 -58.774071 -39.700394 -80.265785 -10.065229 43.919621
-9.6814995 -97.591805 -39.704983 -79.929207 -37.769836 14.960691 -0.75758976 -114.63962
-42.223221 -84.101166 -10.05911 43.908218 -0.75854731 -114.66714 -34.714317 -83.805687
1730612500 -33.276966 -20.880575 -0.76980972 -128.92114 -9.6764908 -99.680809 -42.711044 -90.262253
-0.77807158 -128.96693 -32.675713 -64.191612 -40.23465 -89.399055 -10.072624 27.040768
-9.6844435 -99.684944 -40.262402 -89.183586 -36.535915 3.6231909 -0.75997138 -124.06844
-42.712162 -90.861526 -10.067856 27.021976 -0.76072139 -124.09277 -34.212814 -86.842041
1764350000 -33.092735 -29.125408 -0.77225876 -138.4369 -9.6719904 -101.76611 -43.025589 -95.368027
-0.78046715 -138.48378 -32.432663 -70.801895 -40.653877 -97.64756 -10.071429 10.154269
-9.6800127 -101.77018 -40.703281 -97.503029 -35.644783 -6.9249916 -0.7626639 -133.49364
-43.023788 -96.167854 -10.068227 10.136981 -0.76394415 -133.51881 -33.754547 -91.006729
1798087500 -33.124264 -36.428078 -0.7755338 -147.95691 -9.6601801 -103.86839 -43.160858 -100.26835
-0.78455043 -147.9995 -32.415966 -77.40229 -41.02565 -104.61769 -10.063521 -6.702353
-9.6678667 -103.87665 -41.070541 -104.49537 -35.007103 -17.608471 -0.76542693 -142.91801
