! MARKI MICROWAVE INC.
! Email:             	info@markimicrowave.com   				Phone:   408-778-4200
! Model Number:      	C10-0116						Date:    10/12
! Filename:		C10_0116.S4P						Version: 1.0
! Description:       	4-port S-parameter data for Directional Coupler C10-0116
! Frequency Range: 	10 MHz to 18 GHz		
! Port Configuration:	PORT 1: Input 
!			PORT 2: Output 
!			Port 3: Coupled 	
!			Port 4: Isolated

! S4P File: Measurements: Mag<S11> Ang<S11> Mag<S12> Ang<S12> Mag<S13> Ang<S13> Mag<S14> Ang<S14>! row 1 
!			  Mag<S21> Ang<S21> Mag<S22> Ang<S22> Mag<S23> Ang<S23> Mag<S24> Ang<S24>! row 2 
!			  Mag<S31> Ang<S31> Mag<S32> Ang<S32> Mag<S33> Ang<S33> Mag<S34> Ang<S34>! row 3 
!			  Mag<S41> Ang<S41> Mag<S42> Ang<S42> Mag<S43> Ang<S43> Mag<S44> Ang<S44>! row 4

# Hz S  dB   R 50
10000000 -39.018635 63.139008 -0.047222499 -7.1040258 -40.412327 90.044441 -61.851379 -71.404984
-0.038990628 -7.294405 -40.325142 62.419926 -57.775387 -96.241737 -40.181343 87.114281
-40.820465 96.673546 -60.015839 -132.10526 -42.730801 47.874146 -0.041879952 -7.3914061
-66.270912 -151.7957 -43.577011 63.048717 -0.039832979 -7.2470717 -44.023399 59.30518
32487500 -39.46751 56.584461 -0.047259659 -9.5649033 -38.388836 86.171074 -62.793404 -80.230042
-0.042626631 -9.7259321 -40.500893 58.89584 -59.285614 -103.61129 -38.203831 83.742256
-38.712372 91.387207 -60.985241 -138.26808 -42.640739 45.663448 -0.043950673 -9.8516264
-65.996597 -150.36226 -40.923759 64.536133 -0.041933428 -9.7296295 -43.518539 52.971321
54975000 -39.778843 50.552212 -0.048401725 -12.524314 -36.205971 81.79155 -63.105839 -91.149025
-0.046462361 -12.653164 -40.531273 55.146458 -60.490955 -111.92333 -36.067108 79.881783
-36.449684 85.571899 -61.720188 -144.92609 -42.50975 42.496807 -0.046982501 -12.808632
-65.756233 -149.19986 -38.104721 65.501015 -0.045069207 -12.719904 -43.002159 46.618359
77462500 -40.017738 43.200298 -0.050490342 -15.981605 -33.884804 76.952774 -63.247032 -103.59295
-0.05102808 -16.079796 -40.542358 51.149635 -61.734566 -120.48686 -33.787914 75.543518
-34.053364 79.273293 -62.113949 -151.72388 -42.300095 38.925694 -0.05036309 -16.268492
-65.60434 -146.11922 -35.140408 65.941124 -0.047977563 -16.210436 -42.472889 39.545868
99950000 -40.211597 36.337284 -0.052666161 -19.934423 -31.449572 71.62632 -63.616001 -120.43144
-0.056357671 -19.998114 -40.395447 46.633293 -62.937626 -131.24611 -31.394962 70.694641
-31.532949 72.453796 -62.700344 -161.16107 -41.929043 34.256264 -0.054990713 -20.229578
-65.065758 -147.46211 -32.063496 65.887856 -0.051989108 -20.197355 -41.847294 32.699585
122437500 -40.25164 28.589449 -0.056291461 -24.383492 -28.906349 65.786636 -63.733788 -135.60989
-0.06195448 -24.418167 -40.233223 42.373405 -63.860329 -143.63028 -28.901012 65.323265
-28.911577 65.132065 -63.072594 -171.95761 -41.458488 28.876572 -0.060057729 -24.694624
-64.564804 -148.05626 -28.881523 65.33786 -0.057297677 -24.686033 -41.259968 25.561697
144925000 -38.402931 33.499775 -0.06330815 -28.853004 -27.015841 60.971291 -63.03117 -152.03685
-0.067866772 -28.885386 -38.470875 35.550571 -63.926678 -159.48227 -27.017473 60.850956
-26.978853 60.784382 -62.264549 -166.13243 -40.533279 25.704973 -0.06742882 -29.204082
-63.385139 -158.10799 -26.993456 60.678848 -0.06371399 -29.197451 -40.764301 25.246283
167412500 -37.709892 29.962292 -0.069330379 -33.327988 -25.541807 56.524094 -62.306015 -158.52258
-0.07446745 -33.365341 -37.769783 33.225967 -62.803215 -164.30164 -25.549698 56.438923
-25.519575 56.372334 -61.698879 -172.27676 -39.6548 21.655365 -0.074394107 -33.715229
-63.070705 -158.28841 -25.519289 56.282593 -0.07018929 -33.712364 -39.979046 24.816408
189900000 -36.645626 27.847391 -0.075749151 -37.801163 -24.333609 52.006111 -60.618706 -168.43005
-0.081055202 -37.831177 -36.859657 30.130663 -62.098995 -170.435 -24.337654 51.970425
-24.304962 51.865078 -60.738255 -175.20354 -39.101608 16.521875 -0.081510462 -38.232315
-61.468216 -169.86412 -24.317181 51.803177 -0.076213665 -38.221775 -39.558514 22.217274
212387500 -35.970284 23.804558 -0.082839064 -42.268448 -23.297842 47.517441 -59.639641 -177.34294
-0.088021271 -42.300243 -36.254925 27.231552 -60.635086 -176.45703 -23.304438 47.49448
-23.270607 47.409115 -59.684437 176.86656 -38.61261 12.832954 -0.089600705 -42.741924
-60.757919 -178.34096 -23.279591 47.369362 -0.083662041 -42.727596 -39.098148 18.1947
234875000 -35.254753 20.781788 -0.089934446 -46.727974 -22.39176 43.056683 -58.377686 172.841
-0.095723048 -46.766445 -35.562603 24.489502 -59.335442 176.24634 -22.396774 43.042233
-22.370106 42.890762 -58.42181 170.815 -38.147709 9.1409721 -0.096874602 -47.250935
-60.165985 174.60051 -22.36282 42.867863 -0.091631718 -47.232574 -38.728104 14.358197
257362500 -34.685631 17.026373 -0.098153859 -51.189987 -21.584196 38.607292 -57.688488 163.66469
-0.10396073 -51.231274 -34.95079 21.366215 -58.310749 169.29298 -21.588392 38.574001
-21.56447 38.412807 -57.512424 163.73232 -37.623348 5.966011 -0.10393959 -51.753292
-59.21418 166.37735 -21.555271 38.3559 -0.099355035 -51.732704 -38.183178 10.859955
279850000 -34.123249 14.217908 -0.1070113 -55.647854 -20.859884 34.120201 -56.974792 153.49268
-0.11206565 -55.682655 -34.344376 17.843235 -57.381702 160.87766 -20.866417 34.058937
-20.837254 33.909733 -56.881603 156.34416 -37.081852 2.6783717 -0.11201108 -56.254841
-57.921055 156.24123 -20.832785 33.879421 -0.10813274 -56.23275 -37.652546 8.469326
302337500 -33.620571 10.46845 -0.11531792 -60.104546 -20.198051 29.634634 -56.101379 148.88963
-0.1201208 -60.142139 -33.923965 14.414814 -56.541122 153.97 -20.206898 29.572008
-20.182068 29.440647 -56.224258 150.23865 -36.703011 -0.43595323 -0.12031172 -60.75
-57.245586 149.74352 -20.173443 29.416676 -0.11639257 -60.727882 -37.208328 6.0393925
324825000 -33.255608 7.2607226 -0.12385791 -64.55175 -19.596275 25.148331 -55.347286 141.32994
-0.12964481 -64.588768 -33.522087 10.797626 -55.799198 147.91695 -19.600203 25.099028
-19.580492 24.978088 -55.636753 145.42909 -36.339485 -2.9769619 -0.12952898 -65.240105
-56.34277 141.94498 -19.571136 24.951195 -0.12516868 -65.225273 -36.691921 3.3399587
347312500 -32.941013 3.8662534 -0.13295509 -68.99794 -19.044012 20.664766 -54.87009 134.85335
-0.13838589 -69.033348 -33.231533 7.1712446 -54.888062 139.4467 -19.046261 20.625605
-19.028887 20.50716 -55.067554 139.34422 -35.854698 -5.1751542 -0.13867556 -69.734756
-55.623184 135.6055 -19.018772 20.476288 -0.13424936 -69.714905 -36.212574 0.61880291
369800000 -32.66153 0.11265361 -0.14333901 -73.447685 -18.535177 16.179453 -54.414169 129.10048
-0.14709447 -73.465302 -32.802448 3.7416716 -54.001907 130.95792 -18.537312 16.197016
-18.515228 16.037304 -54.264111 130.42451 -35.464016 -8.27458 -0.14668345 -74.222084
-54.659908 126.20046 -18.510223 16.005997 -0.14447001 -74.206001 -35.719685 -2.4550304
392287500 -32.372871 -3.1044912 -0.15366475 -77.883461 -18.062197 11.710865 -53.819988 124.56899
-0.15657301 -77.913025 -32.482349 -0.38229358 -53.600273 120.70749 -18.060789 11.756543
-18.043175 11.576245 -53.509155 121.35054 -34.825394 -10.632051 -0.15588532 -78.698776
-53.993549 120.25682 -18.034937 11.547371 -0.15473787 -78.688881 -35.223434 -4.6348548
414775000 -32.114227 -6.5150757 -0.16330031 -82.322197 -17.618805 7.2503166 -53.25108 116.56396
-0.16683418 -82.350616 -32.233242 -4.0451374 -53.111702 111.41447 -17.618031 7.2927504
-17.603107 7.1429272 -53.033287 112.14868 -34.430424 -14.413615 -0.16386582 -83.178047
-53.268608 113.15569 -17.596893 7.0993328 -0.16467784 -83.174011 -34.742702 -6.2578726
437262500 -31.955322 -9.971446 -0.17422551 -86.758141 -17.206049 2.7990358 -52.854347 107.94629
-0.17668173 -86.777176 -32.073952 -8.2361794 -52.946793 102.47102 -17.205336 2.8272867
-17.189791 2.6983631 -53.024902 102.98608 -34.132275 -18.482521 -0.1740025 -87.647087
-52.673176 105.8698 -17.188057 2.6449602 -0.17445602 -87.655167 -34.484055 -8.1004095
459750000 -31.821913 -13.755028 -0.18396823 -91.187157 -16.820814 -1.6309373 -52.579063 100.47247
-0.1864661 -91.20005 -31.980246 -11.860913 -52.890919 95.573715 -16.820898 -1.6420043
-16.805679 -1.748687 -52.928356 96.268898 -33.938301 -22.17634 -0.18418536 -92.120918
-52.312218 99.552284 -16.802856 -1.7666855 -0.18372664 -92.120888 -34.432987 -10.691403
482237500 -31.718077 -17.676785 -0.1932767 -95.608826 -16.459118 -6.0735965 -52.264442 94.116257
-0.19678831 -95.627739 -31.820873 -15.366621 -52.523174 88.15686 -16.462299 -6.0777111
-16.446484 -6.1886811 -52.700874 88.069611 -33.820808 -26.150021 -0.19512101 -96.588936
-52.014576 91.952858 -16.445446 -6.1841974 -0.19322807 -96.586327 -34.347717 -14.382447
504725000 -31.600798 -21.335455 -0.20345457 -100.02489 -16.119902 -10.524133 -51.82988 86.037979
-0.20668438 -100.04816 -31.693226 -18.920292 -52.229179 81.165771 -16.125597 -10.513747
-16.108574 -10.623504 -52.314423 81.660095 -33.711834 -29.475302 -0.20583044 -101.05943
-51.554897 84.953346 -16.10671 -10.616014 -0.20364419 -101.05928 -34.188091 -18.777241
527212500 -31.473623 -25.420815 -0.21353795 -104.44627 -15.803782 -14.96231 -51.452435 78.307632
-0.2164886 -104.4702 -31.565931 -22.775608 -51.962769 73.712746 -15.808083 -14.926726
-15.79055 -15.05959 -51.932304 74.397491 -33.674103 -32.987068 -0.21574555 -105.52383
-51.178394 77.343925 -15.790371 -15.028472 -0.21408258 -105.52401 -34.042725 -22.80876
549700000 -31.377247 -29.107296 -0.22401097 -108.8674 -15.50743 -19.382984 -50.867188 71.1092
-0.22766978 -108.88932 -31.470615 -26.344944 -51.576904 66.990143 -15.511695 -19.378353
-15.494358 -19.486908 -51.790283 66.800385 -33.603127 -36.50264 -0.22537525 -109.98949
-50.747486 69.758842 -15.490079 -19.444885 -0.22537708 -109.98644 -33.876041 -26.812258
572187500 -31.375303 -32.930817 -0.23555133 -113.28228 -15.225732 -23.80612 -50.781773 63.139996
-0.23714457 -113.30623 -31.41003 -30.303993 -51.391186 59.86816 -15.228474 -23.822475
-15.214799 -23.908998 -51.378868 59.966301 -33.576679 -39.670372 -0.23681697 -114.45131
-50.611774 62.59803 -15.211152 -23.865372 -0.23573507 -114.43745 -33.82917 -30.36809
594675000 -31.416933 -36.730232 -0.2462776 -117.68887 -14.959611 -28.221224 -50.642975 56.057453
-0.24807733 -117.71023 -31.45118 -33.928085 -51.137955 53.654495 -14.964716 -28.270092
-14.950387 -28.322309 -51.246994 53.189178 -33.569038 -43.23531 -0.24709634 -118.90861
-50.355938 55.179981 -14.949039 -28.284838 -0.24616942 -118.8845 -33.781406 -33.882198
617162500 -31.491024 -41.031483 -0.25728521 -122.09317 -14.711502 -32.639698 -50.526718 48.279926
-0.25824031 -122.11004 -31.438822 -37.188263 -50.813694 46.791195 -14.718415 -32.692188
-14.701368 -32.747765 -50.994587 46.76498 -33.504917 -46.64003 -0.25864977 -123.35984
-50.32159 47.723122 -14.698198 -32.711773 -0.25645524 -123.33714 -33.826332 -37.797794
639650000 -31.540636 -45.032848 -0.2680364 -126.49432 -14.4767 -37.054096 -50.141167 41.286198
-0.26866534 -126.52323 -31.443562 -40.497066 -50.617474 41.170589 -14.483246 -37.131424
-14.466981 -37.189632 -50.716236 40.360779 -33.504955 -49.818821 -0.26974267 -127.80569
-49.957355 41.072777 -14.461779 -37.140873 -0.26693135 -127.7821 -33.705074 -41.547104
662137500 -31.599596 -48.737148 -0.27780372 -130.89586 -14.255034 -41.483295 -49.766891 33.552128
-0.27727526 -130.92459 -31.507816 -44.191277 -50.28022 32.951679 -14.261113 -41.548702
-14.243531 -41.610355 -50.282673 32.085251 -33.456924 -53.673912 -0.28092456 -132.25346
-49.599491 33.584549 -14.238401 -41.572315 -0.2776196 -132.22986 -33.577667 -45.740696
684625000 -31.749657 -52.728245 -0.28774899 -135.29858 -14.046191 -45.890209 -49.639072 26.02886
-0.28716108 -135.32121 -31.663841 -47.457848 -50.169819 25.852947 -14.049994 -45.964607
-14.031532 -46.020615 -50.134884 25.563354 -33.464909 -57.168705 -0.2909492 -136.70117
-49.496918 26.074554 -14.029529 -45.992527 -0.28890562 -136.67343 -33.499081 -49.429634
707112500 -31.906301 -56.570457 -0.29847994 -139.69881 -13.849735 -50.295979 -49.566936 19.064314
-0.29750079 -139.72061 -31.795332 -50.789204 -49.884552 19.264284 -13.852224 -50.384865
-13.832422 -50.440037 -49.938137 18.037195 -33.434303 -60.390949 -0.3007485 -141.13135
-49.310173 19.104267 -13.834784 -50.415527 -0.29997036 -141.11327 -33.501896 -52.795429
729600000 -32.114891 -60.598431 -0.30871692 -144.09047 -13.660624 -54.700943 -49.398582 11.660616
-0.30696473 -144.1216 -31.989214 -54.528229 -49.864086 12.376365 -13.664688 -54.812107
-13.643361 -54.851902 -49.885124 10.88282 -33.418972 -63.728554 -0.31100276 -145.57129
-49.121143 12.078831 -13.647528 -54.832909 -0.30987716 -145.54613 -33.505333 -56.659687
752087500 -32.299191 -64.486679 -0.31848788 -148.47775 -13.481912 -59.114296 -49.219757 5.7820892
-0.31659123 -148.51729 -32.195004 -58.139862 -49.688221 4.9394364 -13.486479 -59.214516
-13.463406 -59.262573 -49.649811 3.899087 -33.372715 -67.147644 -0.32149357 -150.00438
-48.916306 5.5021791 -13.471384 -59.245022 -0.31917512 -149.97656 -33.452652 -60.308235
774575000 -32.519623 -68.355171 -0.32617241 -152.86427 -13.313831 -63.513096 -48.838806 -1.3176683
-0.32774255 -152.90169 -32.433651 -61.694237 -49.408043 -2.1878741 -13.320145 -63.636375
-13.297831 -63.670193 -49.439724 -2.835537 -33.310184 -70.714256 -0.33152026 -154.43781
-48.639141 -1.7069314 -13.30237 -63.664017 -0.32815993 -154.41286 -33.391312 -64.185089
797062500 -32.733383 -71.753693 -0.33469173 -157.26053 -13.15643 -67.926865 -48.429794 -8.7499437
-0.33724064 -157.28923 -32.691456 -65.797546 -49.144577 -9.4009609 -13.160753 -68.028069
-13.13998 -68.078491 -49.222137 -9.9170628 -33.269833 -73.605629 -0.34108615 -158.87024
-48.405006 -8.5527878 -13.142735 -68.081696 -0.33811817 -158.8499 -33.305351 -68.44339
819550000 -32.984009 -74.812347 -0.34344938 -161.64522 -13.006151 -72.318687 -48.292 -14.593638
-0.34629148 -161.67783 -33.006935 -69.402458 -49.086353 -16.682186 -13.010388 -72.440323
-12.990568 -72.471306 -49.092323 -17.102236 -33.216995 -76.930313 -0.35051572 -163.29836
-48.085213 -14.602244 -12.992193 -72.49382 -0.34814823 -163.27425 -33.262283 -71.811829
842037500 -33.276325 -78.173531 -0.35204986 -166.03503 -12.86306 -76.720993 -48.084202 -21.950706
-0.35512903 -166.04721 -33.291668 -72.838829 -48.906258 -23.828306 -12.869077 -76.832077
-12.850393 -76.852249 -48.802246 -24.058794 -33.190342 -80.249313 -0.36013922 -167.73332
-47.820255 -21.950209 -12.850622 -76.903152 -0.35762349 -167.69931 -33.30365 -75.956871
864525000 -33.593124 -81.739555 -0.36158961 -170.41238 -12.729058 -81.11747 -47.794659 -27.972023
-0.3663142 -170.43269 -33.558464 -76.557831 -48.790249 -29.879889 -12.734337 -81.224915
-12.718507 -81.24881 -48.677887 -29.783484 -33.206043 -82.762062 -0.36942357 -172.15863
-47.604599 -28.276945 -12.717476 -81.30114 -0.36684233 -172.12932 -33.292492 -79.769119
887012500 -33.910591 -84.59938 -0.37090379 -174.79434 -12.603923 -85.513359 -47.650772 -33.612549
-0.37534419 -174.81049 -33.847233 -80.12915 -48.599499 -35.904305 -12.607659 -85.615341
-12.594259 -85.642334 -48.372677 -36.131527 -33.176506 -85.645691 -0.37784475 -176.5802
-47.441177 -34.640617 -12.591574 -85.703041 -0.37584102 -176.54895 -33.282146 -83.586823
909500000 -34.223873 -87.995605 -0.37913474 -179.17247 -12.48375 -89.916962 -47.438648 -39.99939
-0.38427001 -179.18588 -34.189594 -82.913574 -48.398312 -42.912327 -12.487223 -90.018188
-12.476637 -90.03186 -48.159225 -42.767265 -33.188366 -89.104492 -0.38533127 178.98656
-47.161579 -41.395641 -12.472145 -90.097313 -0.38427645 179.02762 -33.241684 -87.418625
931987500 -34.555874 -90.384575 -0.38780424 176.44231 -12.372766 -94.293907 -47.281876 -46.182415
-0.39271048 176.45004 -34.485569 -86.483742 -48.081818 -49.482533 -12.374203 -94.409698
-12.367787 -94.427055 -47.930443 -50.297798 -33.234825 -91.981865 -0.39360377 174.56561
-46.98864 -47.541096 -12.361929 -94.511429 -0.39286277 174.61488 -33.247478 -90.973259
954475000 -35.008205 -92.689278 -0.39578202 172.06868 -12.266881 -98.678825 -47.295246 -53.154854
-0.40061539 172.08888 -34.901005 -89.626755 -47.786896 -56.454288 -12.269346 -98.799522
-12.262995 -98.808388 -47.695381 -56.494202 -33.264889 -95.196701 -0.40199965 170.15195
-46.872559 -54.55769 -12.256269 -98.903915 -0.40096211 170.20021 -33.355389 -94.897629
976962500 -35.424831 -95.095413 -0.40432924 167.69798 -12.168232 -103.06799 -47.094185 -58.844585
-0.40863422 167.72061 -35.428558 -91.995598 -47.759941 -63.065056 -12.171479 -103.18451
-12.164002 -103.19222 -47.735695 -63.951828 -33.36412 -98.213646 -0.41026452 165.73833
-46.762466 -60.147232 -12.158439 -103.29053 -0.40911075 165.78938 -33.417618 -98.493324
999450000 -35.91732 -98.444435 -0.41275313 163.33408 -12.074226 -107.44656 -46.963547 -65.359474
-0.41536245 163.34839 -35.857273 -94.067688 -47.755054 -69.53743 -12.079755 -107.57734
-12.0712 -107.57603 -47.647572 -70.100433 -33.444736 -101.0022 -0.41858801 161.32869
-46.635487 -66.397827 -12.067007 -107.67432 -0.41698581 161.37332 -33.511108 -102.25175
1021937500 -36.330288 -101.16839 -0.41950202 158.96425 -11.98692 -111.84047 -46.698448 -71.570351
-0.42342538 158.97737 -36.304424 -97.461571 -47.483559 -75.386124 -11.993237 -111.96083
-11.984241 -111.9602 -47.444252 -75.772629 -33.495636 -103.75339 -0.42634654 156.92308
-46.503605 -72.062439 -11.980286 -112.05753 -0.42362469 156.96339 -33.519497 -106.425
1044425000 -36.862064 -103.43634 -0.42593968 154.59444 -11.906432 -116.22733 -46.556828 -77.421532
-0.42932791 154.60612 -36.866676 -99.895508 -47.246262 -81.790436 -11.911486 -116.3495
-11.902262 -116.33506 -47.292572 -81.818375 -33.603577 -107.14043 -0.43328854 152.5242
-46.321625 -78.267761 -11.898525 -116.43359 -0.42970529 152.55064 -33.562366 -110.4251
1066912500 -37.44194 -104.49763 -0.43271551 150.22578 -11.831204 -120.61669 -46.49205 -84.39093
-0.43575352 150.24208 -37.446373 -101.40793 -47.156528 -88.743263 -11.836829 -120.73315
-11.825 -120.71661 -47.217056 -88.390816 -33.702679 -110.65228 -0.43915808 148.11943
-46.266476 -84.928963 -11.823084 -120.81133 -0.43720597 148.14499 -33.670654 -114.17551
1089400000 -37.968197 -105.51262 -0.43891898 145.86409 -11.759304 -124.99969 -46.278194 -90.527405
-0.4424997 145.86905 -38.1609 -104.05926 -46.962551 -95.595093 -11.766504 -125.11866
-11.753383 -125.09936 -47.121151 -95.065178 -33.817871 -114.02238 -0.44605047 143.71306
-46.06448 -90.40358 -11.751829 -125.19447 -0.44395944 143.73669 -33.808884 -118.10956
1111887500 -38.541393 -107.26185 -0.44537181 141.4971 -11.694992 -129.36436 -46.038452 -96.675552
-0.44872555 141.50266 -38.827778 -106.83445 -46.869473 -102.84544 -11.701387 -129.49815
-11.687222 -129.48241 -46.949497 -101.75063 -33.96809 -117.02916 -0.45370802 139.31282
-46.01207 -96.295975 -11.685023 -129.58105 -0.4511553 139.34244 -34.03455 -122.27864
1134375000 -39.322838 -108.90926 -0.4503997 137.13565 -11.633766 -133.74214 -45.880856 -102.51881
-0.45555589 137.13319 -39.573074 -108.21534 -46.753372 -108.95566 -11.64133 -133.87193
-11.625401 -133.86386 -46.835964 -107.63024 -34.055798 -120.3466 -0.45983875 134.90828
-45.896656 -102.58051 -11.621937 -133.95808 -0.45714247 134.93137 -34.222824 -126.74946
1156862500 -40.08017 -110.21086 -0.4559207 132.76898 -11.577794 -138.11296 -45.660099 -109.25279
-0.46208158 132.76421 -40.25219 -110.35922 -46.64896 -114.54842 -11.584202 -138.26035
-11.569485 -138.24689 -46.682335 -113.34411 -34.203506 -123.07403 -0.46519008 130.50464
-45.681332 -108.99264 -11.564857 -138.34413 -0.4631969 130.52693 -34.418037 -131.25336
1179350000 -40.711052 -109.93717 -0.46074745 128.41202 -11.525022 -142.48155 -45.48951 -115.84824
-0.46725541 128.39706 -40.939201 -110.04053 -46.548065 -120.43504 -11.53148 -142.63664
-11.515944 -142.63231 -46.509422 -118.81982 -34.348686 -126.11513 -0.47053558 126.09682
-45.485477 -115.60826 -11.511445 -142.72542 -0.4690541 126.12409 -34.647678 -135.95052
1201837500 -41.436359 -109.46353 -0.46462098 124.04922 -11.479256 -146.86688 -45.354877 -121.95406
-0.47441897 124.04065 -41.727043 -111.22691 -46.299572 -126.49444 -11.482758 -147.01454
