! MARKI MICROWAVE INC.
! Email:             	info@markimicrowave.com   				Phone:   408-778-4200
! Model Number:      	C10-0450						Date:    11/12
! Filename:		C10_0450.S4P						Version: 1.0
! Description:       	4-port S-parameter data for Directional Coupler C10-0450 
! Frequency Range: 	10 MHz to 60 GHz		
! Port Configuration:	PORT 1: Input
!			PORT 2: Output 
!			Port 3: Coupled 
!			Port 4: Isolated
!
!
! S4P File: Measurements: Mag<S11> Ang<S11> Mag<S12> Ang<S12> Mag<S13> Ang<S13> Mag<S14> Ang<S14>! row 1 
!			  Mag<S21> Ang<S21> Mag<S22> Ang<S22> Mag<S23> Ang<S23> Mag<S24> Ang<S24>! row 2 
!			  Mag<S31> Ang<S31> Mag<S32> Ang<S32> Mag<S33> Ang<S33> Mag<S34> Ang<S34>! row 3 
!			  Mag<S41> Ang<S41> Mag<S42> Ang<S42> Mag<S43> Ang<S43> Mag<S44> Ang<S44>! row 4

# GHz S DB R 50
0.01	-41.435	-54.0414	-0.017579	-1.05264	-58.2915	17.1422	-58.1014	4.01383
	-0.0317909	-0.888008	-48.3316	-99.6491	-70.8355	-30.632	-54.9619	40.483
	-56.0401	169.921	-62.0475	116.555	-61.6695	-3.90751	0.0039239	-0.958558
	-61.5294	-68.2425	-54.0743	97.8127	-0.000298074	-0.859193	-52.1445	-9.61621
0.085	-39.8011	18.8273	-0.0215598	-6.52255	-44.6783	58.3174	-65.5351	-65.2842
	-0.0285311	-6.48016	-41.8783	1.22815	-69.0644	-85.5546	-43.5068	66.4045
	-43.9861	110.76	-66.8518	-158.625	-45.7938	18.9234	-0.00665812	-6.47673
	-65.9433	-90.3578	-43.223	86.08	-0.0102608	-6.44775	-42.4913	16.5265
0.16	-37.083	33.2839	-0.0292954	-12.1157	-39.016	62.133	-63.9639	-95.552
	-0.0355734	-12.1035	-37.9628	18.3062	-66.1824	-103.88	-38.3042	67.2186
	-38.5925	94.4228	-64.4133	-143.66	-41.6184	20.7763	-0.0148305	-12.0873
	-64.6168	-106.264	-38.1472	79.2398	-0.0189203	-12.0773	-39.5128	19.115
0.235	-35.2859	37.4087	-0.0383689	-17.7263	-35.4916	60.7765	-62.2192	-110.149
	-0.0442223	-17.7233	-35.5879	23.2682	-63.746	-115.358	-34.98	64.4712
	-35.1883	84.0453	-62.4922	-144.144	-39.2928	22.4659	-0.0235825	-17.7095
	-62.71	-117.485	-34.8699	73.1176	-0.0274732	-17.7058	-37.7529	20.6468
0.31	-34.0053	38.4505	-0.0474186	-23.3358	-32.9522	57.5903	-60.5977	-122.037
	-0.0529021	-23.339	-33.9083	23.6778	-61.7756	-125.78	-32.5517	60.4933
	-32.7151	75.7642	-60.7909	-148.345	-37.6229	23.1891	-0.0321149	-23.3293
	-60.9973	-127.717	-32.4669	67.237	-0.0358143	-23.3298	-36.4187	21.0268
0.385	-32.7705	45.1803	-0.0555189	-28.9327	-29.5303	58.0133	-59.8117	-138.549
	-0.0601309	-28.9514	-31.9313	32.0546	-59.9293	-140.078	-29.4172	58.8642
	-29.5352	62.8375	-59.593	-145.462	-34.8315	25.2361	-0.0402248	-28.9392
	-59.8634	-138.948	-29.418	60.6395	-0.043753	-28.949	-34.4568	22.9747
0.46	-31.5232	46.8151	-0.0635239	-34.5376	-27.0117	54.9155	-58.1599	-152.016
	-0.067873	-34.5635	-30.249	32.9253	-58.0152	-150.877	-27.005	55.0136
	-27.018	54.91	-57.9574	-150.132	-33.1371	24.8526	-0.047955	-34.5553
	-58.177	-150.22	-27.0128	54.9436	-0.0512739	-34.5705	-33.1027	22.3767
0.535	-30.5537	44.1147	-0.0716259	-40.1498	-25.3527	49.3895	-56.3427	-160.487
	-0.0761643	-40.1742	-29.1409	27.7401	-56.2926	-159.267	-25.3459	49.4603
	-25.3546	49.3904	-56.1698	-159.545	-32.3775	23.1578	-0.0554054	-40.1763
	-56.3798	-159.538	-25.3487	49.426	-0.0584756	-40.1912	-32.3694	20.162
0.61	-29.8756	41.6213	-0.079736	-45.7558	-24.0317	43.8404	-54.8858	-168.978
	-0.084043	-45.7787	-28.3319	22.3079	-54.7655	-167.928	-24.0252	43.8974
	-24.0352	43.833	-54.7156	-168.231	-31.7168	21.6065	-0.0628902	-45.7918
	-54.9282	-168.53	-24.0286	43.8834	-0.0656291	-45.8056	-31.75	18.0795
0.685	-29.4084	39.2589	-0.0874938	-51.3568	-22.9231	38.2828	-53.6335	-177.873
	-0.0916283	-51.3782	-27.735	16.8269	-53.4596	-176.88	-22.9171	38.3423
	-22.9271	38.2773	-53.4506	-177.321	-31.0898	19.7581	-0.0702144	-51.4025
	-53.6609	-177.717	-22.9205	38.3261	-0.0726397	-51.4155	-31.1728	15.6819
0.76	-29.0969	37.1647	-0.0947967	-56.9559	-21.9644	32.7157	-52.5394	172.907
	-0.0989003	-56.9756	-27.3111	11.2679	-52.3334	173.705	-21.9572	32.7837
	-21.9684	32.7154	-52.3253	173.212	-30.524	17.2574	-0.0772083	-57.0118
	-52.5563	172.934	-21.9612	32.7615	-0.0793565	-57.0231	-30.6607	12.6482
0.835	-28.9093	35.3106	-0.102017	-62.5514	-21.119	27.1588	-51.5561	163.514
	-0.105769	-62.5699	-27.0276	5.64351	-51.3395	164.011	-21.1116	27.2253
	-21.1221	27.1553	-51.311	163.772	-30.0459	14.0446	-0.0840066	-62.6179
	-51.559	163.425	-21.1149	27.2033	-0.0860112	-62.6276	-30.245	8.93627
0.91	-28.8044	33.8092	-0.108629	-68.1428	-20.3624	21.599	-50.6392	153.765
	-0.112234	-68.1612	-26.8722	-0.166455	-50.4078	154.319	-20.3543	21.6707
	-20.365	21.5947	-50.3617	154.322	-29.6633	10.231	-0.0905383	-68.2211
	-50.6508	153.797	-20.3579	21.6498	-0.0922818	-68.2291	-29.9317	4.64808
0.985	-28.76	32.5485	-0.115239	-73.7315	-19.6788	16.0409	-49.8157	143.984
	-0.118561	-73.7489	-26.8293	-6.12474	-49.5303	144.682	-19.671	16.1167
	-19.6815	16.0363	-49.4818	144.574	-29.38	5.96479	-0.0970747	-73.8205
	-49.809	144.076	-19.6737	16.099	-0.098372	-73.8279	-29.7202	-0.0860798
1.06	-28.7773	31.7678	-0.129109	-79.3157	-19.0652	10.423	-49.0682	134.034
	-0.13227	-79.3307	-26.9308	-12.1432	-48.7398	134.634	-19.0567	10.4998
	-19.0673	10.4197	-48.6995	134.61	-29.2036	1.36043	-0.11089	-79.4156
	-49.0585	134.139	-19.0595	10.4859	-0.111895	-79.4199	-29.6213	-5.16104
1.135	-28.8248	31.3217	-0.142506	-84.8971	-18.5031	4.81437	-48.3733	123.974
	-0.145729	-84.9102	-27.146	-18.3547	-48.0021	124.574	-18.4948	4.89419
	-18.5049	4.81337	-47.9736	124.62	-29.126	-3.6319	-0.12461	-85.0081
	-48.3684	124.184	-18.4967	4.88256	-0.125227	-85.0104	-29.6193	-10.6284
1.21	-28.8761	31.0561	-0.155903	-90.4733	-17.9857	-0.77913	-47.7397	113.906
	-0.158599	-90.4869	-27.4584	-24.7963	-47.3205	114.472	-17.9775	-0.69512
	-17.9874	-0.778843	-47.293	114.543	-29.1407	-8.97506	-0.137967	-90.5933
	-47.723	114.06	-17.9788	-0.703089	-0.13825	-90.5954	-29.7093	-16.459
1.285	-28.9283	31.0655	-0.168799	-96.046	-17.5072	-6.36199	-47.1541	103.723
	-0.171207	-96.0587	-27.9001	-31.4063	-46.6901	104.346	-17.4989	-6.27496
	-17.5087	-6.35865	-46.6579	104.393	-29.2459	-14.6507	-0.150943	-96.1749
	-47.1256	103.881	-17.5	-6.27867	-0.151007	-96.1763	-29.8861	-22.6663
1.36	-28.9838	31.3295	-0.18143	-101.617	-17.0633	-11.9362	-46.6084	93.5275
	-0.183476	-101.629	-28.4539	-38.305	-46.106	94.1833	-17.0548	-11.8473
	-17.0646	-11.9302	-46.0697	94.1669	-29.4396	-20.7633	-0.163639	-101.755
	-46.5822	93.6444	-17.0557	-11.8453	-0.163587	-101.755	-30.1457	-29.3367
1.435	-29.0326	31.6894	-0.193898	-107.183	-16.6502	-17.4996	-46.0993	83.2972
	-0.19538	-107.195	-29.1235	-45.6343	-45.5626	83.9778	-16.6417	-17.4087
	-16.651	-17.493	-45.5232	83.9555	-29.7175	-27.4026	-0.176138	-107.33
	-46.08	83.3671	-16.6421	-17.4014	-0.175915	-107.33	-30.4766	-36.5604
1.51	-29.0699	32.1145	-0.205816	-112.742	-16.2644	-23.054	-45.6309	73.0178
	-0.207024	-112.758	-29.9145	-53.5457	-45.0523	73.7164	-16.256	-22.9612
	-16.2649	-23.0474	-45.0208	73.7306	-30.0693	-34.6507	-0.188279	-112.898
	-45.6182	73.0736	-16.2561	-22.9502	-0.18789	-112.901	-30.8632	-44.4224
1.585	-29.094	32.5055	-0.217312	-118.299	-15.9033	-28.6019	-45.2093	62.7269
	-0.21844	-118.316	-30.8131	-62.2021	-44.5782	63.4274	-15.8948	-28.5061
	-15.9038	-28.5956	-44.557	63.4579	-30.4788	-42.6244	-0.200082	-118.462
	-45.1962	62.7516	-15.8949	-28.4938	-0.199519	-118.468	-31.2812	-53.0143
1.66	-29.1039	32.672	-0.228589	-123.853	-15.5646	-34.1447	-44.8345	52.4422
	-0.22949	-123.871	-31.7788	-71.8328	-44.1466	53.1247	-15.5562	-34.0452
	-15.5653	-34.1378	-44.1275	53.1895	-30.9164	-51.4939	-0.211546	-124.022
	-44.8131	52.4418	-15.5561	-34.0319	-0.210884	-124.03	-31.6916	-62.421
1.735	-29.109	32.5735	-0.239061	-129.404	-15.2459	-39.6831	-44.5004	42.1589
	-0.239959	-129.422	-32.7634	-82.6525	-43.7512	42.8251	-15.2376	-39.5801
	-15.2472	-39.6736	-43.7361	42.9398	-31.3426	-61.3168	-0.222324	-129.58
	-44.4765	42.1737	-15.238	-39.5658	-0.221908	-129.588	-32.0572	-72.6132
1.81	-29.1294	32.199	-0.248937	-134.952	-14.9461	-45.2166	-44.2028	31.9125
	-0.249928	-134.969	-33.7587	-94.7879	-43.3926	32.5849	-14.9379	-45.1089
	-14.9478	-45.2076	-43.3842	32.7136	-31.7477	-71.9168	-0.232663	-135.135
	-44.1801	31.9015	-14.9385	-45.0929	-0.232395	-135.143	-32.3741	-83.3989
1.885	-29.1726	31.5347	-0.258222	-140.495	-14.6636	-50.7444	-43.9377	21.6378
	-0.259242	-140.513	-34.6773	-108.031	-43.0717	22.4293	-14.6554	-50.6322
	-14.6658	-50.7358	-43.0685	22.5362	-32.1048	-83.23	-0.242149	-140.683
	-43.9162	21.683	-14.6562	-50.6143	-0.242192	-140.694	-32.6207	-94.6333
1.96	-29.2469	30.6784	-0.266831	-146.033	-14.3966	-56.2704	-43.7149	11.5106
	-0.268174	-146.052	-35.4928	-122.325	-42.7907	12.3113	-14.3891	-56.151
	-14.3993	-56.2586	-42.7838	12.3983	-32.3784	-95.1505	-0.251287	-146.229
	-43.6972	11.4558	-14.3899	-56.14	-0.251628	-146.242	-32.7747	-106.214
2.035	-29.3821	29.4819	-0.281927	-151.57	-14.1528	-61.8214	-43.5542	1.3791
	-0.283695	-151.59	-36.1763	-137.214	-42.5646	2.18801	-14.1452	-61.6951
	-14.1555	-61.8099	-42.56	2.31018	-32.5801	-107.493	-0.266853	-151.772
	-43.5309	1.36562	-14.146	-61.6855	-0.267483	-151.785	-32.8477	-117.924
2.11	-29.5596	28.0193	-0.296571	-157.101	-13.9231	-67.3634	-43.4326	-8.64042
	-0.298746	-157.121	-36.7141	-152.718	-42.3659	-7.8053	-13.9154	-67.2321
	-13.9262	-67.3557	-42.3652	-7.69582	-32.6745	-120.098	-0.282205	-157.309
	-43.4026	-8.63199	-13.9164	-67.224	-0.282812	-157.323	-32.8163	-129.629
2.185	-29.8232	26.3924	-0.310719	-162.63	-13.7062	-72.9016	-43.3468	-18.5033
	-0.313234	-162.649	-37.0624	-168.324	-42.1964	-17.6512	-13.6983	-72.7637
	-13.7097	-72.8948	-42.2085	-17.5789	-32.6519	-132.726	-0.296957	-162.843
	-43.3159	-18.423	-13.6997	-72.7562	-0.297766	-162.856	-32.6773	-141.122
2.26	-30.1556	24.52	-0.324451	-168.155	-13.5017	-78.4327	-43.2925	-28.1734
	-0.326924	-168.174	-37.2367	176.116	-42.0628	-27.3736	-13.4936	-78.2904
	-13.5053	-78.4263	-42.0712	-27.3253	-32.5148	-145.214	-0.311124	-168.373
	-43.2533	-28.0639	-13.4951	-78.2813	-0.311892	-168.385	-32.4402	-152.207
2.335	-30.5805	22.6721	-0.337232	-173.676	-13.3082	-83.9577	-43.2615	-37.6761
	-0.339852	-173.694	-37.2361	161.085	-41.9507	-36.9186	-13.2999	-83.8101
	-13.3121	-83.9507	-41.9605	-36.9188	-32.2724	-157.287	-0.324368	-173.897
	-43.227	-37.4875	-13.3019	-83.8027	-0.325263	-173.909	-32.1293	-162.68
2.41	-31.1317	20.922	-0.349352	-179.193	-13.1257	-89.4778	-43.252	-46.9273
	-0.352213	-179.212	-37.1449	146.919	-41.8644	-46.2904	-13.117	-89.3251
	-13.1295	-89.4703	-41.8766	-46.3329	-31.965	-168.669	-0.336922	-179.417
	-43.2281	-46.7417	-13.1193	-89.3214	-0.337751	-179.43	-31.7878	-172.397
2.485	-31.8126	19.2926	-0.360899	175.293	-12.9533	-94.9952	-43.2718	-55.9212
	-0.363809	175.273	-36.9784	133.855	-41.8	-55.5147	-12.9443	-94.837
	-12.9568	-94.9865	-41.8099	-55.5782	-31.6146	-179.377	-0.348672	175.067
	-43.2543	-55.7803	-12.9465	-94.8349	-0.349306	175.051	-31.4303	178.579
2.56	-32.6486	17.9432	-0.3718	169.78	-12.7904	-100.509	-43.3124	-64.6811
	-0.374625	169.76	-36.7879	122.046	-41.7489	-64.577	-12.7811	-100.346
	-12.7935	-100.5	-41.7528	-64.6455	-31.2303	170.59	-0.359653	169.552
	-43.298	-64.5481	-12.7832	-100.344	-0.360227	169.536	-31.0628	170.218
2.635	-33.6902	17.1607	-0.382009	164.27	-12.6366	-106.018	-43.3627	-73.1751
	-0.384802	164.25	-36.6511	111.358	-41.7023	-73.4354	-12.6269	-105.852
	-12.6394	-106.011	-41.7042	-73.4929	-30.8418	161.258	-0.369941	164.039
	-43.3459	-73.0089	-12.6291	-105.849	-0.370569	164.024	-30.7087	162.507
2.71	-34.9736	17.6594	-0.39127	158.762	-12.4912	-111.523	-43.4211	-81.4062
	-0.394131	158.742	-36.6159	101.855	-41.6548	-82.043	-12.4809	-111.354
	-12.4941	-111.517	-41.6626	-82.1183	-30.475	152.553	-0.379184	158.53
	-43.404	-81.1887	-12.4835	-111.349	-0.379978	158.515	-30.3853	155.375
2.785	-36.5357	20.9672	-0.399983	153.258	-12.3535	-117.023	-43.477	-89.34
	-0.402592	153.238	-36.7474	93.2884	-41.6122	-90.4699	-12.3431	-116.853
	-12.3563	-117.019	-41.6253	-90.5689	-30.1492	144.456	-0.387774	153.027
	-43.4644	-89.1413	-12.3459	-116.848	-0.38861	153.009	-30.1047	148.786
2.86	-38.1054	27.8162	-0.40808	147.755	-12.2235	-122.523	-43.5206	-96.9806
	-0.410549	147.734	-37.0773	85.6887	-41.567	-98.7297	-12.2132	-122.35
	-12.2263	-122.517	-41.583	-98.7695	-29.8802	136.848	-0.395577	147.525
	-43.5142	-96.8446	-12.2156	-122.346	-0.396447	147.505	-29.8785	142.661
2.935	-39.2624	37.4737	-0.41536	142.253	-12.1008	-128.02	-43.5399	-104.396
	-0.417575	142.23	-37.6867	78.7112	-41.5204	-106.821	-12.0902	-127.846
	-12.1033	-128.014	-41.5246	-106.843	-29.6683	129.66	-0.402462	142.022
	-43.5383	-104.338	-12.0926	-127.843	-0.402906	141.999	-29.7079	136.942
3.01	-40.0525	48.8445	-0.428126	136.753	-11.9918	-133.525	-43.5448	-111.546
	-0.430367	136.73	-38.6666	72.4729	-41.4618	-114.764	-11.9806	-133.35
	-11.9941	-133.519	-41.4706	-114.742	-29.5569	122.89	-0.415073	136.524
	-43.5452	-111.559	-11.9831	-133.35	-0.415163	136.499	-29.6186	131.67
3.085	-40.5113	60.2908	-0.44042	131.254	-11.8895	-139.031	-43.5136	-118.526
	-0.442964	131.231	-40.2068	67.4887	-41.3904	-122.626	-11.8789	-138.851
	-11.892	-139.027	-41.3956	-122.533	-29.5306	116.394	-0.427051	131.023
	-43.5163	-118.629	-11.8808	-138.851	-0.427308	130.998	-29.6008	126.716
3.16	-40.6265	72.1271	-0.45204	125.759	-11.7932	-144.528	-43.4415	-125.479
	-0.454587	125.735	-42.362	72.9602	-41.2919	-130.388	-11.783	-144.346
	-11.7959	-144.528	-41.296	-130.288	-29.5951	110.212	-0.438178	125.526
	-43.4513	-125.578	-11.7847	-144.348	-0.43873	125.503	-29.6534	122.178
3.235	-40.4667	83.8557	-0.462917	120.267	-11.7028	-150.021	-43.3206	-132.414
	-0.465481	120.242	-43.8692	83.4035	-41.165	-138.106	-11.6929	-149.838
	-11.7056	-150.025	-41.1718	-137.985	-29.7766	104.314	-0.448651	120.033
	-43.3312	-132.522	-11.6946	-149.844	-0.44922	120.009	-29.7946	118.084
3.31	-39.9692	95.2696	-0.47304	114.774	-11.6177	-155.514	-43.1638	-139.366
	-0.475638	114.75	-44.6859	95.3478	-41.0154	-145.832	-11.6083	-155.328
	-11.6205	-155.518	-41.0212	-145.717	-30.0847	98.6123	-0.458222	114.538
	-43.1782	-139.515	-11.6099	-155.337	-0.458773	114.515	-30.0264	114.4
3.385	-39.1241	105.939	-0.482456	109.283	-11.5379	-161.006	-42.9635	-146.427
	-0.485068	109.26	-45.0742	107.756	-40.8454	-153.63	-11.5288	-160.816
	-11.5405	-161.01	-40.8474	-153.521	-30.5477	93.1932	-0.466851	109.045
	-42.9831	-146.586	-11.5302	-160.829	-0.467417	109.023	-30.3536	111.263
3.46	-37.8745	114.587	-0.491078	103.794	-11.4631	-166.496	-42.7264	-153.621
	-0.493672	103.771	-45.1163	120.256	-40.6506	-161.52	-11.4542	-166.302
	-11.4655	-166.503	-40.6487	-161.401	-31.2028	88.1126	-0.474672	103.554
	-42.7487	-153.77	-11.4554	-166.32	-0.475176	103.533	-30.7807	108.813
3.535	-36.3371	119.918	-0.498703	98.3067	-11.3929	-171.984	-42.4599	-161.01
	-0.501429	98.2838	-44.8268	132.813	-40.4334	-169.542	-11.3842	-171.788
	-11.3952	-171.994	-40.4278	-169.399	-32.0957	83.5573	-0.481499	98.0614
	-42.484	-161.129	-11.3855	-171.809	-0.481959	98.042	-31.2945	107.22
3.61	-34.8361	121.943	-0.505291	92.8208	-11.327	-177.472	-42.1653	-168.652
	-0.508327	92.7986	-44.199	145.387	-40.1976	-177.74	-11.3185	-177.271
	-11.3292	-177.485	-40.1895	-177.581	-33.3203	80.194	-0.487296	92.5706
	-42.192	-168.705	-11.32	-177.296	-0.487852	92.5532	-31.8697	106.751
3.685	-33.6023	121.482	-0.511072	87.3376	-11.2651	177.041	-41.8541	-176.567
	-0.51434	87.3157	-43.1974	157.938	-39.9448	173.907	-11.2573	177.247
	-11.2674	177.024	-39.9361	174.047	-34.9346	79.6985	-0.492355	87.0836
	-41.883	-176.553	-11.2585	177.219	-0.493143	87.0675	-32.467	107.617
3.76	-32.6043	119.589	-0.516252	81.8532	-11.2071	171.551	-41.5305	175.238
	-0.519664	81.8326	-41.7127	170.321	-39.6812	165.376	-11.2003	171.762
	-11.2096	171.531	-39.676	165.477	-36.6054	84.6845	-0.496438	81.5933
	-41.565	175.267	-11.2013	171.732	-0.497632	81.5778	-33.0083	109.815
3.835	-31.8093	117.408	-0.520906	76.3688	-11.1539	166.06	-41.2078	166.726
	-0.52385	76.3494	-39.5734	-179.743	-39.416	156.627	-11.1468	166.274
	-11.1558	166.039	-39.4087	156.694	-37.7306	93.2256	-0.500001	76.104
	-41.2324	166.765	-11.148	166.246	-0.500886	76.0901	-33.4304	113.271
3.91	-31.2021	114.771	-0.524525	70.8849	-11.104	160.566	-40.8922	157.931
	-0.527398	70.8673	-36.8206	179.135	-39.1479	147.626	-11.0975	160.785
	-11.1058	160.546	-39.1438	147.674	-38.4006	102.833	-0.502755	70.6177
	-40.907	157.971	-11.0986	160.761	-0.503633	70.604	-33.6984	117.566
3.985	-30.7022	111.908	-0.533662	65.4028	-11.0646	155.069	-40.6005	148.811
	-0.536493	65.3855	-35.0512	175.385	-38.9045	138.348	-11.0584	155.295
	-11.0665	155.048	-38.8982	138.412	-38.6863	112.71	-0.510842	65.1281
	-40.6088	148.851	-11.0592	155.271	-0.511758	65.115	-33.7646	122.336
4.06	-30.3307	108.96	-0.542378	59.9253	-11.029	149.575	-40.3199	139.373
	-0.54513	59.9049	-33.711	170.909	-38.6639	128.85	-11.0227	149.806
	-11.0311	149.553	-38.666	128.942	-38.656	122.838	-0.518844	59.6462
	-40.3323	139.421	-11.0237	149.781	-0.519572	59.6315	-33.6355	127.355
4.135	-30.0576	105.923	-0.550472	54.4463	-10.9969	144.08	-40.0649	129.678
	-0.553045	54.4246	-32.6505	166.346	-38.4385	119.153	-10.9906	144.317
	-10.9991	144.057	-38.4455	119.234	-38.3084	132.944	-0.526182	54.161
	-40.0755	129.7	-10.992	144.292	-0.526646	54.1457	-33.3137	132.214
4.21	-29.8711	102.933	-0.557456	48.9658	-10.9677	138.583	-39.827	119.738
	-0.56019	48.9462	-31.7865	161.84	-38.2282	109.26	-10.9613	138.828
	-10.97	138.563	-38.2343	109.32	-37.6253	142.861	-0.532564	48.673
	-39.8369	119.738	-10.9631	138.806	-0.532926	48.6589	-32.8013	136.627
4.285	-29.7813	99.9868	-0.563679	43.4872	-10.9414	133.091	-39.613	109.575
	-0.566278	43.469	-31.1006	157.267	-38.0349	99.1784	-10.9351	133.342
	-10.944	133.074	-38.0403	99.2095	-36.5616	152.19	-0.538144	43.1906
	-39.6218	109.557	-10.9369	133.323	-0.538473	43.1776	-32.1244	140.259
4.36	-29.7697	97.085	-0.569242	38.0077	-10.9182	127.599	-39.4234	99.2093
	-0.571557	37.9908	-30.549	152.651	-37.8578	88.8935	-10.9118	127.857
	-10.9209	127.586	-37.863	88.9107	-34.9937	159.829	-0.543058	37.706
	-39.4329	99.1621	-10.9136	127.84	-0.543395	37.6956	-31.318	142.717
4.435	-29.8347	94.2887	-0.573997	32.5277	-10.8977	122.109	-39.2596	88.6325
	-0.576075	32.5119	-30.1212	148.08	-37.6968	78.4006	-10.8911	122.374
	-10.9004	122.1	-37.6994	78.4245	-33.0573	162.991	-0.547227	32.2212
	-39.2666	88.5568	-10.8929	122.357	-0.547488	32.2132	-30.4444	143.807
4.51	-29.9788	91.6123	-0.577691	27.0481	-10.8793	116.623	-39.1205	77.8487
	-0.579725	27.0336	-29.8214	143.505	-37.5496	67.7282	-10.8726	116.893
	-10.882	116.615	-37.5511	67.7609	-31.2638	161.512	-0.550441	26.7397
	-39.1225	77.7949	-10.8743	116.876	-0.550704	26.733	-29.5756	143.514
4.585	-30.1985	89.0313	-0.580299	21.5684	-10.8627	111.138	-39.0012	66.8894
	-0.582515	21.5559	-29.6309	138.928	-37.4144	56.9116	-10.8558	111.414
	-10.8655	111.132	-37.4173	56.9433	-29.8692	157.42	-0.552702	21.2573
	-39.0045	66.8802	-10.8574	111.398	-0.553063	21.2522	-28.7663	141.971
4.66	-30.499	86.5677	-0.582283	16.0888	-10.8482	105.655	-38.8992	55.7599
	-0.584476	16.0773	-29.539	134.435	-37.2945	45.9512	-10.8409	105.936
	-10.8511	105.651	-37.2954	45.9895	-28.7933	152.322	-0.554377	15.7734
	-38.9075	55.7577	-10.8423	105.92	-0.554532	15.7706	-28.0488	139.449
4.735	-30.8758	84.3056	-0.583559	10.6081	-10.8355	100.174	-38.8172	44.4524
	-0.585648	10.5975	-29.5632	129.881	-37.1935	34.836	-10.8275	100.458
	-10.8383	100.171	-37.192	34.8496	-27.9649	146.744	-0.554916	10.2926
	-38.8279	44.4623	-10.829	100.445	-0.555133	10.2917	-27.4417	136.183
4.81	-31.3425	82.2303	-0.584213	5.12579	-10.8243	94.6955	-38.756	33.0127
	-0.586259	5.11702	-29.6935	125.354	-37.1031	23.5437	-10.8163	94.9828
	-10.8272	94.6913	-37.1017	23.5542	-27.3335	140.808	-0.555061	4.80754
	-38.7599	33.0023	-10.8177	94.9704	-0.555195	4.80906	-26.9496	132.319
4.885	-31.9174	80.5438	-0.583935	-0.356697	-10.8142	89.2183	-38.7067	21.3958
	-0.585791	-0.365545	-29.9436	120.805	-37.0231	12.1081	-10.8063	89.5079
	-10.817	89.2133	-37.0221	12.1194	-26.8655	134.627	-0.554316	-0.674702
	-38.7132	21.3755	-10.8067	89.4953	-0.554155	-0.673087	-26.5652	128.029
4.96	-32.5828	79.3089	-0.589312	-5.84069	-10.8117	83.743	-38.7066	9.59591
	-0.590849	-5.85028	-30.3396	116.392	-36.981	0.480022	-10.8035	84.034
