! MARKI MICROWAVE INC.
! Email:             	info@markimicrowave.com   				Phone:   408-778-4200
! Model Number:      	C10-0226						Date:    10/12
! Filename:		C10-0226.S4P						Version: 1.0
! Description:       	4-port S-parameter data for Directional Coupler C10-0226
! Frequency Range: 	10 MHz to 26.5 GHz		
! Port Configuration:	PORT 1: Input
!			PORT 2: Output 
!			Port 3: Coupled 
!			Port 4: Isolated

! S4P File: Measurements: Mag<S11> Ang<S11> Mag<S12> Ang<S12> Mag<S13> Ang<S13> Mag<S14> Ang<S14>! row 1 
!			  Mag<S21> Ang<S21> Mag<S22> Ang<S22> Mag<S23> Ang<S23> Mag<S24> Ang<S24>! row 2 
!			  Mag<S31> Ang<S31> Mag<S32> Ang<S32> Mag<S33> Ang<S33> Mag<S34> Ang<S34>! row 3 
!			  Mag<S41> Ang<S41> Mag<S42> Ang<S42> Mag<S43> Ang<S43> Mag<S44> Ang<S44>! row 4

# Hz S  dB   R 50
10000000 -42.925365 68.052238 -0.045333449 -7.0126452 -44.42469 89.888504 -65.010406 -44.286186
-0.021300361 -7.2223239 -43.689075 45.503872 -68.737206 162.81796 -46.869873 116.56961
-42.247395 67.273987 -59.175522 -129.10533 -44.07935 50.57243 -0.027077574 -7.2821469
-65.686096 -142.07132 -41.688904 74.231476 -0.032941464 -7.141273 -47.737228 63.256672
43112500 -43.417515 57.244503 -0.045961685 -9.7491302 -41.654972 85.755417 -66.122856 -24.866314
-0.026343379 -9.9171543 -44.010578 38.930813 -69.057587 149.39667 -43.613674 107.10553
-39.916641 67.622757 -61.358795 -148.57651 -44.221012 44.364529 -0.031031223 -9.9597569
-66.868477 -163.17856 -39.462894 73.213676 -0.035507422 -9.8452616 -47.17057 53.735458
76225000 -43.762074 46.983887 -0.047548193 -13.028836 -38.728977 81.131149 -67.155769 -0.18005517
-0.032732256 -13.15934 -44.2827 31.553255 -69.089691 138.80542 -40.194477 97.121651
-37.419945 67.449409 -62.857189 -169.55791 -44.226757 37.1908 -0.035945196 -13.182521
-68.182159 176.99823 -37.077892 71.633621 -0.038492978 -13.093065 -46.809898 43.94413
109337500 -44.264969 36.190323 -0.050419424 -16.857145 -35.652233 75.937386 -68.647064 26.122978
-0.039951418 -16.944565 -44.534813 24.645237 -69.436127 125.93562 -36.636311 86.597374
-34.78183 66.707611 -65.531715 169.56108 -44.459332 28.867075 -0.041155074 -16.953825
-69.143852 150.47421 -34.54921 69.494987 -0.042153247 -16.888832 -46.374134 32.964806
142450000 -44.639343 24.132086 -0.054193657 -21.221863 -32.462585 70.186913 -69.755486 47.038258
-0.04724168 -21.274427 -44.696697 18.037508 -69.160522 108.21145 -32.952393 75.481155
-32.023632 65.43335 -68.446777 144.69218 -44.721565 18.824036 -0.047020894 -21.268991
-69.489601 126.10332 -31.903427 66.855667 -0.046433724 -21.228235 -45.720638 20.963074
175562500 -44.894829 12.297743 -0.057693198 -26.132565 -29.157661 63.847023 -70.15638 66.228065
-0.05690432 -26.157822 -44.978111 10.697597 -69.41256 92.354172 -29.169027 63.834797
-29.1619 63.615421 -69.879051 121.87553 -44.960938 9.9828405 -0.05362355 -26.129242
-70.245598 98.509315 -29.153088 63.677532 -0.051671673 -26.112276 -44.751587 7.5117702
208675000 -44.303566 5.2351856 -0.063493103 -31.045092 -27.195892 58.989422 -69.901939 71.329933
-0.064418711 -31.066355 -44.628628 2.8335769 -66.861206 83.372208 -27.186049 58.965992
-27.18297 58.732983 -70.686073 91.874046 -44.46822 4.9986062 -0.059828367 -31.044775
-69.632149 83.636887 -27.177742 58.930531 -0.059755728 -31.010828 -44.355389 3.2032433
241787500 -43.69371 2.995734 -0.069817334 -35.950077 -25.683619 54.043312 -68.786026 84.014404
-0.072240397 -35.971634 -43.94804 0.54445189 -65.141769 81.312027 -25.67555 54.03437
-25.670322 53.864895 -69.844398 79.441231 -43.496441 1.8226733 -0.066668257 -35.959801
-69.361031 85.151863 -25.665504 54.091595 -0.066448569 -35.924435 -44.01339 -0.16313984
274900000 -43.581375 -2.1235182 -0.076510236 -40.847481 -24.449026 49.123219 -67.605843 79.951775
-0.079292431 -40.869221 -43.852943 -4.6386142 -65.353683 71.55442 -24.417107 49.095863
-24.419878 48.97216 -69.481308 65.542778 -43.12672 -3.5828931 -0.072291516 -40.855469
-68.294067 76.264549 -24.4153 49.16539 -0.073788285 -40.824387 -44.021183 -2.5267725
308012500 -43.19043 -7.3829813 -0.084086195 -45.73843 -23.387098 44.26181 -66.634026 68.121529
-0.086767204 -45.768333 -43.491997 -8.8310757 -63.941887 63.622299 -23.357695 44.206795
-23.362406 44.08477 -68.43177 56.615761 -42.709305 -7.4657912 -0.079800956 -45.748558
-67.082718 63.101395 -23.34938 44.267326 -0.081671044 -45.728142 -43.82452 -6.6948881
341125000 -42.935272 -10.074562 -0.091972515 -50.636997 -22.455997 39.358154 -65.898491 66.75634
-0.095080063 -50.66571 -43.230072 -11.552203 -63.344135 59.529743 -22.430889 39.302525
-22.43152 39.221519 -67.375465 52.747158 -42.371449 -10.882704 -0.0875315 -50.648533
-66.255775 59.444653 -22.422977 39.343544 -0.088543415 -50.621471 -43.456215 -9.7071695
374237500 -42.786812 -14.461823 -0.099782988 -55.527012 -21.61828 34.399624 -65.248177 58.416313
-0.10278548 -55.551903 -43.300911 -14.285386 -63.959694 46.018822 -21.603897 34.416359
-21.603775 34.307079 -67.610458 48.391815 -42.183804 -14.366119 -0.096053138 -55.547096
-66.295891 54.81242 -21.59565 34.46809 -0.096511893 -55.518539 -42.87616 -11.175324
407350000 -42.612263 -19.064444 -0.107589 -60.408535 -20.8778 29.472939 -64.146927 44.986309
-0.11126059 -60.439449 -43.264286 -18.319473 -63.289135 38.233963 -20.860538 29.504372
-20.860489 29.435823 -66.267937 43.262829 -41.684158 -17.752556 -0.10426611 -60.436348
-65.49334 48.067898 -20.855076 29.59548 -0.10565348 -60.407295 -42.567421 -11.578897
440462500 -42.523357 -22.50761 -0.11559052 -65.29821 -20.199514 24.568802 -63.313309 37.267296
-0.12054203 -65.323906 -43.366417 -23.144873 -63.169342 31.940498 -20.191553 24.627754
-20.187098 24.557262 -64.758156 41.778164 -41.176186 -18.922327 -0.11362153 -65.327469
-65.428505 39.036934 -20.181744 24.698841 -0.11490066 -65.293503 -42.636822 -12.92313
473575000 -42.770821 -26.499622 -0.12523997 -70.186241 -19.586641 19.704306 -63.220955 30.139378
-0.12856577 -70.200554 -43.335724 -27.507902 -62.62001 26.426298 -19.574837 19.733234
-19.569715 19.661394 -64.432121 36.218647 -40.770374 -22.08041 -0.12339411 -70.221504
-64.681465 33.549854 -19.563585 19.795549 -0.12529524 -70.183327 -42.862778 -13.104296
506687500 -42.747791 -30.71266 -0.13568632 -75.067635 -19.022106 14.840447 -62.961697 20.754293
-0.13755034 -75.081337 -43.59351 -33.165688 -62.561844 15.441801 -19.008709 14.845247
-19.003914 14.78597 -62.968273 24.688246 -40.508987 -26.171907 -0.13322452 -75.106087
-63.997738 30.247828 -19.001253 14.908726 -0.13389523 -75.070274 -42.710701 -14.882648
539800000 -42.930252 -35.187923 -0.14654909 -79.950081 -18.500252 9.9326782 -62.393139 13.463116
-0.1460788 -79.959137 -43.91354 -38.262001 -62.509834 3.3630941 -18.485542 9.9850025
-18.481422 9.9113646 -62.3396 15.588258 -40.551697 -29.850105 -0.14337112 -79.983612
-63.337849 18.7055 -18.483984 10.012405 -0.14426281 -79.950806 -42.704655 -18.283529
572912500 -43.105824 -37.910545 -0.15648304 -84.830605 -18.01804 5.0703783 -62.011993 2.9031181
-0.15596543 -84.838341 -43.919712 -42.929447 -61.601646 1.632548 -18.007486 5.1224656
-17.999739 5.0385523 -61.642136 11.094066 -40.414967 -33.205566 -0.1543715 -84.863808
-63.075867 10.353914 -18.002253 5.1344543 -0.15486605 -84.832275 -42.664974 -23.705271
606025000 -43.354496 -39.941067 -0.166776 -89.708755 -17.568172 0.20675345 -61.781223 -3.4974601
-0.16577877 -89.705803 -44.375301 -46.262852 -60.898838 -6.5799994 -17.55687 0.25641066
-17.551893 0.17896913 -61.127029 1.6326387 -40.307224 -36.463947 -0.16424195 -89.738884
-63.458893 1.6466739 -17.551313 0.26822102 -0.16471103 -89.705811 -42.678635 -25.630573
639137500 -43.803188 -42.990719 -0.17673948 -94.568695 -17.147657 -4.6542768 -61.836281 -14.753218
-0.17525576 -94.57103 -44.88063 -51.166122 -60.738117 -16.267223 -17.135616 -4.6064062
-17.130701 -4.6936369 -60.650536 -7.6966891 -40.329491 -40.571362 -0.17483094 -94.609627
-63.130623 -10.017623 -17.130949 -4.5639472 -0.17615005 -94.578033 -42.790401 -28.206398
672250000 -44.423561 -45.567303 -0.18736029 -99.439003 -16.757299 -9.4974718 -61.753792 -26.267353
-0.1860383 -99.445831 -44.932556 -57.608795 -59.223858 -21.278412 -16.746462 -9.5046167
-16.737768 -9.5573883 -59.487175 -16.122385 -40.434074 -44.776714 -0.18560292 -99.482338
-61.755226 -23.738825 -16.736074 -9.4335966 -0.18633851 -99.440765 -43.024334 -31.831394
705362500 -44.672417 -50.115341 -0.19770344 -104.3065 -16.389725 -14.342403 -61.4109 -30.788757
-0.19631152 -104.3066 -45.545258 -60.320217 -59.038639 -30.455763 -16.377188 -14.357321
-16.371456 -14.418862 -58.996777 -25.537731 -40.656353 -47.427567 -0.19636457 -104.34307
-61.652275 -28.999262 -16.369234 -14.283483 -0.19632314 -104.30465 -43.130573 -36.27013
738475000 -45.257973 -54.126392 -0.20865043 -109.16212 -16.040213 -19.192673 -61.466606 -40.329926
-0.20672835 -109.16485 -46.044384 -64.166435 -58.812943 -36.298271 -16.029716 -19.212246
-16.026161 -19.278067 -58.370655 -34.257427 -40.754471 -50.988979 -0.20783329 -109.20319
-61.505981 -34.713894 -16.022625 -19.148186 -0.20746556 -109.17238 -42.780293 -38.74688
771587500 -45.739388 -57.807888 -0.22083738 -114.01447 -15.713425 -24.030977 -61.25029 -48.41011
-0.2170696 -114.01657 -46.725002 -67.645317 -58.490292 -46.78973 -15.699609 -24.04941
-15.699551 -24.109171 -58.182144 -42.709892 -40.736938 -53.066879 -0.21811469 -114.04726
-61.412495 -42.678577 -15.696273 -24.000097 -0.21736796 -114.02531 -42.649788 -41.040398
804700000 -46.435509 -60.492855 -0.23115745 -118.86831 -15.405347 -28.894682 -61.058868 -55.980728
-0.22762418 -118.86197 -47.412365 -68.436516 -58.235523 -48.535999 -15.389748 -28.897575
-15.391175 -28.971771 -58.050362 -45.890537 -40.439621 -55.986626 -0.22917384 -118.90643
-61.138691 -51.145279 -15.386833 -28.833685 -0.22866373 -118.87991 -42.66301 -42.98885
837812500 -46.899151 -65.414207 -0.24144706 -123.7129 -15.114342 -33.738358 -60.679985 -64.294113
-0.23995399 -123.71519 -47.932957 -67.620514 -57.996502 -52.815601 -15.099721 -33.736095
-15.103251 -33.825516 -57.652569 -50.534779 -40.31237 -59.240494 -0.24065329 -123.75418
-60.815598 -58.620987 -15.094839 -33.665993 -0.23939411 -123.73832 -42.7187 -45.107883
870925000 -47.216915 -70.351547 -0.25399986 -128.55504 -14.838062 -38.590076 -60.54044 -69.723732
-0.25131685 -128.5528 -48.696636 -65.970757 -57.947922 -60.308994 -14.825566 -38.580616
-14.827149 -38.66032 -57.679043 -58.616474 -40.350151 -63.54295 -0.25263169 -128.60329
-60.758354 -65.456192 -14.821908 -38.509979 -0.24931185 -128.58046 -42.40416 -44.67115
904037500 -47.630596 -74.90535 -0.26655364 -133.39375 -14.578045 -43.433598 -60.04813 -73.972946
-0.26291639 -133.39786 -49.046181 -66.096268 -58.177742 -64.890961 -14.565242 -43.423218
-14.567711 -43.498878 -57.693558 -63.778797 -40.166332 -65.697113 -0.26372662 -133.45633
-59.893646 -70.1707 -14.562016 -43.344002 -0.26025862 -133.42799 -42.09399 -47.480461
937150000 -48.295841 -76.053322 -0.2780087 -138.23557 -14.333057 -48.270802 -59.799503 -74.729706
-0.27467582 -138.23643 -50.036423 -65.237328 -57.793972 -71.228378 -14.318913 -48.263256
-14.323141 -48.345284 -57.5299 -69.329185 -40.072826 -68.751175 -0.27471265 -138.29976
-59.922153 -75.491241 -14.316843 -48.188263 -0.27167261 -138.27028 -41.845306 -49.054749
970262500 -48.642586 -76.356422 -0.28912488 -143.07498 -14.100508 -53.117943 -60.166569 -77.361656
-0.28654405 -143.07047 -50.24522 -60.492451 -58.575615 -72.630264 -14.08351 -53.088799
-14.091758 -53.162933 -58.218449 -75.072151 -39.829556 -69.473099 -0.28572369 -143.13081
-60.353485 -79.263588 -14.085299 -53.015739 -0.28347328 -143.11008 -41.437031 -51.134312
1003375000 -49.294216 -78.587471 -0.30110055 -147.90738 -13.878533 -57.953499 -59.892841 -81.082161
-0.29799521 -147.90601 -50.294258 -57.783089 -58.366737 -74.399544 -13.863574 -57.936855
-13.871119 -57.99118 -58.143589 -77.37545 -39.499149 -71.8778 -0.29678339 -147.97525
-59.863316 -81.676178 -13.863634 -57.848957 -0.29508576 -147.9496 -40.910027 -53.50185
1036487500 -49.970188 -78.919479 -0.3121241 -152.73955 -13.67062 -62.790642 -59.532307 -82.915604
-0.30981049 -152.74234 -50.11058 -50.593601 -58.622517 -79.218071 -13.654461 -62.755192
-13.662204 -62.816254 -58.311611 -83.947929 -39.290527 -74.344055 -0.30631429 -152.808
-59.574398 -85.810661 -13.652659 -62.669971 -0.30601576 -152.78017 -40.651833 -55.39431
1069600000 -50.263432 -78.348404 -0.32166067 -157.56636 -13.473567 -67.617897 -59.8078 -84.769508
-0.3216196 -157.57513 -49.955585 -45.519859 -58.529114 -80.918571 -13.457966 -67.575569
-13.464832 -67.648705 -58.16798 -85.985474 -39.112385 -78.108704 -0.31783351 -157.6432
-59.519268 -88.449547 -13.453277 -67.4944 -0.31764352 -157.60495 -40.358761 -56.919235
1102712500 -50.870445 -78.374107 -0.33393016 -162.3905 -13.285559 -72.433929 -60.23048 -87.54007
-0.33239067 -162.40486 -49.439064 -41.180962 -58.749249 -83.489494 -13.270318 -72.397919
-13.27702 -72.462105 -58.12373 -91.115372 -39.119175 -80.956894 -0.32849115 -162.46654
-59.658245 -92.527222 -13.26495 -72.329094 -0.32910368 -162.42812 -40.092033 -58.468113
1135825000 -51.250561 -72.32869 -0.34521323 -167.21819 -13.106638 -77.256569 -60.890636 -85.360283
-0.34251603 -167.2271 -49.15395 -40.805687 -58.765255 -89.604965 -13.089326 -77.23613
-13.098733 -77.278603 -58.177914 -93.960793 -39.101746 -83.851204 -0.33799845 -167.29289
-60.227776 -91.857994 -13.086269 -77.153557 -0.33893242 -167.24576 -39.644032 -60.942345
1168937500 -53.416607 -64.034637 -0.35443339 -172.04047 -12.937721 -82.075264 -60.344921 -88.084602
-0.35485566 -172.04761 -48.593002 -38.790104 -58.629677 -94.418007 -12.919769 -82.049438
-12.93316 -82.103996 -58.191532 -97.743912 -39.007515 -86.1082 -0.34755644 -172.1192
-59.74041 -94.650826 -12.9154 -81.964546 -0.35050273 -172.07494 -39.298424 -65.687592
1202050000 -54.091076 -61.497192 -0.36410886 -176.86024 -12.77817 -86.892609 -60.25621 -90.486237
-0.3655003 -176.87251 -48.375145 -35.515663 -58.203228 -99.939011 -12.760113 -86.866776
-12.773475 -86.928772 -57.731514 -103.53309 -38.994076 -89.349434 -0.35939714 -176.93642
-59.553257 -96.497368 -12.754689 -86.791092 -0.36082098 -176.88531 -39.146648 -68.357445
1235162500 -54.729183 -56.09668 -0.37549287 178.32356 -12.626835 -91.707718 -59.755516 -97.662735
-0.37623081 178.30879 -47.102882 -32.2313 -58.432774 -101.81826 -12.608274 -91.668381
-12.622487 -91.745346 -58.205376 -106.67077 -38.851051 -91.671288 -0.36988288 178.24605
-58.840946 -100.48376 -12.602924 -91.599525 -0.37095606 178.29308 -38.998314 -71.650414
1268275000 -55.784286 -54.06657 -0.38632831 173.51694 -12.48263 -96.522575 -58.783871 -99.010727
-0.38660637 173.49869 -46.867264 -31.708914 -57.57375 -107.7777 -12.464485 -96.479233
-12.479892 -96.551872 -57.617981 -109.01543 -38.859024 -96.10585 -0.37968364 173.43303
-57.970047 -102.99837 -12.459002 -96.413086 -0.38113451 173.47719 -38.91383 -75.020096
1301387500 -56.010658 -45.58342 -0.39709949 168.69768 -12.347269 -101.33221 -58.836594 -102.77374
-0.39759728 168.68674 -46.485001 -31.14859 -57.845314 -114.76983 -12.32811 -101.28543
-12.345489 -101.35645 -57.735641 -113.50233 -38.897789 -98.470505 -0.39078113 168.619
-58.155567 -107.30785 -12.323047 -101.22414 -0.39120957 168.66153 -38.729996 -77.955452
1334500000 -55.761513 -40.772465 -0.40804818 163.88708 -12.218827 -106.13411 -58.444675 -103.35709
-0.40682641 163.88339 -45.975658 -34.692696 -57.737762 -114.70959 -12.200145 -106.09805
-12.215938 -106.16258 -57.974533 -114.41485 -38.984566 -101.36897 -0.40267348 163.8049
-57.836182 -109.15636 -12.19488 -106.03967 -0.40210629 163.8549 -38.645397 -82.49752
1367612500 -55.994308 -30.974697 -0.41822818 159.08592 -12.094493 -110.94853 -57.488029 -107.05415
-0.41673812 159.07851 -45.462109 -36.184811 -57.738075 -116.96207 -12.078155 -110.90876
-12.093621 -110.96612 -57.979927 -117.66496 -39.0485 -104.32586 -0.41275403 158.994
-57.494858 -110.21377 -12.073706 -110.83493 -0.41137907 159.04411 -38.44405 -87.557426
1400725000 -55.722107 -21.414549 -0.42754069 154.28528 -11.977651 -115.74911 -56.443771 -112.57998
-0.42669663 154.27408 -45.237324 -38.960793 -57.127811 -122.81012 -11.963273 -115.70956
-11.978488 -115.76094 -57.39838 -120.91807 -39.181835 -107.57385 -0.42336407 154.19029
-56.308815 -112.82343 -11.958951 -115.63046 -0.42125499 154.23201 -38.346977 -92.892799
1433837500 -55.619484 -16.63965 -0.43865681 149.48732 -11.869465 -120.54721 -55.39518 -123.01272
-0.43639201 149.47298 -45.015461 -39.142471 -56.731785 -125.93995 -11.854568 -120.49953
-11.867476 -120.5526 -57.13232 -127.23401 -39.321049 -110.66505 -0.43276924 149.38864
-55.46299 -120.21716 -11.851599 -120.42554 -0.43137237 149.42589 -38.39756 -96.497505
1466950000 -53.891056 -17.559994 -0.4484162 144.68715 -11.765637 -125.34632 -55.13361 -125.82733
-0.4443109 144.66911 -44.789078 -42.362976 -56.436226 -129.92264 -11.751309 -125.30502
-11.763055 -125.3452 -56.886436 -132.17807 -39.675056 -114.07512 -0.44253111 144.5918
-55.054188 -122.81458 -11.746925 -125.23071 -0.43931699 144.63011 -38.536865 -99.960434
1500062500 -53.354935 -14.116988 -0.45738518 139.89076 -11.667627 -130.14301 -54.719131 -130.10559
-0.45371911 139.87825 -44.49588 -45.535999 -56.299347 -132.9742 -11.651631 -130.09372
-11.664847 -130.1324 -56.910454 -136.21419 -39.897247 -117.15381 -0.45077118 139.7955
-54.668201 -127.08436 -11.649446 -130.02724 -0.44849068 139.82834 -38.674259 -104.76936
1533175000 -52.389091 -15.983319 -0.46575022 135.09683 -11.574865 -134.94493 -54.58419 -130.43959
-0.46317333 135.08018 -44.556099 -50.323387 -55.96077 -136.38846 -11.559971 -134.89677
-11.572995 -134.91766 -56.47937 -139.42741 -40.19886 -120.08799 -0.45971623 135.00073
-54.480576 -128.87654 -11.557146 -134.82521 -0.45684564 135.02995 -38.701916 -109.89384
1566287500 -51.158546 -14.209452 -0.47377515 130.30238 -11.48773 -139.72881 -54.106026 -135.25259
-0.47094381 130.28862 -44.642796 -53.923016 -55.683083 -138.80022 -11.471089 -139.69749
-11.486703 -139.70546 -56.026924 -142.53358 -40.417961 -122.57603 -0.46852085 130.20146
-54.020039 -133.42371 -11.470626 -139.62143 -0.46568194 130.233 -38.774853 -114.93897
1599400000 -50.656872 -14.060759 -0.48059776 125.52168 -11.404974 -144.52155 -53.588196 -139.81554
-0.4790152 125.4958 -44.50177 -58.852066 -54.881371 -140.49927 -11.389098 -144.495
-11.403872 -144.48991 -55.384113 -147.00049 -40.799973 -126.70605 -0.47678673 125.40841
-53.441338 -137.83731 -11.386765 -144.40721 -0.47409731 125.44044 -39.02874 -119.1424
1632512500 -50.309273 -12.946069 -0.48821068 120.73612 -11.328078 -149.30923 -53.194721 -146.1064
-0.48807052 120.70746 -44.865406 -62.048111 -53.992905 -146.95517 -11.310246 -149.27809
-11.326351 -149.27469 -54.498577 -152.44443 -41.094337 -129.47169 -0.48434266 120.61624
-52.858826 -143.78862 -11.308418 -149.1904 -0.48094249 120.64284 -39.358173 -122.5875
1665625000 -49.655788 -16.117168 -0.49620473 115.94202 -11.256888 -154.0981 -52.685036 -150.06787
-0.49626139 115.92357 -45.074448 -65.024689 -53.288425 -152.77423 -11.236676 -154.06744
-11.25394 -154.04797 -53.760681 -157.83336 -41.519653 -131.63066 -0.49111962 115.82918
-52.046192 -151.25708 -11.234675 -153.98328 -0.4892762 115.84576 -39.986012 -127.33329
1698737500 -49.42384 -18.497189 -0.50412869 111.15115 -11.188817 -158.88916 -52.144966 -155.03296
-0.5041455 111.13283 -45.190983 -69.868408 -52.75415 -155.48111 -11.167524 -158.86066
-11.187037 -158.83253 -53.211559 -160.84709 -41.834068 -134.13817 -0.49819493 111.03368
-51.681091 -156.21477 -11.16657 -158.7683 -0.49613938 111.05606 -40.41367 -131.7592
1731850000 -49.699863 -22.981913 -0.51053494 106.36565 -11.125321 -163.67369 -51.567215 -157.86028
-0.51061845 106.34658 -45.243011 -74.465347 -52.346355 -159.09796 -11.105021 -163.64561
-11.124063 -163.62659 -52.760067 -163.02797 -42.161263 -136.78592 -0.50599933 106.24225
-51.075684 -158.89287 -11.101229 -163.56033 -0.5037291 106.26647 -40.803761 -137.33524
1764962500 -49.316422 -23.422033 -0.51637441 101.58498 -11.065837 -168.45915 -51.147205 -164.79294
-0.51747245 101.56382 -45.540035 -76.886559 -51.773308 -164.56975 -11.042913 -168.42143
