! MARKI MICROWAVE INC.
! Email:             	info@markimicrowave.com   				Phone:   408-778-4200
! Model Number:      	C10-0667						Date:    12/13
! Filename:		C10_0667.S4P						Version: 1.0
! Description:       	4-port S-parameter data for Directional Coupler C10-0667
! Frequency Range: 	10 MHz to 67 GHz		
! Port Configuration:	PORT 1: Input 
!			PORT 2: Output 
!			Port 3: Coupled 	
!			Port 4: Isolated
!
! S4P File: Measurements: Mag<S11> Ang<S11> Mag<S12> Ang<S12> Mag<S13> Ang<S13> Mag<S14> Ang<S14>! row 1 
!			  Mag<S21> Ang<S21> Mag<S22> Ang<S22> Mag<S23> Ang<S23> Mag<S24> Ang<S24>! row 2 
!			  Mag<S31> Ang<S31> Mag<S32> Ang<S32> Mag<S33> Ang<S33> Mag<S34> Ang<S34>! row 3 
!			  Mag<S41> Ang<S41> Mag<S42> Ang<S42> Mag<S43> Ang<S43> Mag<S44> Ang<S44>! row 4

# Hz S  dB   R 50
10000000 -41.680153 95.062981 -0.0091627063 -7.3114839 -48.708576 111.74559 -57.552334 -87.965836
0.002087815 -7.3095107 -41.866959 74.201286 -63.613007 -29.515154 -47.443356 120.24879
-54.120941 62.075306 -59.572689 152.16856 -41.591415 65.931229 -0.0111577 -7.5053306
-67.677422 -129.33829 -50.322186 151.02101 -0.032859772 -7.3818541 -40.198009 59.867435
93737500 -40.605309 87.4347 -0.010669172 -10.480987 -45.984921 102.79242 -58.767048 -97.229752
-0.00065982121 -10.478253 -40.74501 71.447403 -63.639198 -49.588779 -44.951603 109.53144
-50.305805 62.978497 -60.81842 164.70128 -40.499176 62.84697 -0.017472086 -10.688823
-67.030403 -133.73517 -47.261719 134.14476 -0.03499477 -10.589487 -39.462757 57.427372
177475000 -39.39278 79.324814 -0.011320241 -14.286306 -43.0868 93.189613 -59.626842 -107.15314
-0.0031511427 -14.282378 -39.431061 68.12468 -63.680412 -72.243675 -42.290657 98.103455
-46.329342 63.269981 -61.709389 176.93597 -39.255489 59.350616 -0.023948222 -14.517659
-66.057869 -140.10979 -44.022064 116.64845 -0.03753287 -14.439215 -38.556217 54.625141
261212500 -38.058815 70.706131 -0.011940151 -18.741879 -40.048096 82.955132 -60.458469 -120.25768
-0.0057704868 -18.733961 -37.964993 64.267227 -63.485886 -96.338158 -39.489864 86.102119
-42.203743 62.900776 -62.310905 -168.96239 -37.937145 55.361359 -0.031029139 -18.989412
-64.995735 -147.49203 -40.638016 98.549179 -0.041332521 -18.941971 -37.593246 51.104752
344950000 -36.611103 61.326275 -0.012621826 -23.832867 -36.877483 72.058533 -61.324127 -133.63286
-0.0087983031 -23.828266 -36.375019 59.715527 -63.226719 -121.74822 -36.560635 73.485916
-37.950768 61.91663 -62.995548 -157.60985 -36.533947 50.667931 -0.039685048 -24.106735
-63.863838 -154.92279 -37.129028 79.788528 -0.045384366 -24.084263 -36.537094 46.868351
428687500 -35.100719 51.410389 -0.013364779 -29.57193 -33.604958 60.472637 -61.965157 -148.13249
-0.010703018 -29.568047 -34.692959 54.584625 -62.836071 -149.2383 -33.527092 60.219551
-33.583469 60.273277 -63.474854 -148.45345 -35.056839 45.416157 -0.048274864 -29.869291
-62.642651 -164.21077 -33.513424 60.352917 -0.049957927 -29.870413 -35.428398 42.058323
512425000 -33.472694 46.769299 -0.012252683 -35.343533 -31.459528 54.57864 -60.525856 -159.27458
-0.010131843 -35.339211 -32.84531 50.230148 -61.123741 -163.69548 -31.456638 54.480206
-31.455736 54.517551 -60.449821 -158.2137 -33.55714 41.201893 -0.054220967 -35.66679
-60.96804 -169.79141 -31.440989 54.341232 -0.056012247 -35.667652 -34.013943 37.125805
596162500 -32.209515 42.153648 -0.011986525 -41.126278 -29.859732 48.737949 -58.720959 -169.18343
-0.0094664227 -41.117504 -31.419704 45.064426 -58.776134 -175.87282 -29.858759 48.719555
-29.871422 48.496597 -58.360344 -169.00581 -32.398106 35.732906 -0.060609069 -41.461979
-59.325851 -178.93236 -29.857054 48.714844 -0.06185976 -41.463058 -32.965504 32.274521
679900000 -31.172289 37.1661 -0.01297507 -46.917385 -28.539404 42.880684 -57.625381 172.72711
-0.0094766757 -46.911251 -30.204733 39.112835 -57.052624 171.86917 -28.575897 42.901318
-28.577112 42.771149 -57.262733 178.70081 -31.512558 30.686855 -0.066490419 -47.260475
-58.185223 171.71585 -28.562584 43.020802 -0.067704387 -47.264343 -32.157131 27.379452
763637500 -30.330198 31.865702 -0.013564265 -52.710926 -27.428497 37.173496 -56.556461 160.56555
-0.010985279 -52.705841 -29.211798 32.920162 -55.631119 162.58821 -27.470203 37.056606
-27.472343 36.993519 -55.744801 164.66663 -30.824684 25.252413 -0.073494136 -53.056953
-56.804783 161.75296 -27.45533 37.169319 -0.072694413 -53.06509 -31.509075 22.022127
847375000 -29.637794 26.497639 -0.015181945 -58.507729 -26.462139 31.338442 -55.694275 149.92876
-0.012885435 -58.50201 -28.385658 26.440144 -54.688919 149.54199 -26.506348 31.263067
-26.506571 31.217369 -54.504196 154.60121 -30.243191 20.064289 -0.079429314 -58.854729
-55.869598 150.51057 -26.487822 31.398701 -0.077826574 -58.865227 -30.967825 16.650265
931112500 -29.066822 20.911348 -0.018713113 -64.309486 -25.605789 25.510044 -55.114445 137.85896
-0.015568119 -64.307587 -27.732456 19.739946 -53.743843 137.95978 -25.645731 25.574669
-25.637121 25.414652 -53.540234 143.52582 -29.809397 14.602095 -0.085391209 -64.64814
-55.037582 140.37793 -25.629333 25.629036 -0.082920961 -64.662994 -30.607271 11.077419
1014850000 -28.593994 15.277411 -0.022501322 -70.108734 -24.833136 19.684277 -54.504723 128.28488
-0.018619074 -70.11026 -27.23764 12.737563 -52.904621 126.68223 -24.867912 19.797863
-24.859135 19.638395 -52.841217 129.06834 -29.456615 8.9486589 -0.091788463 -70.44603
-54.283329 130.16571 -24.859192 19.80442 -0.087462641 -70.452118 -30.317902 5.5949216
1098587500 -28.236734 9.7097692 -0.028182099 -75.915848 -24.135921 13.864701 -53.79686 117.41926
-0.022289744 -75.911896 -26.881207 5.5441575 -52.136932 114.99562 -24.161404 14.010715
-24.155313 13.805078 -52.074036 116.28401 -29.194105 3.3072946 -0.097167395 -76.237404
-53.602982 119.0979 -24.156816 14.008082 -0.092108756 -76.245697 -30.132992 0.25385138
1182325000 -27.956865 3.9856472 -0.034021914 -81.716888 -23.488863 8.0663881 -53.223652 106.53172
-0.02824722 -81.713089 -26.645617 -1.7373289 -51.512581 104.16969 -23.504984 8.2193193
-23.510805 7.9873857 -51.429478 104.41519 -29.028246 -2.2994606 -0.10266414 -82.029236
-52.907196 108.70064 -23.509661 8.2431879 -0.097551174 -82.042282 -30.031797 -5.0884452
1266062500 -27.796412 -1.7684783 -0.040270723 -87.513542 -22.901966 2.2627468 -52.819561 96.154953
-0.035181977 -87.509277 -26.547169 -8.9392614 -50.906418 92.617973 -22.907888 2.4627926
-22.911806 2.1943562 -50.868259 91.940964 -28.946129 -8.090003 -0.10843636 -87.826462
-52.420551 98.651474 -22.916855 2.4676881 -0.10254905 -87.836113 -30.047819 -10.490877
1349800000 -27.720676 -7.6979828 -0.047472361 -93.302574 -22.355061 -3.5323646 -52.288536 86.07312
-0.04309117 -93.301735 -26.550365 -16.126387 -50.619785 81.167809 -22.352633 -3.3290954
-22.363472 -3.6146181 -50.44524 80.399513 -28.973999 -13.751095 -0.11366942 -93.62149
-51.992382 86.91452 -22.366013 -3.319869 -0.10734581 -93.635101 -30.147947 -15.77342
1433537500 -27.72595 -13.503696 -0.055666551 -99.096359 -21.842833 -9.32901 -51.872837 75.694107
-0.051361937 -99.092445 -26.645948 -23.178053 -50.304764 69.702919 -21.832846 -9.0906448
-21.851301 -9.3924417 -50.103985 68.64122 -29.086178 -19.608561 -0.11881626 -99.415672
-51.631432 75.620186 -21.847353 -9.0798845 -0.11221746 -99.429245 -30.344614 -21.295549
1517275000 -27.844206 -19.301991 -0.06417495 -104.88077 -21.366177 -15.128326 -51.573055 64.676277
-0.059991166 -104.87961 -26.865202 -30.27953 -50.053856 57.645733 -21.34976 -14.854609
-21.371538 -15.181757 -49.860355 56.449455 -29.292847 -25.501715 -0.12286415 -105.2089
-51.370293 64.161942 -21.3613 -14.844076 -0.11773159 -105.22075 -30.64514 -26.834301
1601012500 -28.026556 -25.084574 -0.072740205 -110.65743 -20.91745 -20.923132 -51.16523 52.790039
-0.068827093 -110.66219 -27.183031 -37.085861 -49.896286 45.716496 -20.893694 -20.619944
-20.920485 -20.95698 -49.662777 44.595924 -29.548639 -31.347105 -0.12773478 -110.99926
-50.921741 53.237755 -20.903086 -20.612892 -0.12306609 -111.01363 -30.981678 -32.327553
1684750000 -28.342394 -30.825897 -0.080474988 -116.43539 -20.492788 -26.712978 -50.956814 41.921959
-0.078063093 -116.43895 -27.626116 -43.736549 -49.751839 33.766537 -20.464321 -26.414633
-20.497154 -26.743227 -49.565685 32.518085 -29.955681 -37.346954 -0.1323324 -116.79482
-50.736588 42.344883 -20.474159 -26.405861 -0.12771738 -116.80775 -31.473455 -37.940681
1768487500 -28.757744 -36.357578 -0.089491382 -122.20717 -20.089432 -32.515511 -50.897148 30.428503
-0.086956941 -122.21172 -28.129065 -50.231953 -49.648849 21.83186 -20.053919 -32.200397
-20.095129 -32.551376 -49.476028 21.126118 -30.441893 -43.204006 -0.13676061 -122.58899
-50.662643 30.984781 -20.06555 -32.183769 -0.13285507 -122.60508 -32.025803 -43.384872
1852225000 -29.247259 -41.861107 -0.097225845 -127.97298 -19.706583 -38.288593 -50.817989 19.377035
-0.096526086 -127.97935 -28.703955 -56.555737 -49.506458 10.591454 -19.668062 -38.000542
-19.71279 -38.301254 -49.424191 9.5645819 -31.03491 -49.052139 -0.14101475 -128.38629
-50.531403 19.314661 -19.678947 -37.981602 -0.13795744 -128.39972 -32.662357 -48.720615
1935962500 -29.843981 -47.212059 -0.10556234 -133.7336 -19.343924 -44.050529 -50.769283 7.5302153
-0.10576385 -133.73972 -29.347849 -63.008579 -49.38509 -1.6055599 -19.302807 -43.792927
-19.353823 -44.06089 -49.343369 -2.7315764 -31.816595 -55.453625 -0.14602789 -134.1786
-50.56274 7.5479755 -19.310253 -43.771942 -0.14260371 -134.19321 -33.505344 -53.746517
2019700000 -30.527576 -52.543205 -0.11521844 -139.48657 -18.999079 -49.821384 -50.845497 -3.8707292
-0.11454163 -139.49532 -30.041578 -69.205734 -49.232918 -13.442687 -18.955954 -49.577309
-19.008905 -49.831753 -49.240921 -14.315702 -32.698299 -61.6782 -0.15011761 -139.97231
-50.496124 -4.8140097 -18.962032 -49.565784 -0.14858538 -139.99023 -34.439171 -58.427517
2103437500 -31.436766 -57.693722 -0.12347932 -145.24249 -18.670521 -55.583263 -50.854115 -16.46748
-0.12358468 -145.25117 -30.877274 -75.764488 -49.050224 -25.4743 -18.625948 -55.36438
-18.678448 -55.602779 -49.055279 -26.76923 -33.836971 -68.291466 -0.15605707 -145.76532
-50.509056 -16.595411 -18.627977 -55.366772 -0.15483788 -145.78262 -35.568111 -63.203278
2187175000 -32.566437 -62.560654 -0.13049833 -150.99101 -18.356842 -61.348644 -50.791782 -28.971525
-0.13147539 -151.00063 -31.878275 -82.762527 -48.804504 -37.979553 -18.309715 -61.169674
-18.365747 -61.362865 -48.928875 -38.849625 -35.335552 -75.414063 -0.16251174 -151.55551
-50.49509 -28.803318 -18.314135 -61.167423 -0.16012597 -151.57057 -37.027592 -66.707062
2270912500 -33.994572 -66.777374 -0.13752824 -156.74178 -18.057804 -67.106041 -50.858921 -41.462177
-0.13883229 -156.74892 -33.096676 -90.742264 -48.619629 -50.734329 -18.005878 -66.951553
-18.071239 -67.122391 -48.743961 -51.4062 -37.499287 -82.869568 -0.16846612 -157.3457
-50.588989 -41.499565 -18.010313 -66.951111 -0.16590083 -157.36604 -39.01123 -68.521317
2354650000 -35.886658 -69.350983 -0.14517747 -162.49541 -17.769152 -72.858719 -50.881054 -54.265045
-0.14571235 -162.4922 -34.529709 -99.733643 -48.376675 -62.963104 -17.716932 -72.726158
-17.784676 -72.889969 -48.559311 -63.538368 -41.243378 -90.980606 -0.17437044 -163.13692
-50.722034 -54.619106 -17.720947 -72.741493 -0.17258148 -163.15746 -41.472225 -65.016998
2438387500 -38.095234 -66.143227 -0.15265511 -168.24141 -17.49486 -78.626595 -50.887741 -66.488403
-0.15254201 -168.24001 -36.167889 -112.56279 -48.08007 -75.865837 -17.441956 -78.50901
-17.510571 -78.657837 -48.315914 -76.165565 -43.568188 -117.60577 -0.18195599 -168.92744
-50.803665 -68.036697 -17.447815 -78.528496 -0.18050975 -168.94965 -43.328003 -55.595871
2522125000 -39.851303 -57.971981 -0.16017893 -173.98677 -17.229511 -84.374886 -50.598606 -79.710159
-0.16028371 -173.98898 -37.812302 -129.69398 -47.832668 -88.967606 -17.180157 -84.302864
-17.245556 -84.405167 -48.066612 -89.435707 -44.768349 -144.02544 -0.189603 -174.71443
-50.757526 -81.398621 -17.185608 -84.314369 -0.18674469 -174.73764 -44.62096 -44.031391
2605862500 -40.939205 -46.416069 -0.1680117 -179.73706 -16.977192 -90.144463 -50.488148 -93.506271
-0.16712293 -179.73853 -39.02158 -150.19299 -47.576115 -102.66736 -16.927645 -90.072052
-16.992338 -90.176033 -47.754456 -102.57169 -45.509827 -170.44141 -0.19738978 179.49823
-50.642811 -95.520203 -16.933792 -90.093391 -0.1943178 179.47049 -45.511051 -31.445652
2689600000 -41.500809 -34.924435 -0.17600618 174.51202 -16.733707 -95.909485 -50.303581 -106.97852
-0.17414139 174.50969 -39.77478 -171.40434 -47.224689 -115.53603 -16.686979 -95.858261
-16.746618 -95.935501 -47.411831 -114.81241 -45.84325 163.46098 -0.20573507 173.71022
-50.449821 -109.37656 -16.693665 -95.885826 -0.20190197 173.68488 -45.852131 -18.853397
2773337500 -41.762615 -23.219404 -0.18379864 168.75829 -16.500095 -101.65561 -50.164707 -121.2373
-0.18154 168.75497 -40.216473 166.18233 -46.98151 -128.94585 -16.454573 -101.6348
-16.514013 -101.70057 -47.122665 -128.56294 -45.879936 136.88692 -0.21536992 167.93108
-50.302567 -123.2113 -16.462292 -101.66553 -0.21015503 167.90311 -45.941803 -6.2469249
2857075000 -41.589317 -11.347211 -0.19205266 163.00803 -16.276243 -107.41773 -49.910488 -134.92084
-0.18893757 163.00119 -40.217155 143.72627 -46.679409 -142.10733 -16.230679 -107.41362
-16.290321 -107.45631 -46.873184 -141.27359 -45.445694 110.88519 -0.22362681 162.14787
-50.096207 -136.9015 -16.239115 -107.43549 -0.21856256 162.1196 -45.583214 6.4247622
2940812500 -40.961739 0.17903273 -0.20074329 157.26031 -16.058479 -113.17751 -49.655533 -148.60443
-0.19643417 157.24887 -39.876179 121.34663 -46.322247 -154.56525 -16.015911 -113.18318
-16.07428 -113.2229 -46.510494 -154.5276 -44.481094 85.425957 -0.23064694 156.3676
-49.908081 -150.82822 -16.023462 -113.20395 -0.22714527 156.33649 -44.718967 17.374283
3024550000 -39.884209 11.382455 -0.21003228 151.51381 -15.848956 -118.92072 -49.26656 -162.72981
-0.20335515 151.49892 -39.076199 99.920128 -45.929787 -166.66376 -15.810789 -118.9568
-15.860311 -118.97675 -46.128365 -166.96054 -42.7071 60.668213 -0.23859908 150.58733
-49.542675 -163.69019 -15.818505 -118.97792 -0.23652822 150.56595 -43.209141 27.393738
3108287500 -38.162781 21.079252 -0.21851066 145.7702 -15.646225 -124.67347 -49.01973 -175.81775
-0.21102773 145.74635 -37.913956 79.290787 -45.592941 -178.92508 -15.612102 -124.73752
-15.658308 -124.74873 -45.73877 -179.56401 -39.28299 36.310764 -0.24713004 144.81149
-49.203331 -176.67723 -15.618636 -124.74349 -0.24398364 144.79066 -41.086617 31.862932
3192025000 -35.9342 25.076525 -0.22674866 140.02237 -15.449611 -130.42142 -48.640671 170.50287
-0.2189512 140.00276 -36.323673 62.333981 -45.266281 169.26108 -15.421084 -130.50795
-15.463793 -130.49355 -45.372417 168.84219 -37.054123 30.395193 -0.25534177 139.04117
-48.896515 170.74132 -15.426102 -130.50349 -0.25186861 139.01682 -39.315559 30.727362
3275762500 -34.004837 23.843727 -0.23568135 134.2793 -15.263006 -136.16858 -48.393776 157.48839
-0.22667427 134.26151 -34.573776 49.651108 -44.882286 156.99313 -15.236427 -136.25146
-15.279016 -136.23842 -44.932663 157.07236 -35.829659 24.261652 -0.26356581 133.27061
-48.473736 157.7435 -15.24211 -136.25938 -0.26200679 133.24878 -38.027214 27.251125
3359500000 -32.609997 19.422184 -0.24424128 128.54074 -15.082392 -141.91252 -48.028194 144.86472
-0.23469663 128.52127 -33.10857 40.135838 -44.527058 145.54816 -15.057181 -142.0127
-15.098914 -141.99371 -44.525085 145.39201 -34.945869 17.935949 -0.27311069 127.50305
-48.245018 145.89801 -15.064753 -142.01575 -0.2703954 127.48559 -37.022751 22.952457
3443237500 -31.546532 15.080906 -0.25277856 122.8047 -14.909618 -147.63554 -47.698551 133.08293
-0.24239093 122.7871 -31.920691 31.536264 -44.1786 134.13513 -14.883539 -147.74947
-14.92465 -147.7402 -44.183113 133.5817 -34.232777 11.611245 -0.28145936 121.7371
-47.890518 134.0231 -14.891814 -147.7623 -0.28001022 121.72424 -36.302891 18.460264
3526975000 -30.61738 10.342338 -0.2617586 117.07281 -14.740055 -153.38753 -47.26054 120.82809
-0.25004029 117.05629 -30.916018 24.046099 -43.81749 122.81193 -14.715655 -153.49635
-14.755134 -153.47305 -43.828865 122.51006 -33.717827 5.712203 -0.28940642 115.97382
-47.532043 122.02525 -14.724827 -153.50826 -0.28796601 115.96193 -35.736286 13.632174
3610712500 -29.851202 5.5738869 -0.27025628 111.34314 -14.57718 -159.11917 -46.999382 109.41644
-0.25809675 111.32745 -30.112352 17.011845 -43.426689 111.95705 -14.555902 -159.22752
-14.590714 -159.21034 -43.445202 111.56531 -33.372231 -0.4715606 -0.29835111 110.21259
-47.167202 110.58404 -14.566648 -159.24388 -0.29644433 110.20502 -35.326866 9.1499844
3694450000 -29.24979 0.80599743 -0.27922419 105.61516 -14.42226 -164.8488 -46.73056 98.032433
-0.26665512 105.59999 -29.432043 10.3862 -43.152645 100.84541 -14.404153 -164.96176
-14.431582 -164.9408 -43.102932 100.91707 -33.160797 -6.871057 -0.3086879 104.45102
-46.782684 99.09111 -14.412849 -164.98067 -0.30680144 104.44854 -35.106731 5.0630445
3778187500 -28.71419 -4.1692038 -0.28765973 99.892265 -14.27131 -170.59459 -46.3843 87.519951
-0.27629215 99.87413 -28.878435 3.8421462 -42.865864 89.987053 -14.256865 -170.68954
-14.281408 -170.67902 -42.867115 90.021469 -33.079056 -13.512864 -0.3191767 98.695786
-46.472404 87.788734 -14.263275 -170.71716 -0.31614554 98.690575 -34.958961 0.72617263
3861925000 -28.296841 -9.2329874 -0.29680812 94.16481 -14.126568 -176.33266 -46.017933 76.274933
-0.28465095 94.153206 -28.371349 -2.6343303 -42.570145 79.057259 -14.114136 -176.40849
-14.13504 -176.39713 -42.583424 79.159561 -33.102375 -20.046049 -0.3294543 92.94236
-46.1366 77.075729 -14.120728 -176.44965 -0.32638571 92.938812 -34.957031 -3.5679471
3945662500 -27.941429 -14.22581 -0.30682734 88.445168 -13.986556 177.94183 -45.705963 65.270821
-0.29382777 88.426826 -27.97764 -8.9625683 -42.272938 68.398888 -13.974682 177.86176
-13.992507 177.8654 -42.302391 68.557205 -33.235783 -25.930223 -0.33966202 87.19075
-45.711658 66.088219 -13.981544 177.8161 -0.33567971 87.191002 -35.118919 -7.9188008
4029400000 -27.648949 -19.056395 -0.31568423 82.724106 -13.850102 172.2027 -45.396854 54.758858
-0.30311418 82.70343 -27.665112 -15.285176 -42.031193 58.373837 -13.840233 172.13173
-13.853437 172.12364 -42.099216 58.456318 -33.497723 -31.930428 -0.34923381 81.441559
-45.440971 55.775486 -13.84584 172.08539 -0.34469929 81.441101 -35.362106 -12.131734
4113137500 -27.435617 -24.119532 -0.32453677 77.009483 -13.717949 166.47662 -45.116772 44.155125
-0.31198707 76.985779 -27.406248 -21.345036 -41.787685 48.240505 -13.711892 166.40222
-13.719313 166.39545 -41.841648 48.40287 -33.848827 -37.752216 -0.35789266 75.69297
-45.082798 45.097565 -13.715124 166.36798 -0.35498801 75.695351 -35.665977 -16.234659
4196875000 -27.281559 -28.979506 -0.33265311 71.290466 -13.588156 160.73552 -44.939045 33.735649
-0.32029101 71.263634 -27.230095 -27.531923 -41.55925 38.273346 -13.586995 160.67366
-13.591421 160.67004 -41.624454 38.312717 -34.290352 -43.546711 -0.3679679 69.944107
-44.824383 34.350281 -13.588789 160.64751 -0.36395055 69.947731 -36.119354 -19.865963
4280612500 -27.170042 -33.681705 -0.34060621 65.574028 -13.464344 155.0094 -44.667305 23.584023
-0.32871392 65.544479 -27.09651 -33.691242 -41.322296 28.571623 -13.465419 154.94553
-13.467752 154.94324 -41.396465 28.481691 -34.84602 -49.220978 -0.37734959 64.196426
-44.556446 24.205826 -13.466574 154.93575 -0.37320876 64.204231 -36.606544 -22.918047
4364350000 -27.095379 -38.427933 -0.3485494 59.857864 -13.343673 149.27785 -44.359226 13.667384
-0.33691102 59.824768 -27.029396 -39.74218 -41.151642 18.921734 -13.346855 149.22551
-13.34685 149.2124 -41.190865 18.509371 -35.492393 -54.790649 -0.38516235 58.455273
-44.280571 14.025151 -13.346269 149.2057 -0.38286474 58.460846 -37.198845 -26.04221
4448087500 -27.062502 -43.060047 -0.35563484 54.144154 -13.224624 143.54388 -44.177685 4.2171931
-0.34493402 54.105721 -27.002968 -45.911766 -40.929585 9.051343 -13.230405 143.50282
