! MARKI MICROWAVE INC.
! Email:             	info@markimicrowave.com   				Phone:   408-778-4200
! Model Number:      	C13-0140						Date:    02/15
! Filename:		C13_0140.S4P						Version: 1.0
! Description:       	4-port S-parameter data for Directional Coupler C13-0140
! Frequency Range: 	10 MHz to 40 GHz		
! Port Configuration:	PORT 1: Input
!			PORT 2: Output 
!			Port 3: Coupled 
!			Port 4: Isolated
!
!
! S4P File: Measurements: Mag<S11> Ang<S11> Mag<S12> Ang<S12> Mag<S13> Ang<S13> Mag<S14> Ang<S14>! row 1 
!			  Mag<S21> Ang<S21> Mag<S22> Ang<S22> Mag<S23> Ang<S23> Mag<S24> Ang<S24>! row 2 
!			  Mag<S31> Ang<S31> Mag<S32> Ang<S32> Mag<S33> Ang<S33> Mag<S34> Ang<S34>! row 3 
!			  Mag<S41> Ang<S41> Mag<S42> Ang<S42> Mag<S43> Ang<S43> Mag<S44> Ang<S44>! row 4

# Hz S DB R 50
10000000 -31.282211 70.737358 -0.044477571 -10.46412 -42.425812 79.207207 -54.879227 155.98833
-0.019351397 -10.546503 -32.128014 71.73214 -58.39468 148.74013 -44.339912 92.443504
-42.063309 58.945496 -58.170288 -134.7471 -31.703241 71.197853 -0.011072415 -10.411612
-60.038849 -108.73632 -44.17765 72.09597 -0.073090278 -10.720976 -30.852995 69.600739
59987500 -31.750118 65.625862 -0.046622343 -14.185164 -39.755646 75.533051 -55.16217 166.45035
-0.028797802 -14.258161 -32.45256 66.29879 -58.045456 162.17731 -41.288918 86.207054
-39.463943 59.376358 -57.808441 -138.37157 -31.974815 66.305702 -0.020624656 -14.127708
-59.241829 -116.88663 -41.148663 69.925529 -0.069512397 -14.381393 -31.242624 64.672928
109975000 -32.080826 59.491611 -0.050164424 -18.685293 -36.913353 71.095238 -55.099628 176.07097
-0.040222883 -18.746399 -32.623409 60.242561 -57.404438 173.5992 -38.068581 79.231682
-36.700985 59.035976 -57.236664 -142.50189 -32.061935 60.590622 -0.030857734 -18.624681
-58.326042 -125.22783 -37.962311 66.959618 -0.068248473 -18.812775 -31.531759 59.327148
159962500 -32.331795 52.907631 -0.055385284 -23.961678 -33.937706 65.883881 -55.047825 -175.44482
-0.053399753 -24.017036 -32.699936 53.468006 -56.669842 -176.29765 -34.713062 71.447067
-33.80405 57.891796 -56.53286 -147.94182 -32.082561 53.763187 -0.04276279 -23.897554
-57.180889 -135.57553 -34.633205 63.207165 -0.069509991 -24.017921 -31.760351 53.388763
209950000 -32.484856 45.387081 -0.062197588 -30.018641 -30.840294 59.866737 -54.871601 -167.24069
-0.067637265 -30.062931 -32.757679 45.960724 -55.931297 -166.40367 -31.233522 62.893593
-30.789722 55.996964 -55.605659 -154.81702 -32.013897 46.445358 -0.055348508 -29.938471
-56.148071 -147.33162 -31.186569 58.694618 -0.071648791 -30.010324 -31.939203 46.63176
259937500 -32.634338 37.142605 -0.069968767 -36.849556 -27.64016 53.076027 -54.71925 -161.79118
-0.083573982 -36.882618 -32.724209 37.913975 -55.109844 -158.78815 -27.658012 53.561306
-27.668053 53.314995 -54.661453 -162.52266 -31.911085 38.472908 -0.071265779 -36.758698
-54.820435 -159.40051 -27.634022 53.432621 -0.073435523 -36.773056 -32.018784 39.339722
309925000 -31.774574 30.351667 -0.081960641 -43.834122 -25.646959 46.151253 -53.280392 -175.13132
-0.094151296 -43.86869 -31.866171 31.478699 -53.272011 -170.73334 -25.620497 46.326588
-25.655165 46.176018 -53.031754 -174.58777 -31.00495 31.604904 -0.082127973 -43.733513
-52.983089 -170.75922 -25.625685 46.31945 -0.084973879 -43.746357 -30.963346 33.138462
359912500 -30.921072 23.795706 -0.094113246 -50.819347 -24.125902 39.092682 -52.114697 175.30003
-0.10589818 -50.859299 -31.091837 24.830345 -52.206017 177.63889 -24.105673 39.315754
-24.123632 39.17281 -51.82201 174.27769 -30.095064 25.021477 -0.09478499 -50.721127
-51.732822 176.50427 -24.109478 39.303547 -0.095636688 -50.726315 -30.098331 26.901741
409900000 -30.242624 17.057859 -0.10598053 -57.801445 -22.890615 32.117001 -51.109402 165.65248
-0.11742561 -57.845604 -30.43828 18.865135 -51.101574 166.52834 -22.871759 32.351883
-22.889904 32.136459 -50.763409 163.35034 -29.378181 18.536175 -0.10686042 -57.696072
-50.802219 165.25276 -22.875153 32.332844 -0.10670727 -57.696472 -29.399866 20.85969
459887500 -29.701723 10.593697 -0.1178565 -64.788437 -21.841852 25.101357 -50.356663 154.95114
-0.13009904 -64.829201 -29.877989 13.099372 -50.389191 155.00258 -21.834009 25.354454
-21.848015 25.152842 -50.220276 151.72488 -28.797606 11.627503 -0.11880288 -64.667999
-50.116909 153.30182 -21.828197 25.328077 -0.11944651 -64.666763 -28.819092 15.108734
509875000 -29.239576 3.9093835 -0.13038974 -71.770378 -20.938122 18.138031 -49.602467 144.244
-0.14382732 -71.804497 -29.423691 7.6478868 -49.607872 144.3522 -20.932028 18.422398
-20.95295 18.18663 -49.405704 142.20207 -28.294172 4.8517642 -0.12977998 -71.634995
-49.414753 143.45811 -20.932535 18.344757 -0.13252722 -71.629425 -28.366543 9.6161194
559862500 -28.909651 -2.2173133 -0.14321235 -78.744743 -20.149693 11.153164 -49.143433 133.68724
-0.15579697 -78.776718 -29.095383 1.8180788 -49.129734 133.67245 -20.144222 11.455617
-20.1674 11.200891 -48.803356 131.71721 -27.943157 -1.8001984 -0.14215912 -78.585655
-48.869297 132.89769 -20.138445 11.39923 -0.14502886 -78.600563 -27.99972 3.7950943
609850000 -28.650946 -8.5550365 -0.1557532 -85.711128 -19.44451 4.1910677 -48.566608 122.94366
-0.16748539 -85.739906 -28.867088 -3.6693852 -48.706337 123.58628 -19.443314 4.5149302
-19.465271 4.2514038 -48.245461 121.16607 -27.63644 -7.8964458 -0.15474373 -85.533226
-48.42939 122.52954 -19.437939 4.4728627 -0.15606633 -85.565094 -27.660845 -2.1232128
659837500 -28.47636 -14.825418 -0.16809548 -92.668762 -18.81386 -2.7461336 -48.062328 111.2357
-0.18049519 -92.701805 -28.641989 -9.0662365 -48.221283 112.24194 -18.819532 -2.412524
-18.831427 -2.7152517 -47.900043 111.31276 -27.403961 -14.05375 -0.16802742 -92.482063
-47.878159 112.1488 -18.806974 -2.4578054 -0.16732515 -92.51091 -27.371012 -7.8712153
709825000 -28.329287 -21.033369 -0.18069308 -99.621246 -18.246681 -9.676857 -47.517239 100.95153
-0.19272208 -99.656219 -28.534962 -14.614636 -47.761551 102.40328 -18.248022 -9.340539
-18.264538 -9.6588917 -47.562805 101.3217 -27.192177 -20.101156 -0.178747 -99.423882
-47.573551 101.25636 -18.239288 -9.4046221 -0.18052261 -99.452675 -27.164198 -13.713202
759812500 -28.241032 -27.385387 -0.19332744 -106.57052 -17.730101 -16.612394 -47.204746 89.907608
-0.20493811 -106.60894 -28.437996 -19.790184 -47.329815 91.951546 -17.733885 -16.270697
-17.750828 -16.610195 -47.218006 91.079842 -27.025169 -26.180733 -0.19117801 -106.3605
-47.287941 90.218292 -17.722149 -16.31962 -0.19252482 -106.38968 -27.014894 -19.355089
809800000 -28.190701 -33.316967 -0.20500343 -113.51607 -17.260775 -23.555285 -46.850941 79.531662
-0.21686015 -113.55051 -28.387924 -25.355347 -46.940475 81.140793 -17.265572 -23.175661
-17.283594 -23.557909 -46.930744 80.320587 -26.89994 -32.259041 -0.20263077 -113.29156
-46.853901 79.624939 -17.252966 -23.237001 -0.20421171 -113.32349 -26.872604 -24.891602
859787500 -28.191519 -39.422375 -0.21593891 -120.45792 -16.834532 -30.483023 -46.425209 69.087074
-0.23029107 -120.49276 -28.343098 -30.647261 -46.69231 70.769127 -16.836779 -30.096525
-16.857004 -30.517183 -46.666229 70.062386 -26.799351 -38.273716 -0.21450555 -120.2207
-46.41655 68.78569 -16.825758 -30.170944 -0.21600077 -120.2514 -26.742529 -30.370712
909775000 -28.257313 -45.418991 -0.22807147 -127.38907 -16.44277 -37.405437 -46.101345 58.413601
-0.24119917 -127.42852 -28.385168 -35.594357 -46.422497 59.943573 -16.447725 -37.010433
-16.463619 -37.451195 -46.338463 59.61282 -26.716261 -44.265106 -0.22626215 -127.1404
-46.109386 58.412346 -16.436558 -37.07198 -0.22770976 -127.17555 -26.643097 -35.994682
959762500 -28.374943 -51.523293 -0.23953035 -134.315 -16.084461 -44.329327 -45.817379 47.609299
-0.25177377 -134.35976 -28.444153 -40.828419 -46.151573 48.719032 -16.09037 -43.929588
-16.103846 -44.38113 -46.126945 48.773338 -26.67281 -50.157082 -0.23938397 -134.05791
-45.865822 47.285435 -16.077374 -43.958008 -0.2391471 -134.09723 -26.605841 -41.747978
1009750000 -28.539152 -57.565422 -0.25039062 -141.23827 -15.756446 -51.243206 -45.590557 36.943073
-0.26333579 -141.2811 -28.56189 -45.381493 -45.942524 38.213749 -15.762631 -50.832981
-15.774073 -51.293388 -45.962284 38.015701 -26.716858 -56.073177 -0.25085855 -140.9742
-45.640228 35.814182 -15.74937 -50.851551 -0.2496516 -141.0061 -26.627192 -47.149174
1059737500 -28.782806 -63.843987 -0.26096225 -148.1635 -15.455568 -58.168022 -45.522358 26.030872
-0.27518228 -148.20396 -28.718536 -50.058556 -45.757397 27.561745 -15.460262 -57.726486
-15.471411 -58.210056 -45.863098 27.774435 -26.816357 -62.046902 -0.26082388 -147.8882
-45.534721 25.037388 -15.447084 -57.748539 -0.26032239 -147.91483 -26.724968 -52.442764
1109725000 -29.100401 -69.628868 -0.27192599 -155.08391 -15.181102 -65.075951 -45.471233 15.533128
-0.28494763 -155.11935 -28.926128 -54.841293 -45.615513 16.75445 -15.18364 -64.628914
-15.197773 -65.122467 -45.779716 16.859011 -27.002943 -68.342651 -0.27063164 -154.79659
-45.428635 14.791439 -15.171809 -64.640762 -0.27016002 -154.81744 -26.848366 -57.63335
1159712500 -29.450464 -75.58017 -0.28238767 -162.00484 -14.926378 -71.983727 -45.40987 5.2179427
-0.29415432 -162.03523 -29.163656 -59.285263 -45.662872 5.7426634 -14.931115 -71.509995
-14.943325 -72.042465 -45.753414 5.8459535 -27.241421 -74.623024 -0.28043792 -161.69348
-45.385502 4.3827295 -14.921597 -71.538994 -0.28026819 -161.72241 -27.042891 -62.815441
1209700000 -29.871311 -81.359451 -0.2913883 -168.91467 -14.695804 -78.890823 -45.327869 -5.3392682
-0.30364537 -168.94403 -29.487968 -64.020821 -45.621956 -5.1754775 -14.699792 -78.387344
-14.710269 -78.939621 -45.65546 -5.1307502 -27.518293 -80.90686 -0.2903738 -168.59016
-45.301037 -6.141499 -14.68924 -78.42836 -0.29006553 -168.62907 -27.27449 -68.007736
1259687500 -30.360815 -87.243988 -0.30079219 -175.82408 -14.482761 -85.797386 -45.314701 -16.028187
-0.31297666 -175.85608 -29.837559 -68.534485 -45.556789 -15.637155 -14.486575 -85.269951
-14.495522 -85.844414 -45.617928 -15.720124 -27.831289 -86.95826 -0.2998879 -175.4812
-45.299255 -16.974178 -14.478038 -85.322609 -0.29970023 -175.52634 -27.579548 -73.34819
1309675000 -30.876682 -92.789825 -0.30999324 177.26979 -14.288644 -92.70948 -45.270664 -26.329866
-0.32016525 177.2392 -30.249197 -73.263817 -45.540493 -26.108606 -14.291389 -92.149597
-14.301107 -92.74205 -45.574791 -26.024923 -28.167292 -92.792709 -0.30797794 177.62823
-45.287567 -27.269827 -14.284178 -92.214066 -0.30827892 177.57439 -27.916094 -78.914726
1359662500 -31.503538 -98.641258 -0.3185589 170.36751 -14.113311 -99.603638 -45.320568 -37.308071
-0.32847902 170.33745 -30.67926 -77.987846 -45.515129 -36.452366 -14.114597 -99.030991
-14.125846 -99.644402 -45.572834 -36.71347 -28.553835 -98.565788 -0.31712124 170.73796
-45.317593 -38.143131 -14.107683 -99.099762 -0.316066 170.68295 -28.277664 -84.508286
1409650000 -32.129795 -104.19584 -0.32615623 163.46539 -13.951967 -106.51528 -45.278702 -47.303158
-0.33568439 163.43298 -31.174894 -82.716835 -45.549885 -46.942509 -13.954295 -105.9154
-13.966402 -106.55322 -45.577866 -47.020584 -28.976261 -104.43861 -0.32403934 163.84818
-45.379883 -48.470798 -13.946987 -105.99212 -0.32410762 163.79605 -28.684093 -90.07196
1459637500 -32.860828 -109.549 -0.33445489 156.56694 -13.80851 -113.40901 -45.321827 -57.694439
-0.34360075 156.52484 -31.730127 -87.559196 -45.487354 -57.001236 -13.808261 -112.80518
-13.820907 -113.44838 -45.537525 -56.566521 -29.378353 -110.32977 -0.33115092 156.96257
-45.373745 -58.574547 -13.802192 -112.87597 -0.33181557 156.91089 -29.074768 -95.860664
1509625000 -33.643368 -114.6996 -0.34143588 149.67241 -13.677616 -120.29937 -45.291466 -68.308235
-0.35004973 149.62511 -32.301369 -92.145271 -45.500523 -67.222778 -13.677203 -119.6845
-13.690609 -120.32961 -45.563519 -66.940506 -29.837925 -116.15485 -0.33818325 150.07983
-45.427147 -68.71209 -13.671794 -119.74031 -0.33864248 150.02562 -29.521925 -101.51925
1559612500 -34.543514 -120.34799 -0.34817138 142.77951 -13.561544 -127.19324 -45.305592 -79.349419
-0.35722989 142.72874 -32.924381 -96.149055 -45.535595 -77.182167 -13.559964 -126.56695
-13.572839 -127.21996 -45.596172 -77.141304 -30.317717 -121.85822 -0.3447642 143.19507
-45.493652 -79.50956 -13.556305 -126.61119 -0.34615201 143.13988 -29.999542 -107.12563
1609600000 -35.524921 -125.40849 -0.35347566 135.89284 -13.458232 -134.08783 -45.369122 -90.308159
-0.36427116 135.83206 -33.608307 -100.21577 -45.437855 -87.724525 -13.456293 -133.45068
-13.470254 -134.10376 -45.565464 -87.854202 -30.887444 -127.71407 -0.35116389 136.3118
-45.538303 -91.089905 -13.451284 -133.47604 -0.35244521 136.25752 -30.543825 -112.49885
1659587500 -36.643333 -130.38255 -0.35949713 128.99806 -13.366595 -140.97112 -45.432568 -101.08895
-0.36970586 128.93523 -34.297855 -103.84403 -45.470131 -98.092552 -13.364117 -140.33592
-13.380024 -140.99757 -45.602196 -98.322952 -31.541588 -133.37759 -0.35699633 129.42853
-45.585522 -101.77431 -13.36142 -140.34453 -0.35737324 129.38551 -31.14665 -117.30476
1709575000 -37.878822 -133.81172 -0.36421135 122.10789 -13.285961 -147.8526 -45.556335 -112.30229
-0.37475711 122.04454 -34.945011 -106.74825 -45.620384 -109.0854 -13.285383 -147.21509
-13.300056 -147.87494 -45.705448 -108.9342 -32.40469 -138.81973 -0.36181733 122.54807
-45.775036 -112.35323 -13.280853 -147.22231 -0.36221677 122.51199 -31.796358 -121.53806
1759562500 -39.275585 -136.72127 -0.36926758 115.2159 -13.217463 -154.73933 -45.783375 -123.47054
-0.38053274 115.15531 -35.682293 -109.088 -45.732986 -120.75661 -13.217254 -154.09146
-13.231041 -154.76109 -45.868282 -120.2103 -33.42646 -143.93584 -0.36593926 115.67162
-45.938019 -123.04665 -13.211053 -154.08643 -0.36762321 115.63588 -32.567688 -124.98906
1809550000 -40.661598 -137.0132 -0.37349615 108.32265 -13.15902 -161.63724 -45.990902 -134.5784
-0.38443458 108.26525 -36.486195 -111.45753 -45.988827 -131.51183 -13.158156 -160.95953
-13.171985 -161.64452 -46.016445 -130.75441 -34.571182 -148.19531 -0.36947998 108.79308
-46.212479 -133.62546 -13.152453 -160.95473 -0.37228745 108.7561 -33.508503 -128.01373
1859537500 -42.016384 -136.60315 -0.37788564 101.4335 -13.111595 -168.52631 -46.335136 -145.3372
-0.38969764 101.37294 -37.281143 -113.16953 -46.288486 -142.45534 -13.107806 -167.82623
-13.124398 -168.51785 -46.293484 -141.60178 -35.892216 -151.32796 -0.37217033 101.91942
-46.513569 -144.53769 -13.105896 -167.8228 -0.37500477 101.87241 -34.546364 -130.31691
1909525000 -43.396049 -135.73865 -0.38072678 94.540115 -13.071139 -175.41365 -46.648449 -156.10023
-0.39304841 94.482895 -38.103855 -114.28303 -46.693398 -153.10257 -13.066863 -174.70934
-13.08534 -175.40102 -46.561501 -153.23401 -37.320938 -152.71275 -0.37429896 95.036293
-46.881973 -155.38568 -13.066132 -174.69075 -0.37715521 94.993797 -35.761723 -131.311
1959512500 -44.536842 -131.60384 -0.3839024 87.648315 -13.042083 177.68234 -47.045052 -166.88431
-0.39612341 87.594711 -38.961128 -116.07433 -47.087708 -163.59012 -13.036254 178.4222
-13.054099 177.70253 -46.954559 -163.56288 -38.780083 -152.84862 -0.37586403 88.165108
-47.323586 -166.77995 -13.035702 178.41998 -0.37983641 88.112663 -36.987972 -131.27226
2009500000 -45.749924 -127.74462 -0.38571402 80.754608 -13.019503 170.79526 -47.505627 -176.87317
-0.39879087 80.702438 -40.003937 -116.90257 -47.530308 -174.41826 -13.014631 171.55042
-13.031179 170.80695 -47.349312 -173.49474 -40.176289 -151.61467 -0.37704602 81.288849
-47.743694 -177.21742 -13.01202 171.54054 -0.38033006 81.22863 -38.490002 -130.98015
2059487500 -46.547165 -124.90289 -0.38802162 73.860275 -13.006052 163.90533 -48.074516 173.29692
-0.4010644 73.811943 -40.985985 -117.15298 -48.150654 175.7693 -12.999993 164.67827
-13.015981 163.92509 -47.913548 176.79073 -41.414478 -149.39429 -0.37748897 74.407974
-48.309414 173.28459 -12.997788 164.66089 -0.38124263 74.346664 -39.825409 -129.44807
2109475000 -47.280167 -120.33355 -0.38936263 66.966904 -13.001113 157.01164 -48.519348 163.1456
-0.40304595 66.927254 -42.066662 -117.0842 -48.747337 165.81837 -12.99231 157.80095
-13.007746 157.03703 -48.494858 166.90877 -42.588402 -145.0285 -0.37787589 67.528625
-48.824348 163.87047 -12.990591 157.76889 -0.38409069 67.455452 -41.396641 -124.79014
2159462500 -47.737659 -120.47891 -0.39059836 60.069481 -13.002211 150.11497 -49.212048 155.44714
-0.40427566 60.035336 -43.776241 -119.50799 -49.262589 157.47539 -12.991548 150.92369
-13.008188 150.14572 -49.065498 157.94365 -43.505058 -140.11906 -0.37801716 60.646847
-49.589359 154.83836 -12.990309 150.89412 -0.38523707 60.563419 -42.702507 -121.09506
2209450000 -48.565147 -117.80433 -0.39216992 53.173912 -13.008486 143.22862 -49.768604 147.29355
-0.40565208 53.141914 -45.499847 -121.16134 -49.81358 149.25368 -13.000477 144.04758
-13.015308 143.25658 -49.691196 149.05626 -44.271954 -133.14874 -0.37927386 53.761169
-50.095524 145.20218 -12.997583 144.00919 -0.38440195 53.671158 -43.689095 -116.04887
2259437500 -49.888542 -116.05761 -0.39302891 46.279545 -13.023003 136.34148 -50.226048 139.0415
-0.40666911 46.246803 -47.400238 -121.42015 -50.357025 140.77051 -13.013593 137.15999
-13.028419 136.37154 -50.352074 140.84796 -44.85627 -126.58401 -0.37956092 46.872356
-50.649899 135.99843 -13.010694 137.12823 -0.38476133 46.78516 -44.423866 -109.76111
2309425000 -51.083397 -116.99344 -0.39310643 39.378357 -13.04296 129.45554 -50.715912 130.11836
-0.40739554 39.349041 -49.358891 -108.90775 -50.791012 131.83574 -13.034624 130.27151
-13.046503 129.45787 -50.774651 132.308 -45.054581 -120.25771 -0.38023737 39.98061
-51.198891 128.08383 -13.028447 130.24588 -0.38488814 39.899403 -44.817944 -104.1244
2359412500 -52.731594 -132.21338 -0.3938823 32.486843 -13.069244 122.56421 -51.186337 122.16554
-0.4081879 32.453514 -51.007149 -100.45785 -51.286888 121.96464 -13.060885 123.40083
-13.071596 122.5616 -51.515385 123.21734 -45.002453 -114.72196 -0.38095024 33.09906
-51.671093 120.7169 -13.053061 123.36846 -0.38623524 33.006592 -44.912418 -98.016403
2409400000 -54.054016 -154.62172 -0.39409003 25.587572 -13.099207 115.67722 -52.030792 114.12048
-0.40840176 25.552084 -52.15694 -83.148582 -51.964241 113.86578 -13.090187 116.51813
-13.101701 115.66019 -52.012669 113.90685 -44.715473 -110.63845 -0.38117808 26.206888
-52.285706 113.8447 -13.082615 116.48598 -0.38629681 26.117947 -44.868706 -93.568726
2459387500 -54.310513 -177.38393 -0.39325625 18.68771 -13.133725 108.76813 -52.723816 106.87048
-0.40769634 18.653385 -52.639584 -69.801727 -52.661407 105.74229 -13.122596 109.63805
-13.13699 108.76922 -52.536175 104.44736 -44.453186 -107.05 -0.38099095 19.313444
-52.803303 106.59946 -13.11781 109.5925 -0.38715211 19.223915 -44.340389 -87.773949
2509375000 -54.450737 161.10416 -0.39345652 11.785794 -13.172241 101.86099 -53.379322 97.984619
-0.40710896 11.750279 -52.614784 -54.437702 -53.035709 97.113106 -13.160436 102.74625
-13.176007 101.86263 -53.086281 96.640343 -44.099991 -104.05195 -0.38194719 12.420988
-53.689255 98.356911 -13.154715 102.69859 -0.38725311 12.326524 -43.787029 -83.683136
2559362500 -54.082855 136.83316 -0.39240459 4.8845077 -13.212945 94.970139 -54.256836 92.024773
-0.40630209 4.8424392 -52.280876 -39.470814 -53.577351 88.571129 -13.203439 95.858749
-13.217302 94.96167 -53.829117 88.621635 -43.620808 -103.11893 -0.38161293 5.5261025
-54.523739 90.049118 -13.196236 95.816994 -0.38567534 5.4348044 -42.821026 -83.16153
2609350000 -53.494652 114.45906 -0.39220318 -2.0229571 -13.258953 88.075172 -54.421345 81.565536
-0.40674382 -2.0658069 -51.112915 -22.455143 -54.290607 80.535042 -13.250517 88.981712
-13.263486 88.051582 -54.834621 80.202438 -43.121574 -102.50809 -0.38170469 -1.3749818
-54.576454 81.610977 -13.242107 88.90889 -0.38503516 -1.4563633 -41.902122 -81.395355
2659337500 -52.198902 90.08358 -0.390071 -8.9289513 -13.308051 81.170868 -55.504303 74.53717
-0.40527171 -8.9771481 -49.58147 -6.9650102 -55.05695 73.476318 -13.296981 82.069649
-13.312625 81.137741 -55.417984 72.200684 -42.626534 -103.96715 -0.38156891 -8.2749929
