! MARKI MICROWAVE INC.
! Email:             	info@markimicrowave.com   				Phone:   408-778-4200
! Model Number:      	C13-0150						Date:    10/12
! Filename:		C13_0150.S4P						Version: 1.0
! Description:       	4-port S-parameter data for Directional Coupler C13-0150
! Frequency Range: 	10 MHz to 60 GHz		
! Port Configuration:	PORT 1: Input
!			PORT 2: Output 
!			Port 3: Coupled 
!			Port 4: Isolated
!
!
! S4P File: Measurements: Mag<S11> Ang<S11> Mag<S12> Ang<S12> Mag<S13> Ang<S13> Mag<S14> Ang<S14>! row 1 
!			  Mag<S21> Ang<S21> Mag<S22> Ang<S22> Mag<S23> Ang<S23> Mag<S24> Ang<S24>! row 2 
!			  Mag<S31> Ang<S31> Mag<S32> Ang<S32> Mag<S33> Ang<S33> Mag<S34> Ang<S34>! row 3 
!			  Mag<S41> Ang<S41> Mag<S42> Ang<S42> Mag<S43> Ang<S43> Mag<S44> Ang<S44>! row 4

# GHz S DB R 50
0.01	-43.5994	-62.1758	-0.0203858	-1.53636	-52.4141	71.8642	-63.2354	-84.1605
	-0.000307524	-1.27689	-47.9076	-112.592	-57.0744	-24.2261	-52.2034	91.5563
	-55.4371	137.866	-56.7565	-177.233	-51.9325	-25.0794	-0.00338271	-1.48248
	-60.955	-130.189	-57.0348	95.968	-0.0158673	-1.19831	-49.2147	-48.0371
0.085	-41.4822	5.73769	-0.0327945	-10.5178	-39.2683	73.0545	-77.9039	-126.372
	-0.0271679	-10.4278	-42.7746	-12.5242	-71.0265	-101.948	-39.2023	79.9273
	-40.3299	95.7117	-73.8341	179.439	-44.1805	4.81618	-0.0219322	-10.4984
	-71.4497	-151.24	-40.862	81.399	-0.029638	-10.4004	-43.1317	-3.67868
0.16	-39.1596	14.9403	-0.0501545	-19.6075	-33.7615	66.1269	-79.4724	-116.467
	-0.0491815	-19.5669	-39.448	3.31792	-77.4207	131.765	-33.7255	70.3439
	-34.4213	80.0644	-81.7619	-142.702	-41.6695	8.09056	-0.0405056	-19.6047
	-77.5172	-153.53	-34.7518	71.2345	-0.0476905	-19.5544	-40.8287	1.9173
0.235	-37.9048	14.4542	-0.0695452	-28.704	-30.3335	58.0522	-76.68	-114.319
	-0.0700638	-28.6808	-37.6566	6.91777	-74.3362	57.3802	-30.3068	61.1052
	-30.8095	68.0937	-78.3683	-132.048	-40.4483	10.0177	-0.0597002	-28.7101
	-76.4598	-145.505	-31.0486	61.7447	-0.0662878	-28.6815	-39.733	3.50702
0.31	-37.3108	11.6993	-0.0890082	-37.7888	-27.8847	49.5826	-73.9334	-123.719
	-0.0901813	-37.7753	-36.5788	6.08418	-71.7568	9.47026	-27.8626	51.9855
	-28.256	57.4267	-74.9997	-137.864	-39.5649	12.1378	-0.0788168	-37.8041
	-73.7384	-148.082	-28.4439	52.4831	-0.0849358	-37.7886	-39.052	4.5285
0.385	-36.7232	14.671	-0.1063	-46.8603	-24.5904	41.5347	-72.8638	-134.568
	-0.109299	-46.8685	-35.2822	13.0283	-71.78	-39.0729	-24.594	42.2299
	-24.7305	43.4949	-74.1543	-141.332	-38.0718	16.1093	-0.0963587	-46.8868
	-72.8069	-154.101	-24.7518	42.2368	-0.101966	-46.897	-37.9209	8.84367
0.46	-36.2662	13.676	-0.122946	-55.9336	-22.1606	33.4125	-70.2516	-142.864
	-0.126797	-55.9557	-34.2476	13.2048	-70.498	-93.3856	-22.1586	33.4887
	-22.1646	33.398	-71.6418	-144.67	-36.9678	17.1809	-0.112862	-55.9706
	-71.7071	-163.237	-22.166	33.4728	-0.11804	-55.9949	-37.0598	9.63966
0.535	-36.1499	9.28304	-0.139339	-65.006	-20.582	24.4897	-67.1065	-147.978
	-0.14304	-65.0287	-33.7903	6.99887	-67.8632	-136.174	-20.5796	24.5673
	-20.5867	24.4579	-68.0153	-149.266	-36.3561	16.027	-0.128611	-65.0517
	-69.2283	-168.887	-20.5865	24.5459	-0.133895	-65.0765	-36.625	7.37162
0.61	-36.3275	6.55946	-0.155163	-74.0646	-19.3559	15.5229	-64.6819	-163.323
	-0.15844	-74.0863	-33.6947	0.638362	-64.5621	-166.205	-19.3535	15.6087
	-19.3591	15.4977	-64.6198	-164.667	-35.8343	14.513	-0.143831	-74.1187
	-65.7832	-172.96	-19.3596	15.5914	-0.148849	-74.1438	-36.3081	4.90428
0.685	-36.6424	5.39909	-0.170053	-83.1103	-18.3523	6.54939	-62.0106	174.204
	-0.172963	-83.1304	-33.9003	-5.44062	-61.4886	173.266	-18.3494	6.65543
	-18.3547	6.5344	-61.2863	174.278	-35.3639	12.4791	-0.158245	-83.173
	-62.4598	175.223	-18.3549	6.63678	-0.162835	-83.1979	-36.069	2.08623
0.76	-36.9605	5.80604	-0.183617	-92.1458	-17.5079	-2.42226	-59.6511	155.737
	-0.186327	-92.1642	-34.4226	-11.267	-59.0728	154.499	-17.5051	-2.30234
	-17.5096	-2.43029	-58.8458	155.01	-34.9599	9.46093	-0.171253	-92.2184
	-59.7246	155.807	-17.5099	-2.31577	-0.17592	-92.2423	-35.9102	-1.50359
0.835	-37.2045	7.28279	-0.195885	-101.169	-16.7859	-11.3885	-57.768	136.744
	-0.198419	-101.187	-35.2713	-16.7466	-57.1583	135.669	-16.7835	-11.2555
	-16.7876	-11.3897	-56.9272	136.01	-34.6426	4.98109	-0.183174	-101.252
	-57.7425	137.243	-16.7883	-11.2654	-0.187581	-101.275	-35.8385	-6.36188
0.91	-37.294	9.53699	-0.206472	-110.182	-16.1628	-20.3462	-56.1451	118.2
	-0.208842	-110.197	-36.5833	-21.0667	-55.3783	117.261	-16.1609	-20.1987
	-16.1642	-20.3448	-55.2501	117.416	-34.46	-1.32658	-0.193567	-110.275
	-56.09	118.443	-16.1654	-20.2107	-0.197755	-110.296	-35.8777	-12.9424
0.985	-37.2306	12.0725	-0.215684	-119.183	-15.6222	-29.3029	-54.6104	99.7345
	-0.217789	-119.198	-38.7811	-23.626	-53.8593	98.7551	-15.6207	-29.1386
	-15.6237	-29.2982	-53.758	98.8862	-34.488	-9.8129	-0.202534	-119.286
	-54.587	100.061	-15.6246	-29.1512	-0.206218	-119.306	-36.0769	-21.7086
1.06	-36.9792	14.3292	-0.24211	-128.169	-15.1747	-38.3279	-53.3705	80.9705
	-0.243807	-128.183	-40.7368	-16.5227	-52.566	79.9978	-15.1735	-38.1492
	-15.1754	-38.3221	-52.5103	80.0218	-34.8513	-20.8854	-0.2287	-128.281
	-53.3602	81.254	-15.1765	-38.1581	-0.231983	-128.298	-36.4882	-33.2688
1.135	-36.5696	16.2849	-0.266792	-137.144	-14.7879	-47.3257	-52.2637	62.647
	-0.268237	-137.155	-42.1484	-6.81034	-51.3923	61.6532	-14.7867	-47.1351
	-14.788	-47.32	-51.3496	61.6043	-35.4501	-35.273	-0.253103	-137.266
	-52.2739	62.8187	-14.7892	-47.1398	-0.255955	-137.28	-36.9906	-47.9933
1.21	-36.0416	17.1132	-0.289288	-146.106	-14.4538	-56.2995	-51.2775	44.5933
	-0.290249	-146.116	-43.0961	4.32309	-50.3534	43.3656	-14.4526	-56.0938
	-14.4534	-56.2942	-50.3194	43.3189	-36.0873	-52.9594	-0.27521	-146.238
	-51.2951	44.7001	-14.4545	-56.0961	-0.277689	-146.252	-37.4505	-65.3872
1.285	-35.4146	16.4876	-0.309165	-155.059	-14.1663	-65.2541	-50.4148	26.8122
	-0.309796	-155.068	-43.7561	15.927	-49.4211	25.3753	-14.1652	-65.0315
	-14.1656	-65.2496	-49.4065	25.3142	-36.6048	-73.0042	-0.29488	-155.2
	-50.4364	26.7882	-14.1667	-65.0323	-0.296904	-155.212	-37.7936	-84.5841
1.36	-34.7821	14.2257	-0.326558	-164.004	-13.9207	-74.195	-49.6584	9.2618
	-0.326991	-164.012	-44.1368	28.0621	-48.587	7.53487	-13.9194	-73.9561
	-13.9195	-74.1937	-48.5865	7.51968	-36.9537	-94.4824	-0.31213	-164.156
	-49.6772	9.13291	-13.9208	-73.9573	-0.313772	-164.166	-37.9945	-104.862
1.435	-34.2512	10.1558	-0.341482	-172.942	-13.7128	-83.1235	-48.9986	-8.10558
	-0.341709	-172.949	-44.2222	40.3535	-47.8547	-10.0343	-13.7113	-82.8671
	-13.7108	-83.1257	-47.8504	-9.98185	-37.1195	-116.724	-0.326919	-173.102
	-48.9902	-8.28933	-13.7124	-82.8698	-0.328101	-173.114	-38.045	-125.676
1.51	-33.9074	4.5275	-0.353774	178.129	-13.5387	-92.041	-48.4112	-25.253
	-0.353868	178.12	-44.0027	52.7728	-47.2121	-27.3947	-13.5372	-91.7654
	-13.5364	-92.0483	-47.1986	-27.2838	-37.1082	-139.196	-0.33907	177.96
	-48.3878	-25.4657	-13.5379	-91.7721	-0.339987	177.946	-37.9487	-146.537
1.585	-33.8093	-2.58674	-0.363362	169.204	-13.3956	-100.954	-47.8895	-42.1229
	-0.363399	169.193	-43.3886	64.9204	-46.6387	-44.529	-13.3942	-100.658
	-13.3928	-100.967	-46.6242	-44.3984	-36.9257	-161.498	-0.348524	169.026
	-47.8754	-42.4207	-13.3944	-100.669	-0.349329	169.01	-37.7052	-166.967
1.66	-33.9978	-11.1319	-0.370206	160.281	-13.2807	-109.867	-47.4426	-58.7659
	-0.37021	160.269	-42.1712	76.1793	-46.1353	-61.3979	-13.2792	-109.552
	-13.2774	-109.883	-46.1247	-61.2823	-36.568	176.861	-0.35526	160.094
	-47.4394	-59.1027	-13.2794	-109.565	-0.355878	160.078	-37.3133	173.67
1.735	-34.5394	-20.9239	-0.374043	151.359	-13.1911	-118.782	-47.0726	-75.2044
	-0.374278	151.346	-40.4248	83.5098	-45.6958	-78.0519	-13.1896	-118.448
	-13.1877	-118.799	-45.6869	-77.97	-36.0421	156.428	-0.35894	151.164
	-47.0747	-75.5129	-13.1901	-118.461	-0.359784	151.147	-36.8026	156.04
1.81	-35.4439	-32.6501	-0.375107	142.437	-13.1247	-127.703	-46.7718	-91.384
	-0.375713	142.424	-38.9675	83.6944	-45.3171	-94.5341	-13.1233	-127.349
	-13.1219	-127.718	-45.3115	-94.4968	-35.3586	137.849	-0.359843	142.234
	-46.7699	-91.6868	-13.1244	-127.358	-0.360873	142.216	-36.2303	140.687
1.885	-36.6334	-46.9522	-0.373436	133.516	-13.0799	-136.628	-46.5323	-107.355
	-0.374382	133.501	-38.0481	81.8722	-44.9987	-110.792	-13.0788	-136.248
	-13.0778	-136.64	-44.9985	-110.774	-34.6509	122.15	-0.357821	133.305
	-46.513	-107.623	-13.0804	-136.257	-0.359175	133.284	-35.7317	128.249
1.96	-37.8666	-66.1921	-0.369018	124.594	-13.0551	-145.559	-46.3385	-122.962
	-0.370487	124.576	-37.5325	79.0866	-44.7349	-126.777	-13.0541	-145.157
	-13.0531	-145.571	-44.7328	-126.813	-34.135	109.539	-0.353254	124.376
	-46.3338	-123.274	-13.0563	-145.164	-0.354904	124.352	-35.4491	118.584
2.035	-38.843	-87.1747	-0.380344	115.666	-13.0681	-154.498	-46.259	-138.284
	-0.38217	115.648	-37.2818	76.7299	-44.5823	-142.598	-13.0671	-154.071
	-13.0661	-154.51	-44.5797	-142.674	-34.0092	99.5568	-0.364436	115.44
	-46.2449	-138.598	-13.0699	-154.077	-0.366124	115.415	-35.4531	111.572
2.11	-39.5636	-110.094	-0.390217	106.738	-13.0981	-163.435	-46.2094	-153.228
	-0.392121	106.72	-37.2972	74.5803	-44.4839	-158.145	-13.0975	-162.982
	-13.0963	-163.442	-44.48	-158.248	-34.2405	91.6581	-0.373799	106.505
	-46.2047	-153.516	-13.1002	-162.989	-0.375747	106.479	-35.6714	106.666
2.185	-39.9727	-133.484	-0.397869	97.8089	-13.1422	-172.374	-46.1901	-167.827
	-0.399905	97.7883	-37.5457	73.1155	-44.4038	-173.378	-13.1421	-171.896
	-13.1414	-172.382	-44.4065	-173.557	-34.8203	85.8971	-0.380987	97.5655
	-46.198	-168.082	-13.1453	-171.904	-0.383072	97.5417	-36.0397	103.811
2.26	-40.1344	-157.255	-0.403482	88.8767	-13.1994	178.682	-46.2093	177.833
	-0.405435	88.8549	-37.91	73.0416	-44.3589	171.63	-13.1999	179.187
	-13.199	178.673	-44.3634	171.38	-35.6627	82.8783	-0.386071	88.6229
	-46.2163	177.634	-13.2031	179.177	-0.388083	88.6008	-36.4896	102.9
2.335	-40.0107	179.112	-0.407029	79.9415	-13.2679	169.733	-46.2473	163.857
	-0.408924	79.9194	-38.3794	74.4935	-44.3393	156.819	-13.2685	170.266
	-13.2677	169.725	-44.3435	156.571	-36.5882	83.0402	-0.388947	79.679
	-46.2388	163.717	-13.272	170.256	-0.391077	79.6569	-36.9519	103.727
2.41	-39.6126	155.816	-0.408733	71.0032	-13.3459	160.778	-46.2889	150.182
	-0.410535	70.9802	-38.7795	77.1763	-44.3339	142.216	-13.3467	161.341
	-13.3461	160.77	-44.3431	141.965	-37.3967	85.8817	-0.390093	70.7317
	-46.2672	150.044	-13.3503	161.331	-0.392204	70.7074	-37.3573	105.979
2.485	-38.8794	133.275	-0.408587	62.0605	-13.4317	151.819	-46.3211	136.766
	-0.410214	62.0367	-39.0515	80.8417	-44.343	127.775	-13.4329	152.412
	-13.4321	151.808	-44.3586	127.552	-37.9593	90.5717	-0.389472	61.7788
	-46.2945	136.61	-13.4362	152.399	-0.391438	61.7533	-37.6412	109.494
2.56	-37.8264	112.496	-0.406655	53.1133	-13.5239	142.854	-46.3412	123.594
	-0.408117	53.0885	-39.18	85.3595	-44.3674	113.453	-13.5252	143.475
	-13.5241	142.839	-44.3881	113.282	-38.2488	96.4728	-0.387173	52.8215
	-46.3247	123.433	-13.5282	143.458	-0.38902	52.7953	-37.7541	114.109
2.635	-36.585	94.8865	-0.403132	44.1608	-13.6207	133.879	-46.3541	110.573
	-0.404513	44.1353	-39.1317	90.268	-44.4054	99.2369	-13.6221	134.529
	-13.6207	133.863	-44.423	99.0917	-38.2704	103.062	-0.383447	43.8593
	-46.3485	110.412	-13.6248	134.51	-0.38511	43.8319	-37.6588	119.428
2.71	-35.4663	80.9752	-0.397939	35.2033	-13.7196	124.9	-46.3616	97.5855
	-0.399508	35.1784	-38.9527	95.1709	-44.4449	85.09	-13.7213	125.579
	-13.7199	124.882	-44.4589	84.9612	-38.0125	109.855	-0.378001	34.8922
	-46.3507	97.4949	-13.724	125.556	-0.37968	34.8632	-37.3312	124.931
2.785	-34.7085	68.836	-0.391438	26.2443	-13.8197	115.916	-46.3498	84.6294
	-0.392975	26.2167	-38.6005	99.9854	-44.4802	70.9787	-13.8215	116.624
	-13.8201	115.894	-44.4921	70.823	-37.4714	116.479	-0.371223	25.9246
	-46.3365	84.5237	-13.8243	116.592	-0.372963	25.8912	-36.7805	130.168
2.86	-34.3045	57.8364	-0.383636	17.2792	-13.9189	106.922	-46.3307	71.6545
	-0.385112	17.2496	-38.1036	104.066	-44.5167	56.813	-13.9209	107.659
	-13.9192	106.894	-44.5291	56.6979	-36.643	122.438	-0.36324	16.9507
	-46.3045	71.5411	-13.9239	107.623	-0.364765	16.9136	-36.0373	134.723
2.935	-34.2175	46.9176	-0.374242	8.30589	-14.0161	97.9219	-46.2942	58.4856
	-0.375569	8.27713	-37.4654	107.639	-44.5718	42.534	-14.018	98.6832
	-14.0155	97.8936	-44.5686	42.4712	-35.5204	127.123	-0.353755	7.97046
	-46.2737	58.3336	-14.0206	98.6483	-0.355264	7.93064	-35.1395	138.182
3.01	-34.6024	36.1306	-0.38123	-0.669672	-14.1255	88.9347	-46.2896	45.1807
	-0.382543	-0.698077	-36.7763	109.27	-44.6634	28.1159	-14.1274	89.7238
	-14.1253	88.9071	-44.6622	28.1278	-34.1566	129.317	-0.360715	-1.00925
	-46.2688	44.9592	-14.1302	89.6893	-0.362137	-1.05217	-34.1388	140.333
3.085	-35.338	24.1632	-0.388184	-9.64785	-14.23	79.9433	-46.2844	31.5271
	-0.389629	-9.67693	-36.0862	109.473	-44.7662	13.5475	-14.2322	80.7576
	-14.2303	79.9168	-44.7624	13.4651	-32.7992	128.293	-0.367661	-9.99455
	-46.2799	31.2758	-14.2351	80.7221	-0.369063	-10.0398	-33.1115	141.052
3.16	-36.6569	10.6741	-0.393949	-18.6262	-14.3267	70.9517	-46.3023	17.5344
	-0.395618	-18.6566	-35.587	108.412	-44.8876	-1.38068	-14.3294	71.7867
	-14.3267	70.9219	-44.8775	-1.4845	-31.6294	124.973	-0.373159	-18.9792
	-46.2972	17.3432	-14.3321	71.7503	-0.374765	-19.0255	-32.106	140.405
3.235	-37.9893	-7.84977	-0.398747	-27.6051	-14.4145	61.9556	-46.349	3.19831
	-0.400426	-27.6376	-35.3122	106.884	-45.0188	-16.6525	-14.4174	62.8142
	-14.4143	61.9245	-45.0029	-16.7603	-30.7338	120.213	-0.377499	-27.963
	-46.3383	2.96138	-14.4204	62.7754	-0.379229	-28.0114	-31.1937	138.568
3.31	-39.0869	-30.1183	-0.402502	-36.5889	-14.492	52.9561	-46.425	-11.6137
	-0.404188	-36.6199	-35.2949	105.409	-45.1565	-32.3151	-14.4949	53.8352
	-14.4916	52.9238	-45.1421	-32.4295	-30.104	114.394	-0.380771	-36.9515
	-46.4046	-11.8144	-14.4981	53.7958	-0.382393	-36.9999	-30.4211	135.617
3.385	-39.7478	-54.2617	-0.405142	-45.5734	-14.5581	43.9525	-46.5294	-26.9324
	-0.40674	-45.604	-35.5288	104.704	-45.3101	-48.4846	-14.5615	44.8503
	-14.5574	43.919	-45.2928	-48.5871	-29.7495	107.905	-0.382819	-45.9409
	-46.5127	-27.0849	-14.5645	44.8108	-0.384208	-45.9884	-29.8274	131.892
3.46	-40.0494	-78.6396	-0.406677	-54.5586	-14.6119	34.9437	-46.673	-42.7789
	-0.408167	-54.589	-35.8749	105.493	-45.4765	-65.2279	-14.6159	35.8589
	-14.6111	34.9106	-45.4591	-65.2926	-29.7034	100.932	-0.383618	-54.9308
	-46.6629	-42.8738	-14.6187	35.8216	-0.384847	-54.978	-29.4442	127.717
3.535	-40.0736	-103.408	-0.406975	-63.5466	-14.6526	25.9326	-46.8669	-59.2378
	-0.408584	-63.5746	-36.2209	108.014	-45.6503	-82.5693	-14.6573	26.8607
	-14.6521	25.9001	-45.6325	-82.6647	-30.0184	93.6505	-0.383069	-63.9244
	-46.8652	-59.2755	-14.66	26.8291	-0.384274	-63.9702	-29.2886	123.466
3.61	-39.7747	-127.986	-0.406149	-72.5351	-14.68	16.9217	-47.1124	-76.4468
	-0.407984	-72.5608	-36.4841	111.985	-45.8192	-100.625	-14.6853	17.8601
	-14.6799	16.8873	-45.7957	-100.749	-30.846	86.4805	-0.381202	-72.9188
	-47.1134	-76.4676	-14.6879	17.8324	-0.38247	-72.9632	-29.368	119.664
3.685	-39.2315	-152.265	-0.404451	-81.5224	-14.694	7.91	-47.3948	-94.541
	-0.406455	-81.5488	-36.547	116.815	-45.959	-119.465	-14.6998	8.85952
	-14.6937	7.87269	-45.9463	-119.588	-32.3739	82.1121	-0.378344	-81.9121
	-47.3931	-94.4645	-14.7026	8.83067	-0.37961	-81.9574	-29.6631	116.912
3.76	-38.2963	-176.118	-0.40175	-90.5133	-14.6948	-1.10445	-47.6936	-113.561
	-0.40385	-90.5396	-36.4577	121.971	-46.0633	-139.066	-14.7009	-0.149683
	-14.6943	-1.14213	-46.0535	-139.212	-34.2889	87.782	-0.374441	-90.9124
	-47.6833	-113.447	-14.7038	-0.176858	-0.37574	-90.9571	-30.082	115.783
3.835	-37.0191	161.884	-0.398457	-99.5067	-14.6825	-10.1199	-47.9818	-133.635
	-0.40032	-99.5305	-36.1381	127.396	-46.1102	-159.426	-14.6889	-9.1607
	-14.6815	-10.1543	-46.0946	-159.54	-35.191	95.8329	-0.369826	-99.914
	-47.985	-133.502	-14.6916	-9.18459	-0.37091	-99.9567	-30.4773	116.529
3.91	-35.2013	142.102	-0.394166	-108.499	-14.6575	-19.1346	-48.2198	-154.822
	-0.395735	-108.521	-35.6597	132.221	-46.0781	179.539	-14.6642	-18.1737
	-14.6569	-19.1657	-46.0601	179.504	-35.6342	103.995	-0.364282	-108.915
	-48.2263	-154.693	-14.6671	-18.1952	-0.365166	-108.956	-30.7532	118.604
3.985	-33.6489	128.004	-0.406055	-117.491	-14.6372	-28.1495	-48.4754	-177.043
	-0.407622	-117.511	-34.9492	136.834	-46.0449	157.947	-14.6446	-27.1925
	-14.6368	-28.1789	-46.022	157.853	-35.7379	111.979	-0.375008	-117.918
	-48.4918	-176.835	-14.647	-27.2132	-0.375823	-117.959	-30.8359	121.439
4.06	-32.3484	117.125	-0.418574	-126.474	-14.607	-37.1602	-48.638	159.83
	-0.41999	-126.497	-34.0515	140.05	-45.9115	135.937	-14.6148	-36.2091
	-14.6072	-37.1909	-45.8923	135.835	-35.58	119.927	-0.386148	-126.912
	-48.6523	160.05	-14.6177	-36.2259	-0.387281	-126.955	-30.7397	124.643
4.135	-31.5227	107.363	-0.430228	-135.458	-14.5671	-46.1694	-48.6514	136.093
	-0.431566	-135.481	-32.9956	141.856	-45.6652	113.678	-14.5752	-45.2253
	-14.5677	-46.1998	-45.6558	113.547	-35.1669	127.704	-0.39675	-135.907
	-48.6645	136.304	-14.5785	-45.242	-0.397992	-135.951	-30.4691	127.84
4.21	-30.9191	98.259	-0.440612	-144.44	-14.5184	-55.1734	-48.5216	112.018
	-0.441914	-144.462	-31.9475	141.268	-45.3097	91.322	-14.5263	-54.2367
	-14.5189	-55.1995	-45.2969	91.2547	-34.4741	135.326	-0.406385	-144.903
	-48.5384	112.092	-14.53	-54.2502	-0.407565	-144.943	-30.02	130.749
4.285	-30.6437	89.7391	-0.44972	-153.417	-14.461	-64.1674	-48.2244	87.7196
	-0.450951	-153.438	-31.0054	138.621	-44.8434	69.0898	-14.4691	-63.2381
	-14.4615	-64.1895	-44.8412	69.0813	-33.4294	142.639	-0.414746	-153.89
	-48.2392	87.7658	-14.4735	-63.2513	-0.415914	-153.928	-29.3938	133.011
4.36	-30.5804	81.2691	-0.457733	-162.391	-14.3966	-73.1541	-47.7556	63.5721
	-0.458782	-162.411	-30.2701	134.489	-44.2793	47.1729	-14.4048	-72.2348
	-14.3972	-73.1719	-44.2863	47.1571	-31.794	149.2	-0.42226	-162.875
	-47.7784	63.5985	-14.4095	-72.2482	-0.423223	-162.911	-28.6038	134.11
4.435	-30.7639	73.3958	-0.464509	-171.364	-14.326	-82.1324	-47.144	39.8604
	-0.465271	-171.38	-29.7877	129.436	-43.6384	25.6834	-14.3343	-81.2249
	-14.3264	-82.1462	-43.6437	25.6776	-29.5513	147.916	-0.428498	-171.857
	-47.1764	39.8379	-14.3389	-81.2362	-0.429141	-171.891	-27.713	133.488
4.51	-31.2576	65.5741	-0.469649	179.667	-14.2498	-91.0992	-46.4156	16.7569
	-0.470269	179.654	-29.5824	123.912	-42.9432	4.69752	-14.2583	-90.2055
	-14.2502	-91.1123	-42.9458	4.75505	-27.6601	140.153	-0.433108	179.168
	-46.4415	16.6686	-14.2631	-90.2153	-0.433557	179.135	-26.8444	130.826
4.585	-32.0088	57.8772	-0.473046	170.701	-14.1691	-100.058	-45.5953	-5.57439
	-0.473753	170.69	-29.656	118.176	-42.2122	-15.7061	-14.178	-99.1786
	-14.1695	-100.071	-42.2186	-15.6083	-26.5798	130.373	-0.436069	170.196
	-45.6032	-5.64507	-14.1825	-99.1882	-0.436484	170.164	-26.1239	126.297
4.66	-33.3612	50.9676	-0.475124	161.735	-14.0851	-109.011	-44.7182	-27.0068
	-0.475836	161.726	-30.0137	112.679	-41.4676	-35.4749	-14.0943	-108.145
	-14.0852	-109.021	-41.4748	-35.4005	-25.9824	120.072	-0.437517	161.226
	-44.7255	-27.0546	-14.0983	-108.154	-0.437738	161.195	-25.6344	120.461
4.735	-35.7032	42.179	-0.475571	152.773	-13.9987	-117.961	-43.8271	-47.5128
	-0.476432	152.764	-30.7436	108.221	-40.7349	-54.719	-14.0077	-117.107
	-13.9986	-117.971	-40.7375	-54.6371	-25.7777	109.459	-0.437227	152.261
	-43.8242	-47.565	-14.0117	-117.117	-0.437224	152.229	-25.4186	113.861
4.81	-38.0302	46.7102	-0.4748	143.81	-13.9112	-126.909	-42.9538	-67.1173
	-0.475661	143.803	-31.7351	105.595	-40.0246	-73.5514	-13.9204	-126.068
	-13.911	-126.914	-40.0229	-73.4252	-25.9434	98.5255	-0.435692	143.295
	-42.9495	-67.2288	-13.9235	-126.081	-0.435075	143.265	-25.4886	106.952
4.885	-38.9151	57.4855	-0.472518	134.849	-13.8232	-135.853	-42.1387	-86.0795
	-0.473035	134.843	-32.8562	107.682	-39.3458	-91.9237	-13.8319	-135.029
	-13.8224	-135.858	-39.3452	-91.8024	-26.4964	87.2449	-0.431854	134.333
	-42.1269	-86.1874	-13.8342	-135.037	-0.430886	134.3	-25.8576	100.214
4.96	-39.7051	68.1619	-0.485691	125.892	-13.7526	-144.813	-41.4337	-104.755
