! MARKI MICROWAVE INC.
! Email:             	info@markimicrowave.com   				Phone:   408-778-4200
! Model Number:      	C13-0126						Date:    10/12
! Filename:		C13_0126.S4P						Version: 1.0
! Description:       	4-port S-parameter data for Directional Coupler C13-0126
! Frequency Range: 	10 MHz to 26.5 GHz		
! Port Configuration:	PORT 1: Input 
!			PORT 2: Output 
!			Port 3: Coupled 	
!			Port 4: Isolated

! S4P File: Measurements: Mag<S11> Ang<S11> Mag<S12> Ang<S12> Mag<S13> Ang<S13> Mag<S14> Ang<S14>! row 1 
!			  Mag<S21> Ang<S21> Mag<S22> Ang<S22> Mag<S23> Ang<S23> Mag<S24> Ang<S24>! row 2 
!			  Mag<S31> Ang<S31> Mag<S32> Ang<S32> Mag<S33> Ang<S33> Mag<S34> Ang<S34>! row 3 
!			  Mag<S41> Ang<S41> Mag<S42> Ang<S42> Mag<S43> Ang<S43> Mag<S44> Ang<S44>! row 4

# Hz S  dB   R 50
10000000 -46.443542 -25.373943 -0.024867361 -6.7984643 -46.267097 112.38686 -61.958954 -115.89258
-0.036809571 -6.9803796 -45.872665 10.504516 -67.972778 139.07983 -45.123413 68.048759
-43.430267 101.85647 -69.465965 -79.293579 -44.240406 29.303236 -0.038429089 -7.0087309
-65.12384 -165.76277 -46.213902 92.625938 -0.03720301 -6.9068065 -48.387287 33.284859
43112500 -45.644497 -13.11905 -0.029355222 -9.5451765 -43.418308 103.92378 -63.03236 -117.17055
-0.038400844 -9.6906776 -45.120682 15.446842 -67.86068 156.73907 -42.5145 68.303558
-41.149479 95.413292 -68.847336 -93.1054 -44.008293 30.727522 -0.039312851 -9.6921043
-65.670403 -158.49164 -43.378311 88.003151 -0.038574036 -9.6092749 -47.289036 33.10075
76225000 -44.696712 -1.2179469 -0.033258133 -12.832384 -40.406685 94.826485 -64.191246 -122.45737
-0.040687047 -12.938148 -44.231777 20.017149 -67.803101 172.77962 -39.738922 68.006088
-38.696484 88.43512 -68.086166 -108.16093 -43.530693 31.232656 -0.041281268 -12.917964
-66.309555 -151.47572 -40.369717 82.816719 -0.040783696 -12.854579 -46.11034 32.63871
109337500 -43.647457 10.778003 -0.038919978 -16.66102 -37.257252 85.200691 -65.507355 -124.65587
-0.043350209 -16.728104 -43.264275 24.428764 -67.751892 -171.83334 -36.823193 67.166008
-36.107059 80.889183 -66.79068 -123.39369 -43.071629 30.905743 -0.042890768 -16.682329
-66.467857 -144.61134 -37.225437 77.097061 -0.043455999 -16.636829 -44.942524 32.645023
142450000 -42.611439 22.117117 -0.044805087 -21.022608 -33.990795 75.051933 -66.120346 -126.38331
-0.046024971 -21.065346 -42.192673 28.444721 -67.199112 -156.45638 -33.78624 65.821335
-33.400951 72.848297 -65.484734 -135.61337 -42.690346 29.401001 -0.046363711 -20.984241
-66.536575 -138.39551 -33.95615 70.838539 -0.0466455 -20.95681 -43.744289 31.793758
175562500 -41.338749 33.401432 -0.051016968 -25.927719 -30.611706 64.350708 -66.646629 -131.23463
-0.051177207 -25.94006 -41.006847 32.027416 -66.738335 -142.14656 -30.646935 63.879543
-30.584959 64.241241 -64.097809 -151.2269 -42.117622 29.564617 -0.04874466 -25.834436
-66.269638 -134.61389 -30.585964 64.038673 -0.05039027 -25.819916 -42.356625 29.393471
208675000 -40.226353 30.748898 -0.057055332 -30.800671 -28.628048 59.302887 -65.312309 -140.92265
-0.057230722 -30.810642 -39.912262 29.016649 -64.68515 -146.36671 -28.644922 59.043709
-28.645008 59.451599 -62.81562 -153.99712 -41.157391 25.985609 -0.054234922 -30.699631
-64.843071 -141.72981 -28.633478 59.278446 -0.056244362 -30.678577 -41.190758 25.996115
241787500 -39.175682 28.976486 -0.06236767 -35.672916 -27.127838 54.457256 -63.509865 -146.54489
-0.062996559 -35.669849 -38.918728 26.597078 -61.819992 -158.29527 -27.13813 54.22002
-27.127489 54.488247 -60.773338 -158.88652 -40.260124 23.909012 -0.060234126 -35.558079
-63.801395 -151.51573 -27.13162 54.444038 -0.061096627 -35.536556 -40.231575 23.687584
274900000 -38.425072 26.179647 -0.068883866 -40.538673 -25.888659 49.624363 -61.493328 -154.02715
-0.069559552 -40.527912 -38.048702 22.623302 -60.521347 -163.74142 -25.897829 49.382927
-25.880127 49.56311 -59.657593 -164.04175 -39.480747 20.537867 -0.065492928 -40.411007
-62.135113 -158.0433 -25.877287 49.556274 -0.066241063 -40.385311 -39.452019 20.302658
308012500 -37.64711 23.22193 -0.075246811 -45.392948 -24.834002 44.709072 -60.49844 -160.59586
-0.075535111 -45.373898 -37.229622 18.469429 -59.356583 -172.52231 -24.843044 44.577595
-24.824171 44.672619 -58.889587 -169.29846 -38.698574 17.218868 -0.072007619 -45.260193
-61.1647 -162.35782 -24.815693 44.674183 -0.072133198 -45.233345 -38.751518 17.148373
341125000 -36.990685 20.54694 -0.080563113 -50.238663 -23.914396 39.779591 -59.585567 -168.88167
-0.081367895 -50.232063 -36.551224 14.887998 -58.390671 -179.31139 -23.917383 39.728374
-23.894281 39.788666 -57.782978 -176.88808 -37.847355 13.856829 -0.077997863 -50.109165
-59.961403 -170.157 -23.883768 39.793072 -0.079411149 -50.078136 -37.979797 14.205648
374237500 -36.381992 17.938137 -0.087613136 -55.09214 -23.097681 34.950283 -58.475693 -173.55559
-0.087635636 -55.086643 -36.005836 11.361935 -57.471882 174.63657 -23.096533 34.912148
-23.079988 34.918377 -56.819523 176.93991 -37.292179 10.568036 -0.084599823 -54.953426
-58.531277 -177.11023 -23.067553 34.968536 -0.085586019 -54.923534 -37.300228 11.532101
407350000 -35.915565 14.790359 -0.094414815 -59.938389 -22.361876 30.108143 -57.211525 178.93547
-0.093689911 -59.928413 -35.486202 7.1548061 -56.599438 167.85651 -22.361837 30.090292
-22.345392 30.096386 -56.520603 170.87405 -36.680847 7.5878973 -0.09181942 -59.791012
-57.690929 175.70845 -22.334627 30.142076 -0.092376105 -59.768841 -36.618393 7.7772012
440462500 -35.464798 11.908694 -0.10138377 -64.788872 -21.694571 25.260138 -56.47226 169.43445
-0.10232423 -64.762939 -35.100819 2.8413029 -56.220325 160.744 -21.695831 25.247648
-21.67511 25.220583 -56.17495 161.59254 -36.008198 5.5452127 -0.097226977 -64.631981
-56.77636 168.10738 -21.671808 25.310406 -0.10012056 -64.608948 -35.936039 4.4405503
473575000 -35.110783 8.8420143 -0.10919296 -69.632683 -21.090395 20.419975 -55.729809 161.95612
-0.10826455 -69.60009 -34.712357 -1.5965885 -55.600212 153.3049 -21.085245 20.457611
-21.066469 20.368387 -55.772614 154.1971 -35.539593 1.2320137 -0.10579745 -69.46106
-56.266293 162.58934 -21.064707 20.470051 -0.10731784 -69.441856 -35.457214 2.2706528
506687500 -34.765858 5.7243586 -0.11663701 -74.471283 -20.534248 15.6072 -55.138935 155.1913
-0.11556368 -74.437485 -34.367283 -6.106791 -55.165302 145.17921 -20.527664 15.62034
-20.504007 15.555869 -55.562119 144.56264 -35.082535 -2.6710424 -0.11499801 -74.294853
-55.833511 155.04146 -20.514456 15.619629 -0.11459356 -74.274506 -35.054794 -0.98045659
539800000 -34.467766 1.8900782 -0.12363016 -79.305984 -20.018595 10.764112 -54.851238 147.15053
-0.12340999 -79.270714 -34.054226 -10.105893 -54.96814 136.50084 -20.010918 10.790413
-19.988188 10.702873 -55.250034 138.51099 -34.668919 -6.9496989 -0.12190225 -79.12677
-55.612164 147.37784 -20.00165 10.796 -0.12201307 -79.107635 -34.738079 -4.5076017
572912500 -34.207165 -2.0764799 -0.13067321 -84.136024 -19.539551 5.9348965 -54.540455 140.29054
-0.13066421 -84.11097 -33.876667 -14.180332 -54.702591 129.21049 -19.53887 5.9694285
-19.515863 5.898366 -55.046967 130.84375 -34.339146 -11.142217 -0.13120504 -83.948509
-55.111084 139.63057 -19.527836 5.9806366 -0.12899582 -83.940056 -34.525986 -8.3443317
606025000 -34.06794 -5.6133809 -0.13798727 -88.973579 -19.097115 1.1148313 -54.386253 133.52501
-0.13824926 -88.954468 -33.703918 -18.424856 -54.48954 121.68563 -19.096407 1.1181496
-19.078533 1.092611 -54.637959 122.95387 -34.063107 -15.043534 -0.1382426 -88.77375
-54.799648 131.90317 -19.086447 1.17617 -0.13670737 -88.764465 -34.214027 -11.999862
639137500 -34.007244 -9.2839241 -0.14623779 -93.807304 -18.684212 -3.6951644 -53.953693 127.61762
-0.14673908 -93.779991 -33.586334 -22.777058 -54.435993 113.82928 -18.686359 -3.7214193
-18.669376 -3.7083633 -54.558266 116.8314 -33.903999 -19.262268 -0.14684924 -93.606247
-54.590897 126.32782 -18.680492 -3.6351762 -0.14342262 -93.593323 -34.062241 -15.680227
672250000 -33.940193 -12.881976 -0.15505192 -98.629654 -18.302326 -8.5108109 -53.585972 120.86006
-0.15457086 -98.603737 -33.465446 -27.997183 -54.290104 105.44656 -18.304506 -8.5633078
-18.285347 -8.5305004 -54.568432 108.73929 -33.692814 -23.661469 -0.15422948 -98.43396
-54.447166 119.92378 -18.29904 -8.4784575 -0.15145694 -98.417732 -33.8839 -19.719597
705362500 -33.88892 -16.771044 -0.16183224 -103.45387 -17.944639 -13.312132 -53.388485 113.27287
-0.16222256 -103.43434 -33.368294 -32.519009 -53.967934 98.789474 -17.945259 -13.383957
-17.925125 -13.366109 -54.179649 100.93009 -33.516453 -27.405611 -0.16157685 -103.26115
-54.225571 112.6552 -17.939375 -13.302278 -0.15866719 -103.23598 -33.692421 -23.537197
738475000 -33.704441 -20.192219 -0.1700685 -108.27924 -17.60552 -18.116295 -53.228664 106.22046
-0.16950946 -108.25191 -33.255657 -37.248344 -53.615955 91.272194 -17.609051 -18.210142
-17.590731 -18.176868 -53.813778 92.049477 -33.272594 -31.483631 -0.17027691 -108.07836
-54.013737 106.44578 -17.606436 -18.12521 -0.16537969 -108.0545 -33.479053 -27.509989
771587500 -33.730953 -23.85243 -0.17695937 -113.10103 -17.29076 -22.922773 -53.194103 99.043777
-0.17766872 -113.06713 -33.314224 -41.738754 -53.476948 84.687302 -17.294321 -23.040527
-17.276222 -23.001217 -53.800117 83.910011 -33.021599 -35.126629 -0.17739818 -112.90667
-53.905903 99.603424 -17.290752 -22.93251 -0.17317882 -112.87434 -33.232868 -31.509306
804700000 -33.7201 -27.126226 -0.18488516 -117.9194 -16.991938 -27.749699 -53.186363 92.224686
-0.18553211 -117.8811 -33.298454 -46.481094 -53.430866 76.912666 -16.99979 -27.844337
-16.982182 -27.801241 -53.419392 76.879616 -32.854557 -38.836227 -0.1841056 -117.71535
-53.636726 92.556694 -16.995317 -27.746042 -0.18054327 -117.69356 -33.082996 -36.064919
837812500 -33.795559 -30.44574 -0.19352928 -122.73657 -16.714725 -32.567715 -53.280266 87.3703
-0.19328935 -122.6992 -33.320683 -50.923782 -53.129429 69.960793 -16.72102 -32.654587
-16.702759 -32.599373 -53.108883 68.155457 -32.68045 -42.824497 -0.19151644 -122.52792
-53.475712 85.351585 -16.71714 -32.541557 -0.18829742 -122.50604 -32.892368 -40.351852
870925000 -33.853527 -32.941879 -0.20167871 -127.54634 -16.456722 -37.372478 -53.182053 81.753593
-0.20070873 -127.50945 -33.354317 -55.830143 -52.917953 62.427269 -16.456034 -37.4356
-16.439468 -37.403488 -52.981369 61.663139 -32.508141 -46.28355 -0.19773506 -127.33656
-53.309044 78.96772 -16.456196 -37.354469 -0.19747175 -127.31673 -32.655575 -44.403561
904037500 -33.881157 -36.499725 -0.20979153 -132.353 -16.207848 -42.188541 -52.870766 74.991119
-0.20974348 -132.31308 -33.392475 -60.082523 -52.439335 54.263607 -16.211458 -42.21196
-16.193575 -42.231911 -52.80093 54.456654 -32.316704 -49.889214 -0.20514676 -132.14729
-52.905811 72.116577 -16.211834 -42.167839 -0.20387483 -132.12164 -32.454777 -48.202648
937150000 -33.795567 -39.312424 -0.21779856 -137.15881 -15.977788 -46.998837 -52.600197 67.902542
-0.21718673 -137.11896 -33.462322 -64.855888 -52.205433 46.744038 -15.979144 -46.99419
-15.962802 -47.046318 -52.494621 46.905682 -32.150761 -53.751785 -0.21310957 -136.94867
-52.553596 65.757515 -15.978997 -46.956936 -0.21215276 -136.92513 -32.266117 -52.02792
970262500 -33.878101 -42.156818 -0.22537099 -141.96397 -15.758367 -51.797798 -52.417385 61.391716
-0.22498079 -141.92448 -33.542461 -68.706909 -51.935028 40.00803 -15.761635 -51.78405
-15.744181 -51.849506 -52.134743 40.332592 -31.963167 -56.952168 -0.21954745 -141.74907
-52.288864 58.767406 -15.760989 -51.747726 -0.21970484 -141.72353 -32.057411 -56.005199
1003375000 -33.843857 -44.608391 -0.23400283 -146.77095 -15.554041 -56.614006 -52.036873 54.102322
-0.23381545 -146.72337 -33.69854 -73.287193 -51.68446 32.59354 -15.555664 -56.577675
-15.542915 -56.654682 -51.934429 32.51078 -31.764692 -60.608345 -0.22764562 -146.54437
-52.001114 51.972168 -15.556418 -56.54689 -0.22808149 -146.52243 -31.885069 -60.297676
1036487500 -33.932003 -47.365875 -0.24176441 -151.56483 -15.363194 -61.430298 -51.771355 47.537735
-0.24085362 -151.52325 -33.856037 -77.424034 -51.591694 25.302174 -15.363218 -61.379204
-15.350517 -61.461868 -51.83831 25.671524 -31.6395 -64.023773 -0.23502207 -151.34586
-51.779224 44.370541 -15.364079 -61.334114 -0.23578459 -151.32086 -31.700041 -64.40062
1069600000 -34.017872 -50.126114 -0.25024751 -156.35677 -15.181771 -66.228317 -51.536743 41.596916
-0.2484591 -156.32516 -33.932442 -82.142395 -51.193771 17.292023 -15.18257 -66.165016
-15.170857 -66.248993 -51.393829 17.920404 -31.508202 -67.678307 -0.24157207 -156.12968
-51.386322 37.224503 -15.183006 -66.112663 -0.24276419 -156.11235 -31.552694 -68.248299
1102712500 -34.081184 -53.099895 -0.25754261 -161.15097 -15.012484 -71.025368 -51.15955 33.643093
-0.25547084 -161.12958 -34.079815 -86.635696 -50.886475 9.3137865 -15.010971 -70.964928
-15.000477 -71.053596 -51.088158 9.9337158 -31.360373 -71.549706 -0.24948922 -160.93108
-51.149311 30.46233 -15.013123 -70.911858 -0.25066853 -160.90323 -31.396858 -71.892616
1135825000 -34.153225 -55.763931 -0.26391217 -165.94469 -14.852948 -75.822174 -50.751339 26.657898
-0.26220623 -165.93141 -34.283424 -91.495102 -50.556629 0.76623905 -14.853762 -75.742371
-14.839615 -75.847092 -50.738255 1.726106 -31.221273 -75.661079 -0.25700897 -165.71835
-50.754078 24.288139 -14.852171 -75.709099 -0.25865495 -165.68883 -31.261499 -75.462532
1168937500 -34.32412 -58.778442 -0.27002692 -170.73758 -14.701413 -80.612724 -50.531723 17.119471
-0.2697309 -170.71933 -34.524784 -95.816948 -50.360172 -7.6232347 -14.704443 -80.531807
-14.69287 -80.625298 -50.492821 -7.4253497 -31.159281 -79.919746 -0.26379988 -170.51132
-50.476948 16.18754 -14.7008 -80.491676 -0.26589116 -170.47385 -31.186798 -79.412613
1202050000 -34.529163 -61.269508 -0.2769376 -175.52678 -14.563372 -85.397614 -50.609913 9.7964926
-0.27541006 -175.50748 -34.843838 -100.54526 -50.331264 -15.399869 -14.562957 -85.312889
-14.551546 -85.39682 -50.416355 -16.057283 -31.177057 -83.808792 -0.2712245 -175.29169
-50.403065 8.9449463 -14.559429 -85.274963 -0.27326736 -175.26155 -31.174961 -83.323654
1235162500 -34.771366 -64.047836 -0.28342256 179.67517 -14.432693 -90.183784 -50.515686 2.2543132
-0.28191048 179.70828 -35.192657 -105.75686 -50.124882 -23.056065 -14.429544 -90.091827
-14.420281 -90.170464 -50.272476 -24.474157 -31.156864 -87.546219 -0.27624053 179.92534
-50.301468 0.83971632 -14.428092 -90.06012 -0.2797375 179.95995 -31.119041 -87.570168
1268275000 -35.006161 -66.817184 -0.28945193 174.89108 -14.307036 -94.966507 -50.508366 -6.1182041
-0.28815272 174.92609 -35.554657 -111.15663 -49.948002 -31.656311 -14.305789 -94.870697
-14.297407 -94.93866 -49.955364 -33.034 -31.15597 -91.486572 -0.28363708 175.14607
-50.233582 -7.0968933 -14.304118 -94.828323 -0.28533 175.17758 -31.166903 -91.749626
1301387500 -35.337887 -69.529587 -0.29576004 170.11288 -14.191914 -99.750389 -50.418655 -14.464276
-0.29480329 170.13516 -36.115799 -116.83304 -49.886208 -41.556725 -14.193274 -99.653412
-14.180764 -99.716011 -49.887226 -42.921158 -31.270626 -95.659416 -0.28937256 170.35863
-50.006245 -16.012484 -14.188471 -99.595734 -0.29156837 170.40323 -31.164782 -96.009811
1334500000 -35.677364 -72.060158 -0.30118614 165.32448 -14.084526 -104.52171 -50.354252 -22.916702
-0.30055726 165.34973 -36.679916 -122.4351 -49.691071 -50.091419 -14.087371 -104.42725
-14.072164 -104.49042 -49.772964 -52.409222 -31.338694 -99.536003 -0.29494691 165.58179
-50.029285 -24.151043 -14.079902 -104.36906 -0.29735088 165.62682 -31.278822 -100.01609
1367612500 -36.054501 -74.421494 -0.30670571 160.54219 -13.984237 -109.30148 -50.237366 -32.908035
-0.30693179 160.56805 -37.429596 -126.96633 -49.719376 -58.760365 -13.987247 -109.19888
-13.973557 -109.25318 -49.78006 -60.938206 -31.413523 -103.7639 -0.30192482 160.80368
-49.922901 -32.950432 -13.981792 -109.14481 -0.30403721 160.85316 -31.372597 -104.74132
1400725000 -36.474575 -76.011467 -0.31206274 155.7632 -13.892594 -114.08163 -50.375137 -40.35331
-0.31393191 155.78412 -38.157963 -131.56973 -49.694744 -66.837845 -13.896058 -113.96769
-13.881232 -114.0302 -49.864223 -69.307549 -31.539158 -107.84221 -0.30741495 156.03056
-50.072208 -41.094597 -13.8892 -113.91067 -0.30865645 156.07791 -31.472267 -108.82655
1433837500 -36.826675 -77.575615 -0.31783277 150.98741 -13.806285 -118.8664 -50.311874 -49.730476
-0.31950745 151.01051 -38.928032 -136.55432 -49.673424 -75.063217 -13.809515 -118.74615
-13.797025 -118.79423 -49.942486 -77.692818 -31.774141 -111.93655 -0.31299025 151.25716
-50.165039 -50.004997 -13.80596 -118.68831 -0.31350628 151.30397 -31.669107 -113.19332
1466950000 -37.159897 -79.134293 -0.32376519 146.20396 -13.729623 -123.64371 -50.213181 -57.488403
-0.32358718 146.22453 -39.889107 -143.07816 -49.615051 -83.766075 -13.731812 -123.50845
-13.715452 -123.5778 -49.799332 -85.765541 -31.961445 -116.04056 -0.31873354 146.48463
-49.997509 -57.654865 -13.727449 -123.46717 -0.31753761 146.53302 -31.917877 -117.44498
1500062500 -37.455776 -80.313087 -0.32818598 141.42871 -13.657631 -128.41243 -50.123734 -65.078583
-0.32895717 141.44197 -40.833759 -149.94489 -49.466694 -92.625572 -13.661051 -128.29648
-13.642855 -128.35103 -49.618954 -95.029663 -32.189587 -120.29503 -0.32341215 141.70752
-49.986332 -64.896019 -13.655962 -128.23271 -0.32252917 141.76285 -32.163372 -122.07096
1533175000 -37.822372 -81.081993 -0.3338879 136.65359 -13.592173 -133.17958 -50.187378 -74.000885
-0.33334288 136.65872 -41.98531 -156.40764 -49.279762 -101.98477 -13.595421 -133.07126
-13.576846 -133.12955 -49.357857 -103.34812 -32.456852 -124.63433 -0.32834119 136.93405
-49.950306 -73.061302 -13.591009 -132.99902 -0.3270075 136.98639 -32.488052 -126.61081
1566287500 -38.304905 -81.933014 -0.3387875 131.86775 -13.535975 -137.96184 -49.997108 -82.180641
-0.33847603 131.87259 -43.313137 -164.61737 -49.118031 -110.6451 -13.537664 -137.84245
-13.517331 -137.91249 -49.277424 -111.87052 -32.776287 -128.78775 -0.33286393 132.16306
-49.764385 -81.81852 -13.531726 -137.78523 -0.33254319 132.21474 -32.770081 -131.11372
1599400000 -38.854252 -82.657997 -0.34413218 127.08731 -13.48079 -142.71774 -49.748192 -90.158737
-0.34089538 127.09663 -44.844658 -174.3613 -49.029263 -118.23028 -13.483228 -142.61838
-13.462848 -142.67421 -49.116207 -119.14867 -33.069206 -132.56117 -0.33724922 127.39206
-49.681007 -89.669373 -13.479131 -142.55911 -0.33589265 127.43301 -33.1712 -135.25584
1632512500 -39.237247 -81.886612 -0.34769335 122.30842 -13.431885 -147.48598 -49.787239 -98.225754
-0.34554389 122.31951 -46.063499 168.54173 -48.856705 -127.4901 -13.436162 -147.39182
-13.416125 -147.45569 -48.910122 -126.72442 -33.38871 -136.9906 -0.34158108 122.61569
-49.613613 -97.571205 -13.429976 -147.33115 -0.33959961 122.66185 -33.590637 -139.70412
1665625000 -39.464115 -80.61042 -0.35167667 117.53014 -13.389253 -152.24605 -49.729893 -105.42348
-0.34856972 117.54418 -47.072685 150.52232 -48.671597 -136.72758 -13.396016 -152.14786
-13.371392 -152.22687 -48.604355 -135.51093 -33.82486 -140.82784 -0.34545594 117.84765
-49.776337 -105.71799 -13.385929 -152.10048 -0.34242702 117.88416 -34.064285 -143.79457
1698737500 -39.918041 -79.038818 -0.35566074 112.74806 -13.35018 -157.01039 -49.372665 -115.34364
-0.35145986 112.77348 -47.805897 129.56322 -48.453804 -146.63109 -13.358569 -156.91165
-13.333704 -156.99542 -48.477142 -145.33594 -34.33009 -144.49667 -0.34856975 113.08033
-49.551601 -115.00372 -13.345335 -156.87259 -0.34679797 113.11763 -34.619984 -148.14009
1731850000 -40.139942 -78.322968 -0.3597489 107.97343 -13.31862 -161.76514 -49.517078 -122.83208
-0.35457069 107.99394 -48.452545 110.03179 -48.418419 -155.56874 -13.326586 -161.68605
-13.301478 -161.78223 -48.277802 -154.20718 -34.885105 -147.87508 -0.35238332 108.30429
-49.51572 -123.14569 -13.311141 -161.64023 -0.3507683 108.34978 -35.217403 -152.53377
1764962500 -40.302582 -76.723579 -0.36097685 103.20309 -13.289282 -166.54103 -49.681168 -131.19498
-0.35788634 103.22562 -48.629601 89.013412 -48.377266 -165.29442 -13.296656 -166.46056
