! MARKI MICROWAVE INC.
! Email:             	info@markimicrowave.com   				Phone:   408-778-4200
! Model Number:      	C16-0667						Date:    12/13
! Filename:		C16_0667.S4P						Version: 1.0
! Description:       	4-port S-parameter data for Directional Coupler C16-0667
! Frequency Range: 	10 MHz to 67 GHz		
! Port Configuration:	PORT 1: Input 
!			PORT 2: Output 
!			Port 3: Coupled 	
!			Port 4: Isolated
!
! S4P File: Measurements: Mag<S11> Ang<S11> Mag<S12> Ang<S12> Mag<S13> Ang<S13> Mag<S14> Ang<S14>! row 1 
!			  Mag<S21> Ang<S21> Mag<S22> Ang<S22> Mag<S23> Ang<S23> Mag<S24> Ang<S24>! row 2 
!			  Mag<S31> Ang<S31> Mag<S32> Ang<S32> Mag<S33> Ang<S33> Mag<S34> Ang<S34>! row 3 
!			  Mag<S41> Ang<S41> Mag<S42> Ang<S42> Mag<S43> Ang<S43> Mag<S44> Ang<S44>! row 4

# Hz S  dB   R 50
10000000 -42.344273 76.201126 0.0058386554 -7.4603853 -44.914845 34.128948 -64.58609 127.50086
-0.012401887 -7.3068628 -42.292271 75.008774 -64.256752 -148.8203 -55.401463 113.85043
-54.561642 173.3114 -66.147873 -38.834351 -43.882797 53.084309 -0.021758145 -7.4238367
-62.129208 -148.40984 -52.355885 -179.99953 -0.027431827 -7.4867482 -41.78941 64.123138
93737500 -41.949219 71.182693 0.0019376442 -10.595594 -44.276649 40.841698 -66.538139 123.8989
-0.01199334 -10.473291 -41.92408 71.520447 -66.361061 -155.35075 -52.684826 104.61864
-52.015316 152.12737 -67.274704 -67.88974 -43.148327 50.824696 -0.025691103 -10.616965
-64.099258 -149.07283 -50.243858 157.34074 -0.030514531 -10.669926 -41.567066 58.684624
177475000 -41.425949 65.642891 -0.0010587588 -14.375628 -43.477428 46.845524 -67.957596 118.07182
-0.010782371 -14.28385 -41.35421 67.643166 -68.096092 -158.66586 -49.795868 94.532333
-49.3009 130.34412 -68.299309 -89.0886 -42.305317 48.389065 -0.029501008 -14.45723
-66.648994 -148.66588 -47.978569 134.14801 -0.033102632 -14.499715 -41.183094 53.014755
261212500 -40.840912 59.604492 -0.0034427659 -18.801388 -42.505127 52.376892 -69.608002 108.91535
-0.0092540579 -18.737984 -40.635174 63.516834 -70.406433 178.48692 -46.761429 83.907097
-46.438004 107.90392 -69.348404 -119.24665 -41.414627 45.464836 -0.034082334 -18.942644
-69.985764 -155.12265 -45.558224 110.21872 -0.036762133 -18.972605 -40.792023 46.115883
344950000 -40.122738 52.544628 -0.0053813537 -23.866776 -41.406002 57.072708 -71.112259 101.2542
-0.0079110144 -23.83621 -39.792526 58.595394 -71.787407 163.04675 -43.601437 72.583946
-43.453194 84.731262 -70.087738 -152.09155 -40.481789 41.698074 -0.039341535 -24.071594
-71.576462 -159.2477 -43.026047 85.54509 -0.040931549 -24.087509 -40.328175 38.325954
428687500 -39.391457 45.149345 -0.0073752198 -29.576822 -40.203125 61.189117 -72.335426 92.539833
-0.0059926291 -29.579479 -38.866196 53.07354 -74.136169 154.95236 -40.323799 60.654476
-40.358959 60.959652 -72.384171 178.474 -39.477032 37.537788 -0.045421138 -29.843809
-73.484444 -164.96957 -40.382507 60.347862 -0.045053609 -29.845461 -39.879059 29.979374
512425000 -38.014763 40.57589 -0.0054683434 -35.350735 -38.125896 55.084625 -71.538536 84.595757
-0.0035055587 -35.350056 -37.106472 49.491962 -72.527527 151.66377 -38.236332 54.451176
-38.229221 55.235287 -71.754707 144.26324 -38.365963 33.24279 -0.050535895 -35.637669
-72.810844 167.06682 -38.260357 54.313709 -0.049246486 -35.635967 -38.869217 23.969395
596162500 -36.949856 35.735863 -0.003734658 -41.13765 -36.596405 49.129143 -70.711441 75.249466
-0.0019004343 -41.131859 -35.74511 44.803654 -71.454323 138.11078 -36.638313 48.689682
-36.600204 49.226524 -71.495224 125.95747 -37.503181 27.702005 -0.056185089 -41.431896
-71.509544 146.98219 -36.585533 48.67712 -0.053604364 -41.424667 -38.151337 17.987509
679900000 -36.103676 30.751137 -0.0023609595 -46.931526 -35.297276 43.008827 -70.000671 75.347168
-1.342821e-005 -46.923645 -34.566029 39.303616 -69.824905 130.94051 -35.32338 42.968746
-35.306438 43.149845 -70.539627 125.87658 -36.929066 22.496023 -0.060777325 -47.229084
-70.958672 114.44345 -35.302074 42.94537 -0.058232684 -47.22208 -37.685616 12.18653
763637500 -35.415047 24.831541 -0.0013242129 -52.731743 -34.164291 37.270412 -68.068863 82.251595
0.00047628226 -52.725201 -33.654961 32.946712 -68.394096 114.50722 -34.223587 37.340263
-34.203453 37.260414 -69.830658 123.98956 -36.53994 16.81015 -0.065348364 -53.024414
-69.970673 96.944458 -34.174 37.164871 -0.062885813 -53.018818 -37.418781 5.6670599
847375000 -34.911095 18.950346 -0.00071590499 -58.538395 -33.19112 31.389723 -67.151947 72.785774
0.0011267132 -58.53347 -32.891315 26.325336 -67.177193 99.905304 -33.249546 31.438032
-33.238419 31.435884 -68.989929 112.32007 -36.268085 11.779114 -0.069525778 -58.819412
-69.135063 84.246544 -33.224396 31.439398 -0.066669159 -58.814896 -37.21674 -1.3604784
931112500 -34.566319 12.767478 -0.00169744 -64.345505 -32.308239 25.563513 -66.349579 63.322487
0.00051442976 -64.341751 -32.342415 19.205976 -66.229385 79.014359 -32.380524 25.697418
-32.374622 25.563078 -68.131516 91.934509 -36.157391 6.2439175 -0.073743738 -64.609779
-67.773346 69.693329 -32.358524 25.614456 -0.070130564 -64.604736 -37.25563 -9.0660276
1014850000 -34.293011 6.4602208 -0.0032667208 -70.152603 -31.544081 19.572651 -65.232246 56.204792
-0.00088737143 -70.152023 -32.006744 11.291443 -64.594093 76.635796 -31.59688 19.896446
-31.607729 19.67898 -66.776649 77.270508 -36.187176 0.25140154 -0.078204691 -70.400009
-65.667542 59.201881 -31.592766 19.814413 -0.072505437 -70.394852 -37.403412 -16.72492
1098587500 -34.19685 0.32765684 -0.006401089 -75.963539 -30.85314 13.797444 -64.356216 47.526104
-0.0027447962 -75.963661 -31.849508 3.0506971 -63.754112 65.077988 -30.882853 14.093408
-30.900711 13.915531 -65.834625 65.93985 -36.352871 -5.7193761 -0.082207948 -76.193214
-64.965675 47.677834 -30.879782 14.166399 -0.075655498 -76.191406 -37.758949 -24.563688
1182325000 -34.193939 -6.5737438 -0.0099539412 -81.77636 -30.207649 7.9209857 -63.621487 37.323544
-0.0058051329 -81.774506 -31.895977 -5.421453 -62.023628 45.332111 -30.229771 8.2855511
-30.250254 8.0959196 -63.331947 49.203575 -36.738289 -12.105513 -0.084918417 -81.986404
-63.735359 34.306675 -30.227367 8.3889942 -0.078710526 -81.988411 -38.203636 -33.667839
1266062500 -34.409187 -13.893949 -0.014341293 -87.587311 -29.612722 2.0563178 -61.662853 28.889996
-0.010063273 -87.582848 -32.149376 -14.13853 -61.169956 35.586117 -29.627672 2.4921389
-29.645794 2.1720567 -62.220997 37.162861 -37.306644 -19.194218 -0.088249244 -87.782715
-62.183632 28.365425 -29.622042 2.5467436 -0.08230117 -87.785995 -38.817749 -44.683777
1349800000 -34.787018 -21.947529 -0.01951121 -93.395264 -29.053135 -3.7359269 -61.335873 20.396055
-0.014560848 -93.388481 -32.637665 -23.315439 -59.951214 25.616566 -29.053566 -3.2858212
-29.082069 -3.6399953 -61.102535 25.262655 -38.212166 -27.015347 -0.090618379 -93.577911
-61.367058 17.436831 -29.057989 -3.286155 -0.086265832 -93.58654 -39.666561 -57.264591
1433537500 -35.359867 -30.129137 -0.024835985 -99.199745 -28.539322 -9.5292072 -59.940716 9.9965115
-0.020250754 -99.190651 -33.279514 -32.778393 -59.133137 13.464149 -28.521498 -9.0520144
-28.566166 -9.4529533 -59.9361 12.063564 -39.63036 -36.778366 -0.093682021 -99.370743
-60.139442 7.5889816 -28.541012 -9.0586147 -0.088737965 -99.380432 -40.308525 -71.700195
1517275000 -36.164452 -39.376724 -0.030495388 -105.00047 -28.061274 -15.372244 -59.313213 0.39680523
-0.025996048 -104.99013 -34.194675 -43.694183 -58.153011 0.060645811 -28.026199 -14.891309
-28.07863 -15.216068 -58.688568 0.20466015 -41.165333 -50.862186 -0.095515385 -105.16591
-59.521969 -3.8214004 -28.056816 -14.840402 -0.090921916 -105.18014 -40.788898 -87.927666
1601012500 -37.091564 -50.520737 -0.036714204 -110.79374 -27.606037 -21.139511 -58.312576 -11.058788
-0.032058988 -110.78423 -35.413692 -55.595028 -57.556847 -12.884243 -27.572687 -20.736973
-27.627426 -21.046381 -57.794754 -10.980247 -42.766098 -68.205009 -0.097667426 -110.96474
-58.779106 -15.103323 -27.595638 -20.667723 -0.092663944 -110.97514 -41.125099 -104.79501
1684750000 -38.183483 -65.026039 -0.04211444 -116.58596 -27.185595 -26.855917 -57.601593 -21.408466
-0.038473934 -116.57481 -36.859673 -71.373161 -56.940899 -23.995291 -27.142561 -26.522593
-27.202724 -26.846809 -57.059811 -23.464767 -43.532578 -89.897934 -0.099362373 -116.76492
-57.687675 -26.999615 -27.167706 -26.493383 -0.095117204 -116.77534 -41.073078 -122.66447
1768487500 -39.259689 -82.588036 -0.048803836 -122.37203 -26.783979 -32.631123 -57.042694 -32.901638
-0.045111787 -122.36246 -38.179192 -89.03434 -56.44796 -35.568562 -26.736595 -32.35022
-26.793888 -32.604122 -56.676754 -33.920948 -43.947285 -112.09531 -0.10121679 -122.56384
-56.64146 -37.346375 -26.75235 -32.251663 -0.097787648 -122.57447 -40.831676 -141.13884
1852225000 -40.170284 -101.73789 -0.054726884 -128.15248 -26.397045 -38.436237 -56.210232 -45.429619
-0.05218026 -128.14082 -39.163052 -108.58416 -56.057961 -46.367939 -26.351591 -38.095673
-26.410698 -38.388496 -56.146805 -46.248367 -44.027115 -134.756 -0.10306326 -128.36111
-55.849289 -49.880375 -26.365335 -38.068581 -0.099723049 -128.36703 -40.338535 -159.44719
1935962500 -40.632313 -122.0307 -0.061223131 -133.92542 -26.038521 -44.170116 -55.446487 -56.881725
-0.059407357 -133.91702 -39.766632 -129.19968 -55.37508 -58.507053 -25.992815 -43.868557
-26.048861 -44.20792 -55.568893 -58.285263 -43.633343 -157.3483 -0.10549663 -134.15688
-55.230934 -60.662354 -25.992605 -43.882896 -0.1021911 -134.16539 -39.55867 -177.38283
2019700000 -40.709225 -142.72079 -0.067626111 -139.6936 -25.692795 -49.891949 -54.922722 -67.062195
-0.065577395 -139.68568 -40.099434 -149.88858 -54.946037 -70.34967 -25.643183 -49.653542
-25.693634 -49.962818 -55.020191 -68.481369 -42.95623 -179.71439 -0.10766894 -139.95341
-54.504963 -72.570648 -25.644405 -49.658741 -0.10469391 -139.96162 -38.551964 166.64015
2103437500 -40.384926 -163.26369 -0.072239764 -145.45912 -25.359541 -55.647335 -53.901859 -78.050667
-0.071887463 -145.45245 -39.980633 -170.54024 -54.262566 -81.273994 -25.312262 -55.475506
-25.372694 -55.699165 -54.305397 -79.163376 -41.782635 158.65692 -0.11008423 -145.74774
-54.056477 -83.3657 -25.31929 -55.462433 -0.10742011 -145.75745 -37.223957 152.15237
2187175000 -39.726715 175.81155 -0.07693702 -151.22508 -25.050323 -61.437115 -53.367489 -89.831238
-0.077245645 -151.21544 -39.536812 168.99362 -53.764565 -92.307297 -24.997419 -61.278172
-25.055494 -61.466259 -53.663151 -89.784294 -39.900909 138.68416 -0.11265077 -151.54543
-53.340794 -93.539474 -25.003881 -61.278137 -0.11026989 -151.55693 -36.008034 139.14182
2270912500 -38.710514 155.87245 -0.082266547 -156.98549 -24.752687 -67.216263 -52.710003 -101.45832
-0.082267329 -156.98006 -38.681545 149.9574 -53.095684 -102.88133 -24.703409 -67.089905
-24.76054 -67.277512 -53.110455 -101.71328 -37.787445 122.63898 -0.11649697 -157.34419
-52.738487 -103.75595 -24.701071 -67.032356 -0.1133959 -157.35306 -34.830662 128.06255
2354650000 -37.425552 137.65901 -0.086726256 -162.75031 -24.464602 -73.000046 -52.060043 -112.9854
-0.086613901 -162.74464 -37.400814 132.12167 -52.492737 -113.96328 -24.413881 -72.852524
-24.471291 -73.051712 -52.533772 -113.70427 -35.503689 109.89941 -0.12032653 -163.13831
-52.072666 -114.97356 -24.419374 -72.822357 -0.11719619 -163.15082 -33.643238 117.98586
2438387500 -35.828182 122.68871 -0.091238312 -168.51184 -24.186365 -78.812622 -51.572025 -124.63986
-0.09093108 -168.51073 -35.749886 118.25529 -52.000126 -125.3053 -24.143248 -78.637161
-24.19602 -78.826286 -51.910671 -124.44678 -33.915058 101.48782 -0.12554955 -168.9328
-51.634983 -125.82703 -24.143648 -78.609642 -0.1213478 -168.94493 -32.712761 109.01714
2522125000 -34.166359 110.62135 -0.095687516 -174.27519 -23.919397 -84.56601 -51.016556 -135.33562
-0.095276155 -174.27335 -34.067455 106.47947 -51.389378 -135.85983 -23.879787 -84.412094
-23.932533 -84.620987 -51.276859 -135.31075 -32.49202 93.630997 -0.12932689 -174.72821
-51.097015 -136.56319 -23.884117 -84.410225 -0.12589632 -174.74316 -31.796839 101.10181
2605862500 -32.496796 100.25087 -0.10078382 179.95583 -23.67087 -90.320045 -50.584927 -146.0715
-0.098855712 179.95763 -32.572235 96.885628 -50.8405 -146.42729 -23.630159 -90.216148
-23.680708 -90.443237 -50.660427 -145.99538 -31.244503 86.393394 -0.13412572 179.48079
-50.577076 -147.10474 -23.635592 -90.206116 -0.12983558 179.46133 -30.949959 93.473732
2689600000 -31.11092 91.267418 -0.10482624 174.18808 -23.426552 -96.114876 -50.123314 -156.63791
-0.10237844 174.18741 -31.258011 88.667915 -50.338486 -156.16188 -23.386955 -96.025818
-23.435392 -96.179657 -49.998947 -156.25998 -30.280485 79.162231 -0.13895345 173.68665
-49.951603 -157.23198 -23.39863 -96.025719 -0.1345557 173.6722 -30.237293 86.58506
2773337500 -29.909388 82.965004 -0.10885775 168.42148 -23.192068 -101.90823 -49.481758 -168.05881
-0.10720585 168.41502 -30.043297 81.043968 -49.757145 -166.52184 -23.156132 -101.80976
-23.202347 -101.94056 -49.413643 -166.86374 -29.39835 72.176888 -0.14389054 167.89691
-49.460941 -167.57602 -23.163305 -101.81214 -0.13892344 167.88219 -29.583809 79.85437
2857075000 -28.942801 75.097374 -0.11420097 162.65515 -22.969614 -107.69189 -49.060715 -178.47058
-0.11201885 162.64063 -29.010489 73.968727 -49.287205 -176.98653 -22.93384 -107.56517
-22.971058 -107.71461 -48.830734 -177.60434 -28.667177 65.309296 -0.14927223 162.10365
-48.970695 -177.69948 -22.936386 -107.5836 -0.14357744 162.0909 -29.019842 73.163872
2940812500 -28.080711 67.588211 -0.11903796 156.89108 -22.756866 -113.45615 -48.53928 171.6188
-0.11654598 156.87219 -28.145416 67.080574 -48.749012 172.55077 -22.722025 -113.33504
-22.756275 -113.49997 -48.391243 172.13591 -28.063225 58.62495 -0.1532952 156.31833
-48.575111 172.00288 -22.719501 -113.35389 -0.14786346 156.30112 -28.53076 66.720932
3024550000 -27.345762 60.404896 -0.12314526 151.12358 -22.546375 -119.21866 -48.042892 162.94237
-0.1202 151.10884 -27.38238 60.435066 -48.379246 162.3763 -22.509964 -119.09888
-22.548098 -119.25144 -47.973068 162.47519 -27.560186 52.313782 -0.15671898 150.53542
-48.199463 162.2979 -22.513758 -119.15643 -0.15241544 150.51549 -28.109365 60.501549
3108287500 -26.68487 53.460426 -0.12806778 145.35934 -22.34395 -124.96799 -47.6689 153.09494
-0.12460348 145.34637 -26.719116 53.903553 -47.985092 152.16577 -22.308273 -124.86895
-22.347208 -124.98536 -47.590954 152.36713 -27.118853 45.990215 -0.16081071 144.7506
-47.691395 152.84525 -22.308123 -124.91328 -0.15606812 144.73532 -27.768614 54.100449
3192025000 -26.11931 46.759445 -0.13305411 139.59792 -22.150112 -130.71704 -47.258175 143.49127
-0.12870517 139.58727 -26.146687 47.512371 -47.545685 142.57974 -22.111637 -130.61961
-22.155415 -130.75934 -47.160126 142.38539 -26.749817 39.573673 -0.1641193 138.96988
-47.283314 143.78766 -22.116966 -130.71346 -0.16069876 138.9552 -27.456404 47.895542
3275762500 -25.591467 40.093796 -0.13791826 133.83992 -21.963974 -136.46245 -46.828571 133.73637
-0.13206874 133.82816 -25.636955 41.283363 -47.119347 132.4225 -21.925783 -136.37979
-21.963911 -136.50626 -46.757534 132.47879 -26.465635 33.473251 -0.16828097 133.19008
-46.872887 134.77245 -21.930897 -136.45969 -0.16509144 133.17735 -27.223013 41.721569
3359500000 -25.174183 33.529922 -0.14195131 128.08878 -21.780228 -142.19429 -46.431305 124.17371
-0.1358552 128.07486 -25.196264 35.118183 -46.657417 122.48092 -21.744286 -142.12933
-21.781387 -142.20949 -46.437813 122.365 -26.261406 27.331724 -0.17210498 127.40836
-46.483109 125.29583 -21.74814 -142.21094 -0.16905327 127.39892 -27.041111 35.622997
3443237500 -24.811138 27.190485 -0.14695831 122.3363 -21.605061 -147.92738 -46.10965 115.26708
-0.13890564 122.32328 -24.807299 28.914318 -46.335693 112.86592 -21.571737 -147.89398
-21.609665 -147.97643 -46.201382 112.61597 -26.108978 21.252151 -0.17574967 121.6288
-46.168549 116.15614 -21.573702 -147.92638 -0.17283495 121.62296 -26.905416 29.577469
3526975000 -24.493279 20.754271 -0.15154739 116.58497 -21.435438 -153.66911 -45.730312 106.00833
-0.14252661 116.57075 -24.471655 22.848568 -46.006012 103.08918 -21.401257 -153.65501
-21.441599 -153.73251 -45.903542 102.84389 -26.017263 15.35188 -0.17907208 115.85095
-45.789509 106.41199 -21.407932 -153.69064 -0.17675659 115.84924 -26.819754 23.551775
3610712500 -24.226233 14.498028 -0.1559478 110.83253 -21.268194 -159.4077 -45.431881 96.937836
-0.14504129 110.82388 -24.197735 16.849909 -45.65144 93.406281 -21.239508 -159.42819
-21.277361 -159.48462 -45.583317 93.506775 -25.991329 9.5037699 -0.1822155 110.07642
-45.491749 96.847374 -21.24646 -159.43344 -0.17994252 110.07804 -26.783335 17.673756
3694450000 -24.021467 8.3498745 -0.16089238 105.08065 -21.105841 -165.15454 -45.156086 87.881065
-0.14909415 105.07332 -23.973083 11.010707 -45.334721 83.923058 -21.080685 -165.17952
-21.117077 -165.22266 -45.327259 83.806129 -26.019285 3.5795143 -0.18726043 104.30244
-45.155689 87.456909 -21.090282 -165.18587 -0.18518214 104.3126 -26.80971 11.748446
3778187500 -23.849571 2.2120092 -0.16499323 99.333893 -20.950514 -170.90047 -44.930164 78.544975
-0.15323597 99.32457 -23.805984 5.0756764 -45.093624 74.389893 -20.928295 -170.93094
-20.961973 -170.97829 -45.108891 74.821381 -26.11594 -2.3464222 -0.19263974 98.529373
-44.81525 78.435028 -20.939177 -170.91551 -0.19017424 98.540131 -26.881739 5.8905506
3861925000 -23.737478 -3.9281852 -0.16913204 93.590172 -20.800665 -176.63814 -44.6931 69.231178
-0.15693119 93.576729 -23.667112 -0.82928425 -44.825073 65.026115 -20.782207 -176.66661
-20.809977 -176.74905 -44.829754 65.499825 -26.268545 -8.1090536 -0.19796507 92.760544
-44.594044 69.376129 -20.796417 -176.67099 -0.19450361 92.768303 -27.014225 0.036634553
3945662500 -23.657856 -9.9985876 -0.17356214 87.846428 -20.655231 177.60655 -44.482765 59.930027
-0.16073689 87.827362 -23.584841 -6.6880589 -44.574532 55.882339 -20.642942 177.59334
-20.661367 177.51318 -44.602005 56.158619 -26.472801 -13.498868 -0.2028058 86.990677
-44.298912 59.970413 -20.652876 177.61409 -0.19805311 86.997261 -27.20899 -5.9502788
4029400000 -23.620245 -15.901907 -0.17678902 82.099411 -20.513702 171.85594 -44.191429 50.911263
-0.16469997 82.077553 -23.541178 -12.529523 -44.375492 46.911133 -20.506752 171.83412
-20.521917 171.73994 -44.445168 47.171188 -26.739555 -18.823254 -0.20783298 81.220314
-44.033989 50.694508 -20.517012 171.85439 -0.20197642 81.230476 -27.449554 -11.818735
4113137500 -23.630529 -21.949978 -0.1800283 76.351768 -20.376251 166.09029 -43.947548 41.734562
-0.16906396 76.328194 -23.538754 -18.213854 -44.160809 37.846176 -20.374521 166.09706
-20.384888 165.9646 -44.196693 38.125957 -27.052053 -23.914627 -0.21201149 75.451859
-43.797081 41.273857 -20.38339 166.10725 -0.20768577 75.464096 -27.734669 -17.896387
4196875000 -23.67395 -27.814796 -0.18250708 70.601143 -20.243984 160.33363 -43.710438 32.525646
-0.17240459 70.580246 -23.589796 -24.043066 -43.983337 28.535128 -20.243921 160.3605
-20.249094 160.22125 -43.951172 29.120853 -27.411608 -28.874372 -0.21694832 69.682098
-43.573093 32.124355 -20.253374 160.35912 -0.21200283 69.694908 -28.083647 -23.98148
4280612500 -23.749565 -33.572872 -0.18511529 64.852501 -20.114304 154.57649 -43.544735 23.62335
-0.17490421 64.833435 -23.670776 -29.795092 -43.833614 19.618685 -20.11727 154.61237
-20.120138 154.45868 -43.817078 20.316048 -27.833775 -33.612598 -0.22092971 63.912483
-43.39938 23.356579 -20.128447 154.61229 -0.21560229 63.923161 -28.491156 -30.032465
4364350000 -23.85808 -39.368111 -0.18686597 59.108383 -19.990017 148.81001 -43.327042 14.59706
-0.17751458 59.083618 -23.797136 -35.542992 -43.711491 10.474833 -19.99828 148.87569
-19.997469 148.6925 -43.675114 11.402886 -28.293636 -38.127846 -0.2245418 58.146065
-43.160103 14.533428 -20.004936 148.83492 -0.22026585 58.156704 -28.939331 -36.195526
4448087500 -24.000362 -45.088791 -0.18764636 53.359413 -19.86993 143.04732 -43.15881 5.9437413
-0.1787892 53.334801 -23.963518 -41.295849 -43.596107 1.4335552 -19.879543 143.11852
