! MARKI MICROWAVE INC.
! Email:             	info@markimicrowave.com   				Phone:   408-778-4200
! Model Number:      	C10-0226						Date:    10/12
! Filename:		C10-0226.S4P						Version: 1.0
! Description:       	4-port S-parameter data for Directional Coupler C10-0226
! Frequency Range: 	10 MHz to 26.5 GHz		
! Port Configuration:	PORT 1: Input
!			PORT 2: Output 
!			Port 3: Coupled 
!			Port 4: Isolated

! S4P File: Measurements: Mag<S11> Ang<S11> Mag<S12> Ang<S12> Mag<S13> Ang<S13> Mag<S14> Ang<S14>! row 1 
!			  Mag<S21> Ang<S21> Mag<S22> Ang<S22> Mag<S23> Ang<S23> Mag<S24> Ang<S24>! row 2 
!			  Mag<S31> Ang<S31> Mag<S32> Ang<S32> Mag<S33> Ang<S33> Mag<S34> Ang<S34>! row 3 
!			  Mag<S41> Ang<S41> Mag<S42> Ang<S42> Mag<S43> Ang<S43> Mag<S44> Ang<S44>! row 4

# Hz S  dB   R 50
10000000 -33.941967 68.556572 -51.107403 59.330486 -0.024105243 -8.0776491
-48.198025 70.628014 -31.621504 18.949644 -63.173492 108.44756
-0.031713463 -8.200449 -60.407059 -37.013477 -33.714172 62.564724
42487500 -36.106026 55.609997 -47.961929 62.704445 -0.02848633 -10.311759
-45.631786 71.717087 -31.940693 8.8456669 -62.973881 98.556595
-0.034338273 -10.410414 -60.749317 -18.414114 -35.654945 51.084579
74975000 -38.160007 41.588245 -44.644756 65.774094 -0.032736201 -13.04565
-42.90126 72.485558 -32.231842 -2.4211648 -62.455654 88.934349
-0.036761474 -13.115375 -60.759083 -0.76508099 -37.559235 37.294991
107462500 -40.126858 25.180166 -41.196571 68.494698 -0.038087655 -16.273142
-40.025696 72.912575 -32.521954 -14.716265 -61.728149 77.423866
-0.039942119 -16.321106 -60.90678 16.681446 -39.382168 22.30858
139950000 -42.138718 6.9714346 -37.61784 70.863159 -0.042659834 -20.000891
-37.031937 72.917114 -32.787415 -28.04775 -60.773979 64.285675
-0.042698473 -20.020451 -60.886539 32.092682 -41.180843 5.7961531
172437500 -43.969814 -13.618867 -33.941555 72.876205 -0.048077155 -24.227346
-33.942268 72.675041 -33.003384 -42.492832 -59.900002 50.550625
-0.046461925 -24.218187 -60.556828 47.198296 -42.73476 -11.674415
204925000 -44.368362 -31.511969 -31.953701 69.668373 -0.051786665 -28.66501
-31.929876 69.597198 -32.825344 -53.089157 -57.754356 38.650139
-0.050281264 -28.657629 -58.446037 42.046066 -42.941963 -27.717522
237412500 -44.093262 -47.657387 -30.433954 66.647423 -0.055329498 -33.133205
-30.439259 66.496696 -32.654186 -63.194031 -57.198792 29.694725
-0.054697208 -33.122719 -57.466591 37.596451 -42.488869 -42.392014
269900000 -43.544636 -62.326462 -29.180506 63.499676 -0.060310505 -37.60437
-29.191122 63.360558 -32.478073 -72.773056 -55.848179 22.520569
-0.059370879 -37.594921 -56.107658 30.060366 -41.809017 -55.281071
302387500 -42.839916 -75.663452 -28.128157 60.312649 -0.065189198 -42.074005
-28.130934 60.176064 -32.294975 -82.138222 -54.832333 15.431243
-0.064237133 -42.068562 -54.976822 20.614672 -40.990131 -66.722221
334875000 -42.007687 -87.4533 -27.201221 57.195374 -0.070645683 -46.548203
-27.211618 57.079327 -32.117931 -91.320831 -53.877697 7.6600547
-0.068640992 -46.538754 -54.21542 12.391639 -40.224342 -77.272057
367362500 -41.226711 -99.042435 -26.389215 54.021542 -0.076449744 -51.016907
-26.393185 53.931572 -31.949879 -100.30099 -53.25354 -0.97847605
-0.074149497 -51.014191 -53.609497 3.9601238 -39.462208 -86.02079
399850000 -40.469032 -109.38335 -25.658161 50.893364 -0.081501313 -55.490219
-25.663349 50.794453 -31.781155 -109.13613 -52.787712 -8.6454296
-0.078717694 -55.48679 -52.944572 -4.84231 -38.750305 -94.022408
432337500 -39.651215 -118.41932 -24.999594 47.745136 -0.087740324 -59.957901
-25.001204 47.730213 -31.619926 -117.91515 -52.641731 -16.343794
-0.084346406 -59.955742 -52.382191 -12.314536 -38.041599 -101.42989
464825000 -39.004311 -125.96966 -24.393276 44.586166 -0.093600146 -64.424149
-24.388842 44.565998 -31.496048 -126.45288 -52.280071 -23.594593
-0.089601979 -64.425529 -52.196739 -20.535271 -37.519539 -108.71077
497312500 -38.364124 -134.04367 -23.835176 41.500805 -0.099601164 -68.889862
-23.830776 41.501148 -31.35499 -134.98593 -51.979294 -30.78758
-0.094496876 -68.896118 -51.771603 -29.400726 -37.00375 -115.61837
529800000 -37.849251 -141.83688 -23.323374 38.429718 -0.10541459 -73.355904
-23.322947 38.376652 -31.245073 -143.36552 -51.665684 -38.738903
-0.10057504 -73.37149 -51.538723 -37.75816 -36.536358 -121.96016
562287500 -37.444916 -149.83606 -22.850622 35.327145 -0.11024042 -77.82045
-22.847118 35.270916 -31.136974 -151.69398 -51.465572 -46.938278
-0.10548183 -77.837906 -51.29393 -46.567352 -36.146126 -128.06918
594775000 -37.098705 -157.58347 -22.405722 32.266369 -0.11565215 -82.289429
-22.405138 32.203136 -31.064323 -159.83949 -51.29398 -54.915527
-0.11032294 -82.302971 -51.179417 -53.872372 -35.787628 -133.79306
627262500 -36.766056 -165.07773 -21.996515 29.180178 -0.12048823 -86.753174
-21.989828 29.11058 -30.992174 -167.92914 -51.204079 -63.017185
-0.11586656 -86.771057 -50.942108 -62.276615 -35.513195 -139.35713
659750000 -36.479656 -172.32072 -21.611845 26.124674 -0.12513711 -91.221649
-21.606432 26.049601 -30.950237 -175.98476 -51.07423 -71.459908
-0.12134424 -91.231644 -50.993557 -70.150803 -35.287888 -144.93073
692237500 -36.259064 -179.39638 -21.246073 23.025242 -0.1305463 -95.681229
-21.247099 22.974173 -30.90481 175.99425 -51.094791 -79.948578
-0.12715247 -95.692177 -50.908398 -78.568977 -35.071712 -150.63255
724725000 -36.037174 173.34644 -20.910255 19.967371 -0.1362453 -100.14463
-20.911484 19.936802 -30.886263 168.00922 -51.07703 -87.299271
-0.13299341 -100.15417 -50.995049 -86.922119 -34.858543 -155.91634
757212500 -35.791561 166.16412 -20.593361 16.93574 -0.14201932 -104.60625
-20.594379 16.897694 -30.879848 160.01431 -51.223942 -95.594948
-0.13826549 -104.61053 -51.095909 -95.481209 -34.716885 -160.97221
789700000 -35.641506 159.41379 -20.296833 13.897648 -0.14694373 -109.06531
-20.294502 13.843053 -30.909769 152.00562 -51.319477 -104.50776
-0.14383633 -109.07251 -51.218472 -104.36112 -34.584267 -166.26755
822187500 -35.494553 152.24577 -20.016741 10.874708 -0.15205128 -113.52139
-20.013105 10.823152 -30.945734 144.0197 -51.599319 -112.90826
-0.14836863 -113.52397 -51.527416 -112.72257 -34.506733 -171.51285
854675000 -35.418072 144.98866 -19.754332 7.8592682 -0.15737307 -117.97798
-19.74951 7.8107166 -31.001545 136.04916 -51.899437 -121.12835
-0.15344439 -117.97838 -51.974277 -120.7626 -34.437836 -176.6535
887162500 -35.322983 137.93172 -19.507753 4.8416114 -0.16203383 -122.43065
-19.502602 4.8172169 -31.061548 127.93345 -52.395752 -130.49937
-0.15844214 -122.43248 -52.487976 -129.58331 -34.429619 177.99124
919650000 -35.291019 130.73534 -19.274866 1.847236 -0.16705781 -126.88354
-19.270964 1.8331795 -31.136702 119.80585 -52.860359 -139.24577
-0.16234954 -126.88611 -53.070229 -137.76422 -34.434296 172.99596
952137500 -35.269386 123.35844 -19.055695 -1.1436291 -0.17208438 -131.33165
-19.05172 -1.1325794 -31.204594 111.65306 -53.366955 -148.13405
-0.16604474 -131.33798 -53.690044 -148.00876 -34.462097 167.89781
984625000 -35.22916 116.1533 -18.850986 -4.1085997 -0.17612369 -135.78598
-18.847662 -4.092545 -31.306477 103.38227 -54.015694 -157.48788
-0.1702697 -135.78784 -54.396317 -158.08742 -34.54829 162.83461
1017112500 -35.194366 108.89587 -18.656261 -7.06531 -0.17998533 -140.23647
-18.653963 -7.0598688 -31.406845 95.180878 -54.796001 -168.737
-0.1740263 -140.23943 -55.281166 -167.8894 -34.662506 157.88704
1049600000 -35.222439 101.7327 -18.473812 -10.000325 -0.18361911 -144.68677
-18.470007 -9.9976892 -31.52182 86.886154 -55.635113 -179.84756
-0.1784244 -144.69249 -56.153423 -178.63376 -34.806862 152.70451
1082087500 -35.225983 94.380913 -18.301817 -12.931092 -0.1868635 -149.13823
-18.297186 -12.920029 -31.630066 78.530823 -56.683769 168.17409
-0.18252167 -149.13293 -57.311001 169.99944 -34.976688 147.84929
1114575000 -35.263313 87.099327 -18.141058 -15.844562 -0.18967013 -153.58736
-18.134298 -15.831846 -31.738708 70.160667 -58.14579 153.56267
-0.18643542 -153.58095 -58.627796 155.68115 -35.19651 142.9063
1147062500 -35.293468 80.039467 -17.987776 -18.751616 -0.19294262 -158.03619
-17.984634 -18.734858 -31.850639 61.653229 -59.182999 135.55978
-0.19045518 -158.03021 -59.585167 138.51942 -35.451504 137.70552
1179550000 -35.32497 73.186989 -17.844082 -21.634203 -0.19668934 -162.48114
-17.841173 -21.634188 -31.965055 53.120064 -60.257008 115.94892
-0.19438648 -162.48021 -60.139359 118.94434 -35.757462 132.74219
1212037500 -35.379349 66.311935 -17.710154 -24.506041 -0.19946235 -166.92621
-17.706602 -24.5091 -32.084728 44.561958 -60.878002 94.829063
-0.19861709 -166.92357 -60.865662 98.546753 -36.084156 127.34573
1244525000 -35.419472 59.585506 -17.584702 -27.357695 -0.20267287 -171.37143
-17.581919 -27.387098 -32.202541 35.965912 -61.233265 72.884483
-0.20213357 -171.37128 -61.056171 78.182793 -36.410378 122.38793
1277012500 -35.485085 52.857719 -17.466372 -30.195894 -0.20627683 -175.8161
-17.463715 -30.222242 -32.303379 27.371218 -61.314316 51.061943
-0.20529217 -175.81544 -61.019466 56.379723 -36.745644 117.16734
1309500000 -35.576355 45.76292 -17.35807 -33.017731 -0.20953906 179.74138
-17.353159 -33.046047 -32.412735 18.7057 -60.908237 30.519308
-0.20882016 179.739 -60.549461 33.772137 -37.124649 111.93977
1341987500 -35.64677 39.097092 -17.253864 -35.83268 -0.21264805 175.29666
-17.251657 -35.858299 -32.51548 10.097824 -60.265579 8.5988064
-0.21149851 175.29538 -59.806648 12.469012 -37.471252 106.78378
1374475000 -35.726791 32.566921 -17.157959 -38.623711 -0.21596946 170.85417
-17.157686 -38.655319 -32.626156 1.4774429 -59.295742 -11.934663
-0.21453027 170.8474 -58.681614 -7.8985391 -37.841282 101.46453
1406962500 -35.798153 26.277473 -17.068289 -41.404053 -0.21968873 166.41206
-17.068375 -41.425018 -32.72913 -7.2159224 -57.703754 -29.449003
-0.21671306 166.40555 -57.203808 -26.060579 -38.240452 95.966125
1439450000 -35.903214 19.543539 -16.984888 -44.154324 -0.22303376 161.96616
-16.984274 -44.179825 -32.835415 -15.813983 -56.387241 -44.250488
-0.21871482 161.96452 -55.8596 -42.112228 -38.611015 90.38118
1471937500 -36.012482 13.12173 -16.90859 -46.89082 -0.22507054 157.52278
-16.907726 -46.907524 -32.93404 -24.369394 -54.757931 -56.497478
-0.22130121 157.5233 -54.77668 -55.180134 -39.003017 84.18824
1504425000 -36.080376 6.9712515 -16.839161 -49.607971 -0.2276426 153.07774
-16.836788 -49.628922 -33.038223 -32.890533 -53.547413 -67.647621
-0.22334284 153.07849 -53.366692 -67.748268 -39.419445 78.353195
1536912500 -36.209507 1.0572488 -16.774553 -52.309986 -0.22970414 148.63277
-16.77005 -52.31982 -33.166405 -41.356991 -52.493313 -77.89151
-0.22576022 148.63797 -52.305878 -78.450951 -39.829529 71.975037
1569400000 -36.341805 -4.6584392 -16.714966 -54.990173 -0.23170997 144.1909
-16.709641 -55.002586 -33.286892 -49.871429 -51.400162 -87.552116
-0.22846556 144.19446 -51.415733 -87.318291 -40.29792 65.560944
1601887500 -36.497654 -9.94417 -16.659691 -57.657703 -0.23363085 139.74887
-16.65436 -57.658661 -33.40873 -58.346535 -50.571178 -97.284431
-0.23047946 139.75243 -50.579571 -96.36116 -40.69738 58.197701
1634375000 -36.626091 -15.427274 -16.610645 -60.306534 -0.23530418 135.30869
-16.604198 -60.299259 -33.547531 -66.876068 -49.802448 -105.48932
-0.23254098 135.30841 -49.869984 -105.49059 -41.052029 50.689846
1666862500 -36.763798 -20.69706 -16.566536 -62.928932 -0.23707104 130.86871
-16.558094 -62.918201 -33.700802 -75.330872 -49.181934 -113.67164
-0.23385847 130.86475 -49.215496 -114.09041 -41.43121 42.938976
1699350000 -36.93063 -26.136084 -16.526039 -65.527206 -0.23863268 126.42508
-16.517843 -65.522728 -33.854687 -83.745491 -48.547718 -122.29235
-0.23603514 126.42115 -48.611938 -122.44733 -41.723507 35.152138
1731837500 -37.07436 -30.581192 -16.490946 -68.120186 -0.23941281 121.98608
-16.48064 -68.111237 -34.021877 -92.173981 -48.027073 -130.3037
-0.2374392 121.97791 -48.069496 -130.16791 -41.962116 27.192841
1764325000 -37.229275 -34.800945 -16.457771 -70.687462 -0.24149615 117.54176
-16.448017 -70.68026 -34.215733 -100.6102 -47.540791 -138.71873
-0.23808223 117.53763 -47.497299 -138.46468 -42.133606 19.18733
1796812500 -37.408836 -38.980392 -16.428295 -73.229897 -0.24245664 113.10095
-16.41934 -73.230347 -34.437462 -108.97869 -47.048107 -146.65483
-0.23926058 113.09596 -47.076561 -146.2314 -42.199051 11.090403
1829300000 -37.613461 -43.017887 -16.402447 -75.757706 -0.24365291 108.66061
-16.393646 -75.753639 -34.658138 -117.49374 -46.615437 -154.74844
-0.2404017 108.64931 -46.717339 -154.37314 -42.16922 2.7090392
1861787500 -37.852642 -46.974667 -16.379789 -78.258385 -0.24476312 104.2194
-16.371817 -78.255798 -34.909939 -125.95216 -46.243549 -162.65733
-0.24089596 104.2084 -46.325466 -162.53349 -42.033058 -5.2874985
1894275000 -38.051579 -50.224094 -16.360126 -80.743767 -0.24578427 99.774254
-16.351994 -80.753166 -35.18782 -134.50298 -45.90876 -170.43158
-0.24120308 99.765015 -46.041782 -170.34796 -41.89584 -13.047391
1926762500 -38.277206 -53.164562 -16.34326 -83.213226 -0.24690408 95.327652
-16.335779 -83.220177 -35.471153 -143.05313 -45.629227 -178.20259
-0.24177605 95.325111 -45.776123 -178.05234 -41.687626 -20.548735
1959250000 -38.493717 -55.763687 -16.327248 -85.664619 -0.24725062 90.878761
-16.320444 -85.675735 -35.762497 -151.84331 -45.340736 174.10712
-0.24265309 90.884369 -45.585281 174.38763 -41.386372 -27.794725
1991737500 -38.741241 -57.401157 -16.315674 -88.09848 -0.24751684 86.431206
-16.309677 -88.107513 -36.087811 -160.73686 -45.160656 166.54128
-0.24373889 86.438629 -45.394238 166.46393 -41.09079 -34.925655
2024225000 -38.986408 -59.164902 -16.306473 -90.504669 -0.24839348 81.979515
-16.300894 -90.519577 -36.421066 -169.88885 -45.047585 158.99881
-0.24499594 81.991631 -45.232979 158.7379 -40.823425 -41.457607
2056712500 -39.265171 -60.667366 -16.300184 -92.891548 -0.24889016 77.53006
-16.29464 -92.911919 -36.765072 -179.30376 -44.953415 151.50395
-0.24604844 77.544731 -45.117054 151.39209 -40.469719 -47.446964
2089200000 -39.525227 -61.557278 -16.295485 -95.269928 -0.24990948 73.080826
-16.290058 -95.287201 -37.11005 170.7897 -44.871788 143.94328
-0.24683873 73.095314 -45.00391 143.68927 -40.147896 -53.257446
2121687500 -39.726955 -62.258877 -16.292221 -97.618935 -0.25083074 68.630302
-16.288006 -97.640694 -37.45158 160.79686 -44.853649 136.66492
-0.24792539 68.648811 -44.883884 136.55373 -39.834335 -58.660828
2154175000 -39.831711 -62.168316 -16.291143 -99.959839 -0.2514267 64.176605
-16.286652 -99.974358 -37.784782 150.26903 -44.807301 129.34937
-0.24910325 64.19603 -44.865788 129.2774 -39.474205 -64.128113
2186662500 -39.956993 -62.321148 -16.292679 -102.26194 -0.25234085 59.728188
-16.288305 -102.27229 -38.088634 139.35118 -44.817722 122.10043
-0.25067377 59.746029 -44.822552 122.135 -39.133904 -68.922523
2219150000 -40.01685 -61.680214 -16.295233 -104.54233 -0.25397027 55.282051
-16.291485 -104.57001 -38.357731 128.11215 -44.848141 115.06146
-0.25204882 55.293526 -44.845631 115.00808 -38.858776 -73.706192
2251637500 -40.102051 -60.785534 -16.300982 -106.82021 -0.25565374 50.837204
-16.295933 -106.83836 -38.545059 116.64663 -44.939251 107.89861
-0.25358269 50.839764 -44.881886 107.92082 -38.585278 -78.345032
2284125000 -40.051537 -60.403446 -16.30562 -109.07437 -0.25679871 46.387299
-16.300074 -109.09029 -38.661869 105.03239 -45.074142 100.77069
-0.25448841 46.389542 -44.982819 101.52479 -38.289059 -82.516678
2316612500 -39.951935 -59.700043 -16.310457 -111.31565 -0.25802034 41.939743
-16.306606 -111.32086 -38.72559 93.435265 -45.161945 93.912613
-0.25527653 41.939575 -45.109104 94.707809 -38.014069 -86.832436
2349100000 -39.812542 -59.028294 -16.316994 -113.53729 -0.25856897 37.491531
-16.312447 -113.54527 -38.683277 82.006096 -45.283192 87.541786
-0.25657082 37.486805 -45.270164 88.14666 -37.782192 -91.185249
2381587500 -39.593464 -58.52673 -16.32373 -115.73847 -0.26033646 33.041386
-16.318878 -115.74792 -38.57378 70.738609 -45.449211 81.343811
-0.25792834 33.037544 -45.488266 82.012108 -37.544025 -95.518356
2414075000 -39.326969 -57.976082 -16.332872 -117.92413 -0.26203027 28.59272
-16.327312 -117.93329 -38.401737 59.556736 -45.635021 75.031036
-0.258744 28.590181 -45.691067 75.392693 -37.381496 -99.82132
2446562500 -39.083618 -57.984386 -16.341337 -120.09825 -0.26366755 24.145611
-16.335964 -120.1025 -38.154778 48.938313 -45.871937 68.927711
-0.25999784 24.144457 -45.908634 68.995331 -37.255871 -103.9992
2479050000 -38.783085 -57.995388 -16.349184 -122.26608 -0.26514864 19.696571
-16.343554 -122.26798 -37.86763 38.76228 -46.150246 63.119644
-0.26113984 19.696611 -46.191025 63.019314 -37.119812 -107.87048
2511537500 -38.534489 -58.312077 -16.358072 -124.40984 -0.26574987 15.245642
-16.351643 -124.41239 -37.552395 28.964832 -46.43964 57.412529
-0.26218361 15.247796 -46.487663 57.27145 -37.051636 -111.75108
2544025000 -38.18092 -58.879993 -16.366394 -126.53949 -0.26713744 10.793436
-16.361956 -126.54237 -37.247772 19.74942 -46.742252 51.814327
-0.26328617 10.799592 -46.884121 51.971684 -37.024284 -115.73892
2576512500 -37.87537 -59.610981 -16.376659 -128.6552 -0.26853642 6.3450074
-16.371706 -128.6734 -36.932114 10.849087 -47.065971 46.879421
-0.26472747 6.3509674 -47.242561 46.657333 -36.997856 -119.68598
2609000000 -37.592834 -60.64476 -16.387127 -130.75897 -0.26989406 1.8978101
-16.381277 -130.77917 -36.61451 2.3804929 -47.476471 42.146439
-0.26635295 1.9006778 -47.685215 41.932991 -36.966301 -123.53873
2641487500 -37.26086 -61.867752 -16.395979 -132.85426 -0.27168766 -2.5504656
-16.390373 -132.86554 -36.330494 -5.7531433 -47.846745 37.129509
-0.26784816 -2.5467684 -48.055668 37.62138 -37.033047 -127.69798
2673975000 -37.003708 -63.295044 -16.405655 -134.93106 -0.27269843 -7.0022788
-16.399967 -134.93481 -36.06369 -13.46679 -48.282917 32.622849
-0.26899165 -6.9937363 -48.42981 33.534645 -37.162598 -131.71585
2706462500 -36.809902 -64.758415 -16.41353 -137.01007 -0.2737017 -11.453656
-16.40757 -136.99634 -35.819748 -20.75876 -48.705975 29.195196
-0.2704632 -11.441612 -48.863403 30.494944 -37.289009 -135.74315
2738950000 -36.585903 -66.257637 -16.421904 -139.07027 -0.27478957 -15.901864
-16.415987 -139.06337 -35.615562 -27.785851 -49.126671 25.987263
-0.27151653 -15.893839 -49.235294 27.347244 -37.465405 -139.53172
2771437500 -36.386795 -67.756828 -16.430063 -141.12004 -0.27571294 -20.352867
-16.424721 -141.11063 -35.43605 -34.482605 -49.488712 23.527617
-0.27287301 -20.340628 -49.593369 25.193184 -37.698765 -143.93961
2803925000 -36.182278 -69.654884 -16.439219 -143.15932 -0.27670607 -24.801367
-16.43187 -143.14752 -35.289661 -40.876823 -49.822716 21.825546
-0.27442956 -24.790173 -49.897076 23.174419 -37.960312 -148.05823
2836412500 -36.057934 -71.654549 -16.446669 -145.19032 -0.27758715 -29.250986
-16.43915 -145.18263 -35.169991 -47.101646 -50.103245 20.573616
-0.27582291 -29.238605 -50.109028 21.661911 -38.305481 -152.17357
2868900000 -35.926502 -73.348152 -16.452879 -147.21399 -0.27832657 -33.701923
-16.445362 -147.19333 -35.117393 -52.967468 -50.320019 18.993017
-0.27692619 -33.686749 -50.331352 19.732382 -38.834923 -156.68057
2901387500 -35.845173 -74.96489 -16.458683 -149.22876 -0.27914438 -38.153484
-16.450975 -149.21059 -35.086361 -58.573639 -50.429184 18.406149
-0.27828506 -38.130848 -50.311153 18.774818 -39.376446 -161.24684
2933875000 -35.79538 -76.473938 -16.464952 -151.24126 -0.28021067 -42.603466
-16.457626 -151.22987 -35.128609 -64.01059 -50.500813 18.229807
-0.27936891 -42.582142 -50.362591 17.661982 -40.050835 -165.59659
2966362500 -35.781319 -77.79335 -16.470915 -153.24373 -0.28126571 -47.049007
-16.463602 -153.22682 -35.195877 -69.194214 -50.409798 17.596771
-0.28090021 -47.029572 -50.346775 16.661913 -40.868042 -170.42871
2998850000 -35.730495 -79.284637 -16.476068 -155.23827 -0.28275624 -51.496723
-16.469496 -155.23529 -35.334156 -74.066879 -50.243835 16.638508
-0.2819621 -51.477291 -50.193836 15.902413 -41.815643 -174.44705
3031337500 -35.751339 -80.325249 -16.481426 -157.22705 -0.2840434 -55.94648
