! MARKI MICROWAVE INC.
! Email:             	info@markimicrowave.com   				Phone:   408-778-4200
! Model Number:      	C10-0226						Date:    10/12
! Filename:		C10-0226.S4P						Version: 1.0
! Description:       	4-port S-parameter data for Directional Coupler C10-0226
! Frequency Range: 	10 MHz to 26.5 GHz		
! Port Configuration:	PORT 1: Input
!			PORT 2: Output 
!			Port 3: Coupled 
!			Port 4: Isolated

! S4P File: Measurements: Mag<S11> Ang<S11> Mag<S12> Ang<S12> Mag<S13> Ang<S13> Mag<S14> Ang<S14>! row 1 
!			  Mag<S21> Ang<S21> Mag<S22> Ang<S22> Mag<S23> Ang<S23> Mag<S24> Ang<S24>! row 2 
!			  Mag<S31> Ang<S31> Mag<S32> Ang<S32> Mag<S33> Ang<S33> Mag<S34> Ang<S34>! row 3 
!			  Mag<S41> Ang<S41> Mag<S42> Ang<S42> Mag<S43> Ang<S43> Mag<S44> Ang<S44>! row 4

# Hz S  dB   R 50
10000000 -33.85675 66.325829 -51.949661 -12.023633 -0.019147336 -9.1740208
-45.790703 95.870186 -31.242582 15.815131 -61.413788 53.096359
0.0058465945 -8.8410721 -66.11319 140.42703 -33.414757 59.591953
47487500 -35.934937 54.801388 -48.419514 5.2303305 -0.027391048 -11.720658
-43.464745 91.623337 -31.476364 5.2680125 -61.335648 54.369522
0.0047533354 -11.46712 -65.306213 122.58994 -35.475483 49.101166
84975000 -37.957085 40.711987 -44.722668 22.096287 -0.03581056 -14.837058
-40.977818 86.901039 -31.713306 -6.5163636 -61.076557 53.135906
0.0023925113 -14.662758 -64.586639 104.29647 -37.39349 36.588776
122462500 -39.966209 24.694317 -40.886066 38.514271 -0.044894796 -18.531349
-38.353714 81.769485 -31.925783 -19.517105 -60.457748 50.726101
-2.0332227e-005 -18.429014 -63.361633 81.343445 -39.449921 21.612497
159950000 -41.795185 6.9784732 -36.929626 54.596272 -0.055036657 -22.794907
-35.606312 76.282524 -32.09375 -33.580727 -60.113667 46.037189
-0.0034412688 -22.771833 -62.206051 59.963188 -41.406479 5.7339935
197437500 -43.681778 -11.678675 -32.868923 70.263855 -0.065808527 -27.634142
-32.752434 70.411705 -32.256935 -48.873734 -59.439224 41.707012
-0.006828208 -27.687519 -60.953056 37.607418 -43.250183 -11.887648
234925000 -44.117085 -29.432388 -30.904261 66.747383 -0.072875611 -32.74572
-30.767426 66.666138 -32.114861 -60.288155 -58.247089 29.232862
-0.009324016 -32.827316 -58.723633 33.254486 -43.507557 -28.240118
272412500 -44.05843 -45.312721 -29.386015 63.138824 -0.077571958 -37.903275
-29.267437 63.10997 -31.968447 -71.191742 -57.300243 21.688147
-0.014949517 -37.972492 -57.260559 21.212666 -43.153267 -42.390881
309900000 -43.703697 -59.848679 -28.13645 59.490471 -0.083209448 -43.065487
-28.022425 59.542393 -31.836172 -81.701721 -56.378597 9.5146503
-0.022010613 -43.12254 -56.068829 10.42469 -42.683754 -55.993839
347387500 -43.09874 -73.643112 -27.081787 55.834805 -0.088979885 -48.224907
-26.96843 55.850994 -31.711603 -92.125336 -55.467606 -1.4276078
-0.02713169 -48.278675 -55.260742 2.0373316 -42.048344 -67.840797
384875000 -42.467022 -86.494156 -26.162781 52.226856 -0.09387549 -53.385769
-26.053215 52.185993 -31.599001 -102.33052 -54.605316 -12.399845
-0.032272149 -53.433514 -54.539551 -8.1077375 -41.44566 -79.255058
422362500 -41.85664 -98.534363 -25.353212 48.614666 -0.099173144 -58.546783
-25.243668 48.595009 -31.493483 -112.33208 -53.824608 -21.846149
-0.037071783 -58.591957 -53.633568 -18.83585 -41.037128 -89.666924
459850000 -41.179092 -109.38361 -24.628925 45.051998 -0.10498881 -63.705421
-24.51757 45.002644 -31.416761 -122.18161 -53.541031 -30.955692
-0.042619392 -63.755241 -53.204315 -25.98358 -40.438576 -98.381523
497337500 -40.616505 -119.47571 -23.975891 41.426105 -0.11078288 -68.866287
-23.865566 41.395378 -31.387106 -131.98688 -52.894028 -39.086586
-0.047587555 -68.911842 -52.725536 -36.025677 -39.880413 -107.34703
534825000 -39.995106 -129.04276 -23.379761 37.826035 -0.1163809 -74.022675
-23.272543 37.783684 -31.366888 -141.61829 -52.656609 -48.320789
-0.053675577 -74.066719 -52.342495 -46.5499 -39.37923 -115.14804
572312500 -39.445831 -137.58038 -22.831751 34.265522 -0.12259804 -79.169319
-22.733204 34.220619 -31.358873 -151.2887 -52.405724 -56.953213
-0.060288917 -79.222031 -52.103714 -56.047737 -39.029392 -123.06687
609800000 -38.979298 -146.29733 -22.330528 30.714834 -0.12949812 -84.319496
-22.231995 30.65004 -31.374924 -160.95395 -52.164722 -67.571091
-0.065321788 -84.378136 -51.878342 -65.886871 -38.771954 -130.91882
647287500 -38.584972 -155.50015 -21.871935 27.192671 -0.1357373 -89.463249
-21.772802 27.079344 -31.419378 -170.63652 -52.008846 -77.893723
-0.070464611 -89.527412 -51.756313 -75.807091 -38.465866 -138.73433
684775000 -38.331585 -163.68619 -21.445194 23.67042 -0.14117594 -94.606514
-21.348133 23.531954 -31.467527 179.67102 -51.882225 -87.44268
-0.076081395 -94.675331 -51.717915 -85.999138 -38.241081 -146.71347
722262500 -38.065876 -172.01399 -21.053482 20.142351 -0.14636503 -99.747131
-20.956427 20.00787 -31.555202 170.00134 -51.874741 -96.974785
-0.081886463 -99.824753 -51.650181 -96.458359 -38.084789 -154.69809
759750000 -37.827774 -179.40253 -20.688456 16.627911 -0.15236916 -104.89487
-20.588964 16.512892 -31.658146 160.25726 -52.128666 -106.44104
-0.087985046 -104.97142 -51.773914 -106.6137 -37.86298 -162.34599
797237500 -37.729771 173.07245 -20.349846 13.126446 -0.15899268 -110.03992
-20.248024 13.032938 -31.779194 150.45494 -52.265301 -116.6749
-0.094167322 -110.11211 -51.965054 -117.17109 -37.714577 -169.96129
834725000 -37.657516 165.57356 -20.033365 9.6489515 -0.16538794 -115.17953
-19.928961 9.5288162 -31.917141 140.45241 -52.473114 -126.88623
-0.1000293 -115.25301 -52.174446 -127.95315 -37.632488 -177.40431
872212500 -37.627991 157.55103 -19.739248 6.1784353 -0.17168005 -120.31535
-19.632462 6.0458422 -32.062904 130.31342 -52.680138 -137.76437
-0.10580766 -120.3941 -52.539379 -138.41499 -37.569366 174.78862
909700000 -37.612255 149.72607 -19.464773 2.7195714 -0.17808434 -125.45766
-19.358696 2.5824366 -32.214622 119.85893 -53.16132 -149.27762
-0.11191364 -125.52866 -52.933834 -149.54207 -37.580875 167.15034
947187500 -37.724182 141.77158 -19.20945 -0.71232963 -0.1824625 -130.58798
-19.104914 -0.87009132 -32.374802 109.36806 -53.582409 -161.12607
-0.11824117 -130.66347 -53.292316 -161.05931 -37.585796 159.16579
984675000 -37.784775 134.17064 -18.971014 -4.1451154 -0.18754643 -135.72449
-18.866238 -4.3009558 -32.530666 98.745667 -54.217106 -172.4359
-0.12327535 -135.79597 -53.880836 -172.69797 -37.642651 151.4171
1022162500 -37.823669 126.32296 -18.749962 -7.5352869 -0.19260718 -140.8609
-18.64418 -7.7143931 -32.664577 88.04921 -55.00864 174.57321
-0.12844098 -140.92606 -54.472252 174.9798 -37.726887 143.99161
1059650000 -37.992695 118.86979 -18.541447 -10.915722 -0.198654 -145.99332
-18.436745 -11.105819 -32.799252 77.181221 -55.746655 161.33104
-0.13292345 -146.04904 -55.228531 162.16382 -37.839958 136.13049
1097137500 -38.119865 111.61823 -18.347334 -14.284884 -0.20363946 -151.11984
-18.244843 -14.489808 -32.905102 66.186256 -56.409405 146.14377
-0.13603713 -151.17006 -55.979939 147.65222 -37.951569 127.94876
1134625000 -38.234707 104.25664 -18.166912 -17.634995 -0.20700476 -156.24162
-18.065369 -17.849691 -32.974781 55.057198 -57.187267 130.3004
-0.13896021 -156.29758 -56.793171 132.02837 -38.065842 119.53256
1172112500 -38.476402 97.147552 -17.99999 -20.971058 -0.20989124 -161.36823
-17.900635 -21.173618 -33.013332 43.901348 -57.886604 111.90701
-0.14168926 -161.42442 -57.64819 114.74155 -38.19265 111.17701
1209600000 -38.667339 90.320061 -17.844671 -24.282131 -0.21269876 -166.49809
-17.747841 -24.488346 -33.026981 32.877911 -58.404457 92.036797
-0.14374968 -166.55212 -58.417908 95.460602 -38.309479 102.5313
1247087500 -38.850983 83.709679 -17.701042 -27.572523 -0.21527874 -171.62555
-17.603718 -27.787823 -33.021477 22.033287 -58.720787 71.662468
-0.14554469 -171.68376 -58.706078 75.376518 -38.401871 93.98143
1284575000 -39.070587 77.069427 -17.567768 -30.844547 -0.21894938 -176.75934
-17.470259 -31.066139 -32.975506 11.261321 -58.794003 51.654289
-0.14751323 -176.8145 -58.911049 54.488895 -38.498688 85.466187
1322062500 -39.356461 70.528824 -17.444803 -34.091316 -0.2221235 178.10565
-17.348274 -34.323723 -32.906616 0.5965668 -58.578129 30.049284
-0.15006757 178.05162 -58.768597 33.122208 -38.543812 76.769135
1359550000 -39.63023 64.532478 -17.331718 -37.330391 -0.22556576 172.9745
-17.236933 -37.551003 -32.843651 -9.9141932 -58.081318 8.8022413
-0.15275027 172.91895 -58.42057 12.073806 -38.56884 67.630547
1397037500 -39.894737 58.032421 -17.227789 -40.541531 -0.22825234 167.84596
-17.133436 -40.750584 -32.753273 -20.126562 -57.438377 -11.564114
-0.15533319 167.78087 -57.836353 -8.6286583 -38.518726 58.97374
1434525000 -40.236858 51.618347 -17.133831 -43.732891 -0.23106103 162.71451
-17.038343 -43.935287 -32.664097 -30.195587 -56.697441 -31.068506
-0.15825537 162.64343 -57.005585 -28.671829 -38.468067 50.202862
1472012500 -40.564396 45.824596 -17.047298 -46.897961 -0.23456642 157.58195
-16.951532 -47.090988 -32.584061 -39.966354 -55.628609 -49.57589
-0.16052216 157.50969 -56.025665 -47.21767 -38.395996 41.861862
1509500000 -40.767414 40.541924 -16.968325 -50.037643 -0.23745516 152.44968
-16.871258 -50.223705 -32.52108 -49.516014 -54.634464 -65.15744
-0.16371085 152.37601 -54.917801 -64.055588 -38.29129 33.313972
1546987500 -41.087173 35.028561 -16.898096 -53.152721 -0.24056809 147.31749
-16.798618 -53.331707 -32.48336 -58.907753 -53.604214 -79.269974
-0.16615286 147.24556 -53.616673 -78.417931 -38.200691 25.126972
1584475000 -41.360455 29.63098 -16.834898 -56.239418 -0.2433545 142.18829
-16.733259 -56.421127 -32.470123 -68.131203 -52.545517 -92.288521
-0.16870163 142.11673 -52.670246 -92.547356 -38.043835 16.885714
1621962500 -41.614902 24.359444 -16.778814 -59.306355 -0.24548653 137.05801
-16.675236 -59.456577 -32.502071 -77.156227 -51.680382 -105.33862
-0.17112675 136.98386 -51.760128 -105.41295 -37.844601 9.1999197
1659450000 -41.840359 19.903191 -16.728695 -62.338234 -0.24837734 131.92865
-16.622662 -62.47691 -32.573204 -86.031387 -50.900772 -117.04347
-0.17306419 131.85684 -50.953098 -117.2925 -37.654819 1.242336
1696937500 -42.053829 15.255229 -16.682529 -65.335114 -0.25033504 126.80025
-16.575226 -65.475029 -32.676453 -94.784172 -50.218285 -128.09262
-0.17464647 126.7295 -50.266586 -128.88397 -37.426682 -6.0855727
1734425000 -42.242672 11.564733 -16.642891 -68.31736 -0.25260451 121.66963
-16.534222 -68.456627 -32.831841 -103.49125 -49.63361 -139.5025
-0.17705043 121.60355 -49.605625 -140.01169 -37.203854 -13.416453
1771912500 -42.344257 8.4482746 -16.608046 -71.265884 -0.25438264 116.54408
-16.49931 -71.405945 -33.034351 -112.02407 -49.012531 -150.17128
-0.17911072 116.47688 -49.073685 -150.62105 -36.984692 -20.204496
1809400000 -42.373398 4.9355364 -16.578667 -74.187653 -0.25508985 111.41644
-16.470013 -74.322548 -33.289463 -120.64122 -48.53101 -160.6001
-0.18090603 111.35478 -48.551254 -161.19661 -36.711296 -27.100309
1846887500 -42.478176 1.2660476 -16.555115 -77.070045 -0.25648105 106.29094
-16.444773 -77.216629 -33.612797 -129.13286 -48.023499 -171.10703
-0.18177655 106.2309 -48.038322 -171.1815 -36.483383 -33.372501
1884375000 -42.309021 -1.5179695 -16.533403 -79.9403 -0.25740585 101.15887
-16.423738 -80.076241 -33.989338 -137.84096 -47.68642 178.83299
-0.18351556 101.10645 -47.657173 178.12198 -36.256607 -39.44202
1921862500 -42.286766 -4.3736982 -16.515053 -82.781548 -0.25794783 96.026283
-16.40609 -82.906105 -34.437595 -146.66624 -47.374535 168.54546
-0.18401968 95.983833 -47.305164 168.13979 -36.013767 -45.543324
1959350000 -42.148556 -6.632441 -16.500221 -85.592049 -0.25898033 90.893074
-16.392782 -85.729874 -34.958721 -155.74626 -47.116844 158.68272
-0.18482906 90.86277 -47.038799 158.23769 -35.846561 -51.259251
1996837500 -41.994907 -9.1161299 -16.489473 -88.385971 -0.2598545 85.763115
-16.382895 -88.512505 -35.55534 -165.1869 -46.865608 148.95694
-0.18558952 85.737587 -46.835377 148.4021 -35.662136 -56.577198
2034325000 -41.810696 -11.466041 -16.484642 -91.153252 -0.26097253 80.632057
-16.375275 -91.269043 -36.249233 -175.09341 -46.612232 139.33386
-0.18583831 80.612175 -46.65818 138.68932 -35.511723 -62.019928
2071812500 -41.611187 -13.9167 -16.481226 -93.887444 -0.26188281 75.497917
-16.371237 -93.997757 -37.035229 174.06107 -46.433342 129.63916
-0.18574604 75.484993 -46.489151 128.9337 -35.409225 -67.003136
2109300000 -41.389179 -16.311716 -16.47945 -96.593803 -0.26358023 70.363754
-16.368326 -96.69342 -37.85815 162.36388 -46.30994 120.2383
-0.18578574 70.358177 -46.38435 119.64594 -35.332504 -71.889
2146787500 -41.235268 -18.806541 -16.481638 -99.26973 -0.26572382 65.228638
-16.36787 -99.362701 -38.701469 148.92406 -46.275383 110.82279
-0.18668664 65.228188 -46.348232 110.4519 -35.304428 -76.508591
2184275000 -40.985767 -21.141327 -16.482281 -101.93005 -0.26724774 60.093605
-16.369669 -102.01146 -39.466988 133.87253 -46.286362 101.39806
-0.18690059 60.098057 -46.363659 100.96136 -35.240345 -81.340668
2221762500 -40.872147 -23.931515 -16.488625 -104.55193 -0.26914904 54.968716
-16.37398 -104.64156 -40.077965 118.01485 -46.305763 92.085228
-0.18718062 54.965294 -46.420837 91.923927 -35.24205 -85.827682
2259250000 -40.602947 -26.304813 -16.495947 -107.15393 -0.27142528 49.844021
-16.380854 -107.24622 -40.471466 101.33126 -46.366936 82.928253
-0.1883104 49.829388 -46.516811 82.908897 -35.256565 -90.310722
2296737500 -40.371983 -28.847509 -16.50547 -109.72037 -0.27347469 44.716232
-16.387875 -109.81771 -40.641403 84.184616 -46.469017 73.320732
-0.1887624 44.695595 -46.63879 73.738724 -35.322449 -95.002213
2334225000 -40.156288 -31.78109 -16.515398 -112.26198 -0.27503654 39.587967
-16.395412 -112.37807 -40.594688 67.004372 -46.628334 64.067459
-0.18955378 39.557549 -46.72002 64.653954 -35.424355 -99.460609
2371712500 -40.005371 -34.578907 -16.524776 -114.77287 -0.27666816 34.455875
-16.405157 -114.91364 -40.307266 49.985027 -46.856487 54.925232
-0.19057439 34.422329 -46.900265 56.208221 -35.56015 -103.89514
2409200000 -39.860859 -37.669422 -16.535492 -117.27035 -0.27904215 29.327826
-16.414984 -117.43401 -39.780197 33.727966 -47.131683 46.232395
-0.19142348 29.283522 -47.179855 47.515877 -35.749249 -108.33942
2446687500 -39.789532 -41.049381 -16.547756 -119.74368 -0.28076565 24.195576
-16.426746 -119.92695 -39.084869 18.224415 -47.464821 37.576565
-0.19252828 24.144674 -47.499603 38.695137 -35.95079 -112.8325
2484175000 -39.643326 -43.741585 -16.558912 -122.1968 -0.28242397 19.066244
-16.438162 -122.40497 -38.251293 4.4974241 -47.870655 28.607185
-0.19312677 19.008877 -47.840729 30.016104 -36.228676 -117.36257
2521662500 -39.618031 -46.554283 -16.572506 -124.64064 -0.28415111 13.932473
-16.451431 -124.85844 -37.361111 -7.5669718 -48.310333 19.955687
-0.19477594 13.872263 -48.267029 21.452982 -36.611065 -121.52168
2559150000 -39.53072 -48.901001 -16.584463 -127.06293 -0.28617388 8.7956276
-16.463274 -127.2914 -36.499275 -18.54413 -48.835262 11.242925
-0.19636165 8.7405424 -48.739471 12.628768 -36.989239 -125.46178
2596637500 -39.619225 -51.066078 -16.597336 -129.46248 -0.28790587 3.656039
-16.475874 -129.687 -35.714687 -28.265598 -49.438953 2.4820395
-0.1978028 3.6046033 -49.336609 4.6722727 -37.500729 -129.67937
2634125000 -39.682278 -53.496288 -16.608053 -131.85211 -0.28901672 -1.4762623
-16.487093 -132.08983 -35.012367 -37.153694 -50.158924 -5.1236358
-0.19898058 -1.5330904 -49.965782 -3.0135801 -38.068329 -133.8828
2671612500 -39.857162 -55.248554 -16.618662 -134.23114 -0.29073411 -6.6140418
-16.499083 -134.46495 -34.397747 -45.372829 -50.86647 -12.563611
-0.20026349 -6.6605353 -50.765194 -9.8698168 -38.793728 -137.79343
2709100000 -39.94558 -57.230316 -16.630337 -136.60628 -0.29246908 -11.75106
-16.511881 -136.81572 -33.875675 -53.141041 -51.854485 -19.478924
-0.20208116 -11.795941 -51.753235 -17.026579 -39.629799 -140.99004
2746587500 -40.047272 -58.525139 -16.641676 -138.95882 -0.29375279 -16.890011
-16.522474 -139.14696 -33.439304 -60.52103 -52.800083 -25.520103
-0.20397551 -16.926136 -52.777298 -23.132715 -40.642124 -144.90987
2784075000 -40.218472 -59.659168 -16.651423 -141.30586 -0.29495257 -22.026518
-16.532253 -141.47978 -33.082714 -67.456184 -53.964195 -30.27993
-0.20575525 -22.058107 -53.799587 -27.7416 -41.938465 -147.38585
2821562500 -40.45446 -59.983418 -16.661581 -143.64758 -0.29585895 -27.164297
-16.540527 -143.79753 -32.795921 -74.01458 -55.149288 -33.337635
-0.20791337 -27.192265 -54.980885 -31.116577 -43.865505 -148.25533
2859050000 -40.656803 -60.324551 -16.669516 -145.95885 -0.29714298 -32.299397
-16.549412 -146.0984 -32.580204 -80.335815 -56.322292 -33.131641
-0.20977175 -32.321354 -56.16843 -30.62525 -46.79657 -148.46558
2896537500 -40.84483 -60.08392 -16.677162 -148.26488 -0.29797557 -37.437721
-16.559141 -148.39163 -32.454288 -86.454384 -57.263004 -32.173515
-0.21099678 -37.45525 -57.274094 -29.733583 -48.544296 -137.38733
2934025000 -41.015308 -59.413372 -16.68342 -150.57005 -0.29872832 -42.574913
-16.565609 -150.69583 -32.40815 -92.351219 -57.886452 -29.015242
-0.21273135 -42.583645 -57.981373 -28.402744 -49.506912 -123.71361
2971512500 -41.151546 -57.555641 -16.689217 -152.86349 -0.30040625 -47.718235
-16.572496 -152.97415 -32.441238 -97.973587 -58.409565 -24.589327
-0.21473041 -47.71357 -58.484852 -24.091957 -50.023674 -109.59004
3009000000 -41.102581 -55.774113 -16.695145 -155.14294 -0.30152786 -52.856297
-16.578814 -155.24678 -32.552139 -103.42546 -58.630264 -20.328314
-0.21620467 -52.850784 -58.636059 -20.770014 -50.054821 -95.296135
3046487500 -41.037323 -52.730984 -16.699362 -157.41113 -0.30269825 -57.992111
-16.583717 -157.51347 -32.737877 -108.57924 -58.332073 -15.879384
-0.21752521 -57.980877 -58.377193 -16.632406 -49.802662 -81.828842
3083975000 -40.844883 -49.896774 -16.70318 -159.67453 -0.30279315 -63.13295
-16.590813 -159.78423 -33.008381 -113.49766 -57.901115 -12.305641
-0.21848413 -63.10944 -57.878437 -13.279241 -49.090485 -67.456879
3121462500 -40.558739 -47.132832 -16.707371 -161.93658 -0.3032451 -68.275482
-16.596134 -162.03906 -33.375568 -118.19169 -57.115498 -10.402482
-0.22009173 -68.237671 -57.220383 -11.166369 -47.912903 -54.157864
3158950000 -40.166904 -44.999634 -16.709637 -164.18336 -0.30403554 -73.416458
-16.60248 -164.27849 -33.841068 -122.45104 -56.051685 -8.989378
-0.22081217 -73.366112 -56.220123 -10.201314 -45.923798 -42.517845
3196437500 -39.634644 -42.556473 -16.712988 -166.44582 -0.30462563 -78.55957
-16.606607 -166.51456 -34.406944 -126.13308 -54.935486 -11.283333
-0.22184537 -78.498367 -54.987282 -13.035398 -42.683937 -31.8109
3233925000 -39.099945 -40.71241 -16.715948 -168.69162 -0.30470875 -83.696304
-16.609592 -168.75209 -35.06678 -129.05386 -53.785179 -13.980487
-0.22295761 -83.629723 -53.700161 -15.427321 -40.51276 -32.559883
3271412500 -38.402634 -39.491997 -16.718468 -170.92984 -0.30560917 -88.835487
-16.613813 -170.98314 -35.816364 -131.21268 -52.840969 -19.010258
-0.22341882 -88.760223 -52.66169 -18.995638 -38.931164 -35.153912
3308900000 -37.692513 -39.249901 -16.721191 -173.16934 -0.30584243 -93.972549
-16.617098 -173.2029 -36.647472 -132.17868 -51.823174 -26.139036
-0.22398008 -93.889816 -51.714775 -25.672972 -37.613632 -38.440742
3346387500 -36.955536 -39.220905 -16.722963 -175.4001 -0.30611572 -99.107307
-16.619942 -175.42072 -37.517372 -131.69383 -51.048054 -33.307098
-0.2248832 -99.016869 -50.956562 -32.567589 -36.497532 -42.334091
3383875000 -36.236591 -40.355282 -16.72447 -177.62869 -0.30632398 -104.2391
-16.623165 -177.63625 -38.352661 -129.2336 -50.365334 -41.00861
-0.22581336 -104.14667 -50.267033 -40.043564 -35.485485 -45.691631
3421362500 -35.539963 -41.883976 -16.726164 -179.85263 -0.30795994 -109.37167
-16.624392 -179.84836 -39.053707 -125.08068 -49.786472 -49.125652
-0.2268618 -109.27879 -49.681686 -47.858574 -34.634975 -49.380226
3458850000 -34.797359 -43.592049 -16.72797 177.93257 -0.30896378 -114.50187
-16.627195 177.9485 -39.529854 -119.64833 -49.262012 -56.582043
-0.22752377 -114.40911 -49.156193 -55.982609 -33.867039 -53.27013
