! MARKI MICROWAVE INC.
! Email:             	support@markimicrowave.com   				Phone:   408-778-4200
! Model Number:      	C17-0R518						Date:    04/16
! Filename:		C17_0R518_SMA.S4P						Version: 1.0
! Description:       	4-port S-parameter data for Directional Coupler C17-0R518 with SMA connectors on all ports
! Frequency Range: 	10 MHz to 19 GHz		
! Port Configuration:	PORT 1: Input
!			PORT 2: Isolated
!			Port 3: Coupled 
!			Port 4: Output
!
!
! S4P File: Measurements: Mag<S11> Ang<S11> Mag<S12> Ang<S12> Mag<S13> Ang<S13> Mag<S14> Ang<S14>! row 1 
!			  Mag<S21> Ang<S21> Mag<S22> Ang<S22> Mag<S23> Ang<S23> Mag<S24> Ang<S24>! row 2 
!			  Mag<S31> Ang<S31> Mag<S32> Ang<S32> Mag<S33> Ang<S33> Mag<S34> Ang<S34>! row 3 
!			  Mag<S41> Ang<S41> Mag<S42> Ang<S42> Mag<S43> Ang<S43> Mag<S44> Ang<S44>! row 4
# Hz S  dB   R 50
10000000 -27.255615 86.647423 -73.584389 -178.07372 -48.253365 87.738983 -0.0071347794 -6.0802822
-75.755379 145.45473 -27.06518 81.61731 -0.03212101 -6.0822139 -48.012043 82.639442
-48.123993 84.082314 -0.014800269 -6.0111508 -26.438362 83.342255 -75.839371 -45.993732
-0.026642675 -6.0709386 -48.11676 84.943596 -76.794525 94.505478 -27.872953 83.351715
33737500 -37.090485 61.781178 -71.678116 106.76038 -37.684509 81.413162 -0.034879379 -12.852654
-73.821205 105.8141 -36.948833 60.811539 -0.033669267 -12.390992 -37.642242 73.968147
-37.622139 81.589729 -0.033997908 -12.402896 -37.023102 63.560131 -73.499062 117.75565
-0.034432039 -12.909869 -37.663265 73.957108 -72.112328 106.04772 -37.332596 60.311638
57475000 -40.851822 46.645557 -71.330139 84.058594 -33.029152 75.708061 -0.034060851 -21.099972
-69.298531 87.163826 -40.750786 42.038082 -0.037861697 -20.326323 -33.001926 63.261677
-33.038055 75.622063 -0.040447976 -20.315985 -39.870502 45.285084 -68.4244 97.913033
-0.041829579 -21.077974 -33.002045 63.227936 -69.079163 81.312401 -40.219303 40.142754
81212500 -41.976841 33.261955 -66.635429 80.407738 -30.067772 69.923164 -0.043753125 -29.508829
-67.709839 75.103607 -41.269707 29.346298 -0.042865627 -28.390476 -30.080387 52.412033
-30.071217 69.928535 -0.04694159 -28.376165 -42.413986 34.469704 -67.661949 70.98114
-0.046387743 -29.494116 -30.078978 52.430763 -67.111176 75.887749 -41.552299 24.349771
104950000 -44.925674 22.683008 -64.943359 55.857655 -27.894325 64.239388 -0.047055542 -37.918053
-65.417252 60.547592 -42.199329 10.132988 -0.046932276 -36.496315 -27.9126 41.585312
-27.907257 64.245071 -0.047976498 -36.469437 -43.118618 27.857588 -65.354332 61.980762
-0.054222967 -37.895252 -27.901711 41.561218 -64.835175 64.700241 -42.631348 5.7547822
128687500 -45.694454 8.4941463 -62.649719 46.258324 -26.207405 58.534115 -0.05295736 -46.389565
-62.702152 47.184837 -42.140354 -9.2595892 -0.051106226 -44.633934 -26.222359 30.64225
-26.216331 58.552151 -0.059826411 -44.606831 -44.219944 15.523144 -62.382259 48.467705
-0.06660179 -46.370682 -26.22036 30.617373 -62.22628 47.991837 -42.425632 -18.638975
152425000 -48.087627 -7.9498572 -60.837921 32.996029 -24.830011 52.863007 -0.059283052 -54.838001
-61.007515 32.782635 -41.939636 -28.618658 -0.057884365 -52.766129 -24.836903 19.730783
-24.837048 52.862762 -0.071268559 -52.745579 -46.676693 0.44232228 -60.318169 35.188423
-0.075751513 -54.835537 -24.850403 19.717806 -60.62162 34.964672 -41.774109 -39.165253
176162500 -50.996002 -14.200541 -59.980415 23.060833 -23.671608 47.202751 -0.066774033 -63.306034
-59.947853 24.25485 -41.309662 -43.042965 -0.068910867 -61.008228 -23.687168 8.6871166
-23.68399 47.274395 -0.074514955 -60.953293 -48.351315 -10.379879 -59.077221 23.644983
-0.077503674 -63.275528 -23.690264 8.6740837 -59.016693 22.567131 -41.56118 -57.803501
199900000 -58.54401 -54.57835 -58.60014 5.9572053 -22.698908 41.608631 -0.073999412 -71.741356
-58.909496 5.2899446 -41.209755 -64.076828 -0.072498031 -69.04306 -22.705589 -2.2269752
-22.70396 41.591793 -0.088234603 -69.033165 -53.365883 -9.2218342 -58.386406 9.9482231
-0.084088854 -71.763634 -22.721844 -2.2612729 -58.478962 8.7209244 -41.265965 -72.316383
223637500 -61.130089 148.2235 -58.134533 -5.9858589 -21.855036 36.026691 -0.088035174 -80.188652
-58.224297 -6.7173004 -40.775906 -79.770363 -0.082805544 -77.170944 -21.869728 -13.23287
-21.859777 36.057011 -0.096318573 -77.148064 -62.805779 -32.742683 -57.346436 -3.8592951
-0.093697824 -80.199623 -21.872412 -13.220621 -57.405445 -3.5646055 -40.675949 -90.721664
247375000 -52.687572 146.96161 -57.696846 -20.140938 -21.129908 30.49452 -0.095361747 -88.661835
-57.55022 -19.229273 -40.767101 -92.783936 -0.095172688 -85.303658 -21.139284 -24.285002
-21.133072 30.537647 -0.104654 -85.252449 -59.504398 126.3601 -56.956684 -17.870052
-0.1043901 -88.638443 -21.146704 -24.243044 -56.812721 -17.942026 -39.860031 -107.82836
271112500 -46.582504 130.44162 -57.788841 -31.639816 -20.481127 24.995897 -0.10956357 -97.086075
-57.371983 -31.257706 -40.119881 -108.65322 -0.10576335 -93.416298 -20.502117 -35.362614
-20.496233 25.011831 -0.10505856 -93.379532 -54.17519 110.37788 -56.739418 -25.04583
-0.11308895 -97.09391 -20.499414 -35.349995 -56.83239 -27.835915 -39.54562 -121.353
294850000 -43.883598 126.04733 -56.896667 -46.020897 -19.927664 19.583429 -0.11744019 -105.50591
-57.047222 -47.065353 -39.966209 -125.28153 -0.10912496 -101.52452 -19.935104 -46.430325
-19.943336 19.599634 -0.12052838 -101.53059 -47.470177 121.04906 -56.177757 -42.047997
-0.12456867 -105.53745 -19.949524 -46.526031 -55.810741 -40.519241 -38.624062 -138.49922
318587500 -40.982063 111.19073 -57.926788 -60.661247 -19.441763 14.20013 -0.12765239 -113.94696
-57.699074 -59.147717 -39.944534 -139.83238 -0.11907483 -109.66435 -19.453617 -57.610172
-19.441046 14.231656 -0.12626755 -109.63415 -44.324493 114.99676 -55.475006 -57.418442
-0.13004729 -113.97418 -19.461164 -57.649441 -55.797611 -56.858715 -38.194744 -153.09962
342325000 -39.194672 101.68999 -57.39999 -74.671936 -19.013823 8.9024982 -0.13576812 -122.38841
-57.442005 -74.873734 -38.770199 -157.70975 -0.12868422 -117.7466 -19.024166 -68.869568
-19.016775 8.8737364 -0.13432607 -117.74737 -41.680199 107.05922 -55.907757 -65.946205
-0.13991065 -122.37535 -19.035519 -68.865143 -55.582005 -64.773132 -37.66161 -162.62624
366062500 -37.906467 92.748543 -57.818626 -83.542381 -18.635918 3.6771584 -0.14153329 -130.80777
-57.560455 -83.641518 -38.427086 -169.3019 -0.13417491 -125.83191 -18.650726 -80.120384
-18.650126 3.6869533 -0.14622997 -125.84152 -40.037903 100.50162 -55.643585 -79.494194
-0.14841992 -130.81094 -18.661911 -80.163414 -55.6507 -80.865669 -37.182693 -178.508
389800000 -36.828186 85.004028 -58.200737 -94.077324 -18.311192 -1.4954894 -0.15450288 -139.22815
-58.261684 -92.737434 -37.735741 177.98006 -0.1471619 -133.94695 -18.332794 -91.447235
-18.317799 -1.5290372 -0.15559874 -133.9767 -38.386803 92.5784 -55.845654 -92.906395
-0.15989268 -139.2383 -18.337065 -91.501465 -55.711071 -92.792862 -36.592209 169.79646
413537500 -36.022747 74.007484 -58.868683 -100.57816 -18.028172 -6.606101 -0.16040888 -147.66176
-58.936443 -101.22618 -37.36282 163.72574 -0.15727313 -142.03604 -18.046597 -102.86954
-18.034405 -6.6189957 -0.16454896 -142.05408 -37.069611 82.341293 -56.124855 -102.8242
-0.16614029 -147.6507 -18.052078 -102.8807 -56.181351 -102.65986 -36.296074 157.89624
437275000 -35.002934 66.200226 -59.764618 -109.22198 -17.780193 -11.636401 -0.17065232 -156.05963
-59.618881 -109.25929 -36.606163 153.51926 -0.16459568 -150.15138 -17.80328 -114.3335
-17.786268 -11.633155 -0.17349298 -150.1523 -36.181019 75.004135 -57.133015 -116.97431
-0.17462848 -156.07974 -17.8071 -114.376 -57.015621 -116.59875 -36.495781 146.15993
461012500 -34.425751 58.702492 -60.795681 -117.09155 -17.568886 -16.566338 -0.17833868 -164.47258
-60.867054 -117.03282 -36.463802 140.97025 -0.17446908 -158.23177 -17.593458 -125.89768
-17.571407 -16.582752 -0.17854142 -158.22676 -35.184597 67.319038 -57.26717 -126.17767
-0.18330422 -164.48389 -17.596115 -125.90208 -57.011147 -126.50974 -35.980698 134.37076
484750000 -33.73962 48.323338 -61.758774 -113.00951 -17.384398 -21.44994 -0.18343861 -172.8739
-61.852581 -110.96348 -35.978477 129.81964 -0.17879763 -166.3394 -17.408669 -137.51695
-17.392374 -21.420547 -0.1891253 -166.31999 -34.244904 58.391949 -58.532173 -136.93298
-0.19051833 -172.89728 -17.416386 -137.55495 -58.367973 -136.75012 -36.024017 121.5515
508487500 -33.545555 40.806923 -62.659737 -112.41199 -17.225861 -26.196285 -0.18808383 178.70241
-62.852692 -112.41698 -36.156818 119.03574 -0.18644784 -174.40114 -17.251549 -149.22958
-17.230751 -26.223064 -0.18815082 -174.41345 -34.062508 50.442608 -59.660931 -139.15193
-0.19572519 178.69986 -17.25613 -149.22943 -59.631508 -137.11151 -36.320606 112.2084
532225000 -33.486034 30.874491 -61.148117 -102.90639 -17.095938 -30.884129 -0.19271673 170.31752
-61.210861 -106.72439 -35.861221 107.27606 -0.1893615 177.52345 -17.125208 -160.98645
-17.1015 -30.898594 -0.19473341 177.48166 -33.586277 42.750412 -60.446369 -136.57036
-0.20056643 170.28209 -17.132368 -161.06732 -60.374702 -135.40489 -36.241322 102.61472
555962500 -33.267868 21.574526 -59.46286 -101.43844 -16.987778 -35.483425 -0.1990183 161.92136
-59.468498 -102.24286 -35.740852 96.302139 -0.19659966 169.41667 -17.024817 -172.86838
-17.002188 -35.477757 -0.19707689 169.42293 -33.409031 35.298485 -60.353794 -140.96852
-0.20478316 161.88412 -17.021791 -172.94588 -60.483326 -139.56639 -36.574375 88.563599
579700000 -33.507706 12.816974 -57.735592 -108.68929 -16.902607 -39.978855 -0.20311598 153.49165
-57.84444 -108.81459 -36.015636 84.510674 -0.20072615 161.34404 -16.937677 175.12602
-16.908882 -40.007504 -0.20512161 161.32381 -33.254932 26.269945 -60.621239 -127.55276
-0.20902863 153.49481 -16.944546 175.10089 -60.385246 -128.70525 -36.889725 78.751984
603437500 -33.635372 5.0724401 -56.439137 -112.73119 -16.834919 -44.384083 -0.21083242 145.09839
-56.430508 -112.28916 -36.44006 73.412674 -0.20354107 153.24033 -16.876301 163.03546
-16.837954 -44.389256 -0.20742622 153.2791 -33.389603 16.04092 -59.011929 -123.32861
-0.21331117 145.09064 -16.877583 163.04576 -59.018402 -124.44018 -37.518978 65.645615
627175000 -34.049446 -4.6543951 -55.277306 -117.43697 -16.779995 -48.705166 -0.21422072 136.69565
-55.17445 -116.70831 -37.598267 62.715488 -0.20636579 145.17815 -16.824398 150.88695
-16.788431 -48.7141 -0.21214639 145.16557 -33.744064 8.98423 -58.021175 -131.03441
-0.21825331 136.68001 -16.828388 150.86452 -57.820503 -129.60387 -38.606731 55.315891
650912500 -34.307808 -12.544391 -53.797157 -124.8466 -16.743143 -52.921989 -0.21899998 128.27966
-53.92556 -125.63966 -37.865513 51.657341 -0.21112779 137.08221 -16.787838 138.60147
-16.74597 -52.948055 -0.21500167 137.07799 -34.042049 -0.043972593 -56.325974 -131.02745
-0.2177919 128.27431 -16.792414 138.60358 -56.355602 -131.4375 -39.641281 45.839481
674650000 -35.447247 -22.760775 -52.304371 -136.21696 -16.713512 -57.067245 -0.21997209 119.88754
-52.216988 -136.66458 -38.93721 39.218102 -0.21064544 128.98781 -16.762272 126.27666
-16.718262 -57.064671 -0.22076318 128.99748 -34.715633 -6.555819 -54.94516 -142.96581
-0.22081465 119.86622 -16.765856 126.22781 -54.914261 -142.04936 -41.094719 32.222012
698387500 -36.34552 -30.900532 -51.082645 -147.55185 -16.693499 -61.085304 -0.22168812 111.46606
-51.018017 -147.245 -39.608288 28.191874 -0.20916551 120.9269 -16.74292 113.82506
-16.704622 -61.096386 -0.22799926 120.91595 -35.4814 -15.600448 -53.195377 -153.65375
-0.22806025 111.45943 -16.757515 113.79012 -53.13636 -152.15804 -42.408527 15.993042
722125000 -37.660625 -40.442768 -49.823566 -160.04332 -16.678995 -65.067139 -0.2238054 103.06291
-49.805752 -159.43593 -40.051033 12.440332 -0.20904559 112.82676 -16.734856 101.29018
-16.691328 -65.063057 -0.23312506 112.81906 -36.80299 -22.928768 -52.002026 -163.3369
-0.22714499 103.05575 -16.750404 101.26701 -51.958977 -163.32539 -44.554329 2.7018728
745862500 -39.731571 -50.872574 -48.973167 -173.4136 -16.681061 -68.947693 -0.2255799 94.664223
-48.903549 -173.05202 -41.516251 -4.7712488 -0.21873035 104.73434 -16.736687 88.679497
-16.684881 -68.956093 -0.22926188 104.71593 -37.979099 -27.689079 -51.143082 -174.27798
-0.23007539 94.660027 -16.747507 88.650497 -51.161911 -174.53654 -46.92585 -16.579948
769600000 -42.154217 -56.886768 -48.45586 174.09839 -16.679743 -72.741959 -0.23164001 86.237289
-48.477501 174.62698 -43.188663 -22.834055 -0.21402384 96.647606 -16.74271 75.96611
-16.689419 -72.760002 -0.23515022 96.625214 -39.472958 -34.709545 -50.26495 173.05415
-0.23347227 86.234734 -16.753508 75.934448 -50.197731 173.25923 -49.714054 -50.970013
793337500 -46.2187 -67.880638 -47.776344 160.4883 -16.68478 -76.4991 -0.2330811 77.831581
-47.833561 160.46873 -43.987976 -48.947556 -0.21791643 88.533913 -16.750237 63.2052
-16.694483 -76.47937 -0.23738691 88.556206 -42.049206 -38.7831 -49.487141 161.27628
-0.23535246 77.829117 -16.762632 63.177502 -49.547699 161.32733 -50.279289 -96.215508
817075000 -55.631573 -81.582558 -47.24548 146.63339 -16.69496 -80.161736 -0.23544829 69.409172
-47.28373 146.74167 -44.730282 -75.038498 -0.2225758 80.469475 -16.763571 50.36203
-16.701509 -80.170029 -0.23433815 80.463936 -45.854233 -39.91917 -48.763401 148.56273
-0.23965599 69.41996 -16.771572 50.353233 -48.771286 148.61717 -47.67569 -132.61037
840812500 -56.78886 101.95356 -46.937031 133.48875 -16.706694 -83.795776 -0.23937415 61.017162
-46.912697 133.63065 -44.945885 -99.455742 -0.22591422 72.35392 -16.781908 37.479996
-16.715157 -83.780457 -0.23642574 72.37043 -51.303791 -16.586065 -48.383175 135.4192
-0.23650789 61.020069 -16.781565 37.472088 -48.396778 135.36401 -45.822632 -159.55852
864550000 -46.480133 89.426834 -46.451931 120.26955 -16.718012 -87.374008 -0.2398295 52.593613
-46.504608 120.3731 -43.983517 -122.65964 -0.22760926 64.263702 -16.795822 24.540514
-16.726761 -87.363991 -0.23922461 64.271729 -52.426254 40.73494 -47.979427 123.22422
-0.2369246 52.593979 -16.791956 24.510153 -47.989372 123.14879 -43.329899 -175.11894
888287500 -41.983608 83.610062 -46.186829 106.84151 -16.735268 -90.869148 -0.23861676 44.183064
-46.189583 106.85307 -43.205536 -147.17563 -0.23074831 56.173588 -16.809584 11.53501
-16.738617 -90.877029 -0.238443 56.180756 -46.21994 70.386833 -47.640732 109.9735
-0.23919809 44.172806 -16.811741 11.517262 -47.615868 109.69647 -41.714691 170.23982
912025000 -39.128277 73.311836 -45.984779 93.457664 -16.752005 -94.371445 -0.24381915 35.763554
-45.950928 93.345192 -41.581635 -164.86481 -0.23280562 48.0653 -16.82803 -1.5107294
-16.757717 -94.338539 -0.24159925 48.096886 -42.419552 74.277039 -47.379074 97.092407
-0.24075401 35.757729 -16.825741 -1.5314466 -47.320564 96.902161 -39.778679 158.86833
935762500 -37.037056 63.88168 -45.925873 79.157249 -16.769918 -97.793098 -0.24601066 27.34358
-45.984169 79.174973 -40.214516 176.14326 -0.23339322 39.989544 -16.847071 -14.592053
-16.77503 -97.794617 -0.24332441 39.990856 -39.577568 69.783592 -47.160206 83.817619
-0.24359365 27.340588 -16.84836 -14.600946 -47.1917 83.751472 -38.637539 150.07156
959500000 -35.30051 53.945583 -45.766308 64.43718 -16.789267 -101.20295 -0.25147519 18.933788
-45.773045 64.588226 -38.408909 164.00401 -0.23505864 31.905102 -16.871389 -27.676035
-16.794249 -101.20687 -0.24704638 31.89377 -37.363529 66.059761 -47.074173 69.92305
-0.24347009 18.907879 -16.868414 -27.726032 -47.052116 70.059113 -37.782948 139.50078
983237500 -34.09108 45.212616 -45.993042 51.093533 -16.809431 -104.55917 -0.25277299 10.523406
-45.980648 51.489082 -37.551826 151.11514 -0.2382068 23.80934 -16.892281 -40.802902
-16.816391 -104.58717 -0.24919364 23.78907 -35.701897 60.011387 -46.93956 57.03923
-0.25111836 10.510241 -16.894976 -40.847309 -46.938377 57.203651 -36.915451 132.52594
1006975000 -33.204632 35.698563 -46.160805 38.21088 -16.82839 -107.92846 -0.25391555 2.1285129
-46.176418 38.495998 -36.472294 142.12254 -0.23964897 15.713719 -16.916927 -53.936672
-16.836405 -107.92873 -0.24852695 15.703063 -34.317165 52.250458 -46.984066 43.722649
-0.25194183 2.0750573 -16.912867 -54.005192 -46.947842 43.530739 -36.220837 125.20792
1030712500 -32.300426 27.405722 -46.397697 24.2458 -16.853573 -111.24416 -0.25578737 -6.2605834
-46.408062 24.462605 -35.76524 130.97006 -0.24049722 7.6218696 -16.941187 -67.09507
-16.860342 -111.23636 -0.25099692 7.6253481 -33.255909 45.146542 -47.173023 29.069883
-0.25288773 -6.3105121 -16.941856 -67.152794 -47.108772 28.920849 -35.733288 114.91198
1054450000 -31.615847 16.96813 -46.950741 10.015659 -16.876034 -114.52002 -0.25102443 -14.668899
-46.971256 10.417202 -35.304195 121.73191 -0.24181652 -0.46379092 -16.965782 -80.281715
-16.883205 -114.53356 -0.25183633 -0.46859822 -32.397041 37.663185 -47.407043 15.883609
-0.25340199 -14.719763 -16.96566 -80.355637 -47.385796 16.160873 -35.428562 107.62256
1078187500 -31.142111 8.5305748 -47.399734 -2.1300037 -16.903196 -117.79733 -0.25171706 -23.081978
-47.360535 -2.2566562 -34.632954 113.54909 -0.24362862 -8.5669546 -16.993916 -93.51696
-16.913269 -117.80609 -0.25461233 -8.5571604 -31.591736 29.480165 -47.692162 1.7657276
-0.25636154 -23.152735 -16.998951 -93.597321 -47.636627 1.8477777 -34.982533 101.63559
1101925000 -30.740494 -0.70415264 -48.025635 -15.478679 -16.934984 -121.03471 -0.25196397 -31.492496
-48.054543 -15.410167 -34.045498 105.22485 -0.24536452 -16.651785 -17.024929 -106.76469
-16.940445 -121.03971 -0.25129223 -16.654896 -31.06271 21.291155 -48.182316 -12.302475
-0.25843382 -31.575125 -17.028893 -106.85651 -48.236965 -12.276532 -34.835213 93.87719
1125662500 -30.556681 -9.3630075 -48.817665 -28.957985 -16.969168 -124.23399 -0.25576645 -39.927071
-48.793362 -28.945017 -33.665489 95.569344 -0.24726266 -24.745447 -17.061981 -120.07311
-16.973009 -124.24815 -0.25483653 -24.75848 -30.673944 13.813994 -48.650322 -24.714279
-0.2581639 -39.983742 -17.065424 -120.13873 -48.686001 -24.144911 -34.596024 87.583405
1149400000 -30.471695 -17.887087 -49.67033 -40.679169 -17.000282 -127.40369 -0.25342068 -48.334431
-49.685947 -40.508724 -33.321671 88.725296 -0.24764726 -32.846142 -17.100225 -133.4064
-17.007696 -127.42593 -0.25516069 -32.861145 -30.237471 5.5286551 -49.396751 -40.128414
-0.2622 -48.399651 -17.106459 -133.48473 -49.445839 -40.132946 -34.562557 79.838249
1173137500 -30.439068 -27.603321 -51.045509 -53.245651 -17.034424 -130.55321 -0.25572088 -56.730984
-50.999027 -52.836807 -33.137764 81.210373 -0.24358666 -40.943935 -17.140142 -146.75856
-17.044815 -130.56186 -0.25652325 -40.951927 -30.115778 -2.6871123 -50.239056 -53.441769
-0.26146078 -56.825489 -17.145998 -146.87241 -50.263359 -53.274071 -34.644989 72.738556
1196875000 -30.565392 -36.840431 -52.504604 -64.960068 -17.069923 -133.63097 -0.25252092 -65.157036
-52.411282 -64.419128 -33.168999 72.894157 -0.24252316 -49.014244 -17.179941 -160.15552
-17.084387 -133.64497 -0.25751856 -49.02702 -29.902933 -12.346742 -51.64127 -68.598831
-0.26183301 -65.236015 -17.187241 -160.26053 -51.563107 -68.493591 -34.655964 66.808258
1220612500 -30.840706 -45.776752 -54.292732 -73.099884 -17.112736 -136.68976 -0.25308937 -73.585785
-54.167976 -73.014633 -33.151302 64.398964 -0.24827754 -57.123634 -17.224575 -173.6497
-17.121431 -136.6993 -0.2532686 -57.139439 -29.961237 -19.587889 -53.010189 -79.744873
-0.26112369 -73.642677 -17.228365 -173.72899 -53.010498 -79.850967 -34.804585 61.014442
1244350000 -31.156181 -54.715263 -56.529449 -77.889923 -17.15185 -139.69589 -0.25413775 -82.006783
-56.622738 -78.317101 -33.193573 57.546059 -0.24578813 -65.241783 -17.266575 172.8152
-17.162083 -139.69785 -0.25566694 -65.239731 -30.081745 -27.300835 -54.750389 -93.4104
-0.26289248 -82.062027 -17.272469 172.7556 -54.666985 -93.085381 -35.267178 54.144176
1268087500 -31.684347 -63.906448 -59.419102 -77.250122 -17.191313 -142.653 -0.25603551 -90.419113
-59.306053 -78.160774 -33.546852 49.33139 -0.24676326 -73.349594 -17.31057 159.26147
-17.199528 -142.64209 -0.25560042 -73.333328 -30.260704 -35.514259 -57.364986 -110.30456
