! MARKI MICROWAVE INC.
! Email:             	info@markimicrowave.com   				Phone:   408-778-4200
! Model Number:      	C20-0R520						Date:    10/12
! Filename:		C20_0R520.S4P						Version: 1.0
! Description:       	4-port S-parameter data for Directional Coupler C20-0R520
! Frequency Range: 	10 MHz to 24 GHz		
! Port Configuration:	PORT 1: Input 
!			PORT 2: Output 
!			Port 3: Coupled 	
!			Port 4: Isolated

! S4P File: Measurements: Mag<S11> Ang<S11> Mag<S12> Ang<S12> Mag<S13> Ang<S13> Mag<S14> Ang<S14>! row 1 
!			  Mag<S21> Ang<S21> Mag<S22> Ang<S22> Mag<S23> Ang<S23> Mag<S24> Ang<S24>! row 2 
!			  Mag<S31> Ang<S31> Mag<S32> Ang<S32> Mag<S33> Ang<S33> Mag<S34> Ang<S34>! row 3 
!			  Mag<S41> Ang<S41> Mag<S42> Ang<S42> Mag<S43> Ang<S43> Mag<S44> Ang<S44>! row 4

# Hz S  dB   R 50
10000000 -36.805401 58.373222 -0.075215518 -12.59486 -45.888641 70.994881 -58.855904 99.096741
-0.070264891 -12.761916 -37.29652 49.828472 -61.726761 46.110928 -47.291962 57.625137
-45.004673 75.59436 -61.172825 162.84923 -38.240025 44.305992 -0.057826854 -12.88186
-64.376457 164.82129 -45.019234 109.27637 -0.063689567 -12.694928 -39.971272 44.66843
39987500 -36.286819 48.630013 -0.089149192 -17.342779 -43.214573 67.497772 -59.983112 96.110519
-0.084962867 -17.475143 -36.654213 41.311314 -62.416683 56.741901 -44.346371 56.692055
-42.518314 71.186157 -62.723789 156.35693 -37.615364 38.040466 -0.0710788 -17.577341
-64.831894 157.53003 -42.519535 98.032051 -0.074908018 -17.42606 -38.860531 38.016808
69975000 -35.760303 37.842144 -0.10462373 -23.024506 -40.385574 63.117561 -61.439198 90.086151
-0.10163399 -23.126827 -35.95932 31.882599 -62.656483 66.50621 -41.250893 54.895382
-39.873764 65.821571 -63.534069 143.61369 -36.881084 30.74119 -0.087364435 -23.210091
-64.925468 145.91321 -39.8559 85.848763 -0.088781513 -23.099495 -37.68898 30.206396
99962500 -35.165108 26.018591 -0.12206113 -29.645466 -37.42617 57.773949 -62.589535 85.559959
-0.11933468 -29.724291 -35.271168 21.850916 -62.836624 75.405678 -38.024597 52.080502
-37.103687 59.484062 -64.403099 130.6073 -36.191387 22.351093 -0.10482791 -29.784424
-64.860962 133.24249 -37.072041 72.773849 -0.10499652 -29.711849 -36.506386 21.402237
129950000 -34.632668 13.410877 -0.14187464 -37.202141 -34.360634 51.51778 -63.856312 77.597687
-0.14000633 -37.256107 -34.518665 10.64563 -63.148338 78.411903 -34.691437 48.383533
-34.224892 52.242867 -64.970306 113.71489 -35.47646 13.316733 -0.12450571 -37.301567
-65.116959 117.21832 -34.171307 58.717327 -0.12338564 -37.258984 -35.316448 11.265265
159937500 -34.039421 -0.062484574 -0.1619627 -45.698982 -31.208397 44.368118 -64.705841 68.821739
-0.16121751 -45.721382 -33.784904 -1.0953072 -63.401665 84.296913 -31.256943 43.740089
-31.251337 44.108257 -65.669159 97.017532 -34.860153 3.5893259 -0.14592245 -45.757984
-65.08889 100.87346 -31.178482 43.781868 -0.14221945 -45.745209 -34.045425 0.10675664
189925000 -33.256538 -9.8312035 -0.1822758 -54.175266 -29.380672 35.752548 -61.874432 60.047997
-0.18091303 -54.19553 -33.125389 -11.561073 -61.737915 78.372108 -29.382338 35.218395
-29.364176 35.360607 -64.71772 85.530388 -34.063545 -4.180254 -0.16572846 -54.253006
-62.742718 88.592812 -29.352074 35.318401 -0.16210279 -54.238552 -33.172215 -9.6054316
219912500 -32.917156 -16.672209 -0.19825344 -62.633034 -27.969252 27.263786 -59.938862 57.536297
-0.19781141 -62.651482 -32.708401 -19.774466 -60.656231 59.175495 -27.958752 26.87678
-27.967535 27.113419 -62.068237 66.147789 -33.454586 -12.258389 -0.18372445 -62.726265
-60.553551 61.577763 -27.964485 26.913706 -0.1815498 -62.712372 -32.572216 -18.448547
249900000 -32.742496 -24.478579 -0.21299621 -71.084312 -26.841373 18.808458 -58.953922 44.614979
-0.2129325 -71.099495 -32.540295 -28.11685 -59.562347 46.0728 -26.824799 18.553345
-26.841059 18.676779 -60.703651 52.695168 -33.102711 -19.903582 -0.20044611 -71.183983
-59.588223 43.782017 -26.823971 18.571131 -0.19871381 -71.173683 -32.247761 -26.628557
279887500 -32.773609 -31.474123 -0.22644359 -79.521217 -25.890318 10.449303 -57.87196 28.63801
-0.22668469 -79.541 -32.548573 -36.085773 -58.601967 31.732752 -25.88307 10.13382
-25.895279 10.298899 -60.015926 38.193546 -32.977585 -26.943922 -0.2164312 -79.623352
-58.394871 28.839846 -25.878036 10.197672 -0.21496764 -79.611633 -32.102829 -34.754986
309875000 -32.928558 -37.959194 -0.23903225 -87.953079 -25.084618 2.0807478 -57.486729 14.503856
-0.23998307 -87.978256 -32.606205 -43.683426 -57.655411 17.348934 -25.077589 1.8055706
-25.087332 1.8772165 -58.632378 19.000202 -32.875687 -32.871407 -0.23209307 -88.060478
-57.649712 13.008511 -25.06138 1.8203562 -0.22870462 -88.040604 -31.999821 -42.614243
339862500 -33.10059 -44.004829 -0.25109088 -96.391731 -24.393152 -6.2955179 -56.631466 4.2157683
-0.25315446 -96.407211 -32.737911 -50.747982 -57.104454 2.4181192 -24.37993 -6.5859776
-24.394339 -6.5038085 -58.178104 5.3980131 -32.963455 -38.350857 -0.24479344 -96.48893
-57.138302 0.63065827 -24.369028 -6.5648723 -0.24186544 -96.468697 -31.933172 -49.907688
369850000 -33.348785 -49.288998 -0.26340452 -104.81975 -23.796083 -14.665496 -56.025314 -9.8118601
-0.2651054 -104.82726 -32.912045 -57.758049 -56.657772 -11.489605 -23.77832 -14.899027
-23.785276 -14.843699 -57.443333 -9.6762934 -33.013126 -42.942009 -0.25794166 -104.91964
-56.806015 -13.027935 -23.765669 -14.957961 -0.25378084 -104.89288 -31.956642 -56.817055
399837500 -33.570984 -53.936287 -0.27393138 -113.25104 -23.273752 -23.067131 -55.291679 -21.740753
-0.27454814 -113.25742 -33.200298 -64.068184 -56.205898 -21.651226 -23.253605 -23.264978
-23.256886 -23.190216 -56.954876 -22.987659 -33.169983 -47.557209 -0.26995265 -113.33733
-55.98156 -22.954155 -23.247162 -23.316902 -0.26554874 -113.31876 -32.064026 -62.958157
429825000 -33.960491 -58.082386 -0.28464952 -121.67591 -22.808945 -31.492954 -54.866146 -34.47377
-0.2848798 -121.68204 -33.570694 -70.341499 -55.628227 -36.192863 -22.801725 -31.605621
-22.795612 -31.593231 -56.373161 -37.740208 -33.187359 -51.241367 -0.28041914 -121.74769
-55.547985 -33.962318 -22.790518 -31.69454 -0.27719757 -121.73452 -32.285458 -68.918762
459812500 -34.340893 -62.555531 -0.29375356 -130.09152 -22.412527 -39.835602 -54.480141 -46.687572
-0.29539663 -130.09908 -33.998581 -76.283707 -55.020691 -48.084114 -22.400375 -39.995693
-22.394257 -39.944164 -55.795475 -50.692566 -33.278526 -55.865738 -0.29144061 -130.1582
-55.007244 -45.978592 -22.3874 -40.03064 -0.28812507 -130.14761 -32.608269 -75.080482
489800000 -34.765617 -67.124702 -0.30510387 -138.509 -22.061296 -48.206337 -53.923321 -58.107521
-0.30407807 -138.52167 -34.513176 -82.89592 -54.899666 -59.902756 -22.046909 -48.399204
-22.039179 -48.338501 -55.284096 -63.199406 -33.501175 -59.577843 -0.30271262 -138.57423
-54.500992 -58.377792 -22.040911 -48.402676 -0.29742154 -138.5578 -32.861179 -81.239838
519787500 -35.192982 -70.722275 -0.31444329 -146.9151 -21.758183 -56.554447 -53.35429 -70.155457
-0.31319594 -146.94084 -35.047783 -87.751831 -54.628494 -71.26265 -21.743826 -56.771732
-21.737505 -56.701378 -55.071381 -75.005714 -33.708149 -63.006229 -0.31242353 -146.98622
-53.983524 -70.489075 -21.74074 -56.811253 -0.30721295 -146.96298 -33.147839 -87.752792
549775000 -35.529472 -74.254684 -0.32339594 -155.33235 -21.500912 -64.925392 -53.127312 -81.048706
-0.32167649 -155.34373 -35.62846 -92.636543 -54.484192 -82.45192 -21.480219 -65.125137
-21.476877 -65.062912 -54.634346 -85.529228 -33.812164 -66.472527 -0.3217935 -155.39825
-53.550793 -80.54512 -21.477316 -65.186531 -0.31533608 -155.37305 -33.425213 -93.94265
579762500 -35.87888 -77.459595 -0.33240128 -163.74098 -21.278255 -73.274361 -52.671875 -90.750168
-0.32999644 -163.75511 -36.201797 -96.199036 -54.34169 -92.876892 -21.25877 -73.499939
-21.253735 -73.423843 -54.383804 -94.61676 -33.956989 -69.905266 -0.32907087 -163.80963
-53.152905 -91.482391 -21.25561 -73.549774 -0.32521555 -163.78511 -33.721287 -99.460327
609750000 -36.317768 -80.216965 -0.34187254 -172.14456 -21.091724 -81.643654 -52.404579 -102.36142
-0.33691716 -172.17725 -36.864117 -99.242828 -54.208294 -102.87294 -21.070038 -81.875946
-21.064878 -81.77684 -54.005993 -105.68809 -34.05983 -73.406876 -0.33703244 -172.21498
-52.91993 -102.54275 -21.069981 -81.89537 -0.33433747 -172.18842 -34.093853 -104.26608
639737500 -36.716011 -82.779343 -0.34852624 179.44592 -20.931025 -89.999741 -52.084473 -113.68341
-0.34474194 179.40953 -37.626507 -101.81973 -53.960651 -113.60797 -20.911629 -90.273552
-20.909763 -90.142792 -53.882988 -116.41664 -34.188423 -77.155663 -0.34412995 179.38655
-52.58572 -112.7029 -20.90731 -90.264946 -0.34191367 179.40744 -34.481579 -108.68311
669725000 -37.156128 -85.810677 -0.35582516 171.04393 -20.801315 -98.362335 -51.989647 -124.29356
-0.35341641 171.01044 -38.45451 -105.06578 -53.505474 -123.36884 -20.78076 -98.64193
-20.778364 -98.522163 -53.676846 -124.59443 -34.227501 -81.141998 -0.35095015 170.98276
-52.375362 -123.27245 -20.77289 -98.622047 -0.34850258 171.0031 -34.816174 -113.33811
699712500 -37.604664 -88.072067 -0.36391956 162.64107 -20.694229 -106.74532 -51.845772 -134.8324
-0.36140272 162.60292 -39.113064 -106.24202 -53.400772 -132.88098 -20.675034 -107.03741
-20.673954 -106.87817 -53.403008 -133.04179 -34.305843 -85.937012 -0.35776448 162.5769
-52.154594 -134.03494 -20.666685 -107.01665 -0.35491312 162.59366 -35.105511 -117.42359
729700000 -37.897415 -89.85437 -0.37201434 154.23488 -20.609743 -115.13568 -51.670872 -145.57922
-0.36842838 154.19292 -39.90234 -106.98634 -53.349339 -142.14511 -20.593113 -115.42182
-20.594538 -115.24406 -53.162987 -142.46025 -34.38245 -90.653656 -0.36460051 154.17007
-52.02858 -143.68842 -20.58584 -115.39258 -0.36037478 154.19186 -35.452057 -120.67439
759687500 -38.257462 -91.356827 -0.37757364 145.82616 -20.549625 -123.47368 -51.405037 -155.95486
-0.37549299 145.79439 -40.53183 -106.31319 -53.025352 -151.31325 -20.532219 -123.79326
-20.535065 -123.597 -52.953075 -150.37027 -34.6283 -96.05201 -0.36944073 145.76328
-51.837658 -153.59505 -20.523737 -123.7903 -0.36644226 145.79054 -35.869686 -123.22572
789675000 -38.69606 -91.941475 -0.38438749 137.42133 -20.506239 -131.87755 -51.476696 -165.38707
-0.38171339 137.39534 -40.950146 -105.33595 -52.738312 -160.69373 -20.487328 -132.15285
-20.491531 -131.98418 -52.69392 -160.01184 -35.068623 -101.45603 -0.3750076 137.35716
-51.555702 -163.62784 -20.483953 -132.162 -0.37139198 137.38493 -36.308655 -125.63244
819662500 -39.104073 -92.154839 -0.39082837 129.02763 -20.484085 -140.27379 -51.32486 -175.31741
-0.38884896 128.98314 -41.292091 -102.92934 -52.394321 -170.36058 -20.467857 -140.53322
-20.468615 -140.38921 -52.372505 -170.11833 -35.640575 -106.47125 -0.37862164 128.95865
-51.337643 -174.31699 -20.462866 -140.52754 -0.3772516 128.9821 -36.787609 -127.40284
849650000 -39.526245 -92.458855 -0.39633343 120.62019 -20.478615 -148.65833 -51.222107 175.56845
-0.39430949 120.58624 -41.562874 -100.45599 -52.035423 -179.81073 -20.458883 -148.92039
-20.461132 -148.74829 -52.096992 179.42975 -36.413013 -110.65102 -0.38456494 120.56573
-51.093781 175.93576 -20.458273 -148.88905 -0.38228351 120.57616 -37.253273 -127.95172
879637500 -39.921818 -91.529198 -0.40083075 112.21417 -20.483923 -157.08783 -51.185055 165.6602
-0.39982176 112.19131 -41.663445 -98.872658 -51.700722 171.33063 -20.467289 -157.30649
-20.468136 -157.13766 -51.733257 170.87929 -37.39024 -114.27959 -0.38899887 112.15442
-50.912003 166.13664 -20.463541 -157.27873 -0.38572979 112.13203 -37.696545 -128.4194
909625000 -40.298748 -90.661156 -0.40725756 103.81641 -20.505264 -165.50832 -51.175499 156.58926
-0.40533966 103.79441 -41.672276 -96.1959 -51.496933 161.58215 -20.485838 -165.67204
-20.490438 -165.51276 -51.470245 162.3855 -38.395565 -116.85034 -0.39383364 103.74979
-50.724121 156.80113 -20.484747 -165.67365 -0.39009884 103.72891 -38.094975 -126.99358
939612500 -40.612583 -87.998093 -0.411915 95.412689 -20.532791 -173.8813 -50.793678 147.72267
-0.41056144 95.391296 -41.446365 -92.890312 -51.237328 151.91431 -20.514662 -174.06096
-20.522039 -173.90738 -51.214161 152.72121 -39.454048 -117.03903 -0.39863268 95.342171
-50.513798 146.7652 -20.517082 -174.04915 -0.39440101 95.32618 -38.58667 -124.77294
969600000 -40.705654 -85.348885 -0.41617861 87.008797 -20.575239 177.746 -50.551361 138.70192
-0.4144828 86.989975 -41.203197 -91.481117 -50.855968 142.40883 -20.553307 177.55893
-20.564693 177.69751 -50.927471 143.06239 -40.552063 -114.545 -0.40225288 86.935028
-50.218842 136.99731 -20.558681 177.56235 -0.39907935 86.922707 -39.01318 -121.72971
999587500 -40.875954 -81.534767 -0.42009598 78.603638 -20.623022 169.38033 -50.290813 130.4724
-0.41987979 78.593918 -40.718685 -89.886978 -50.451012 131.9536 -20.600443 169.16779
-20.614979 169.30171 -50.630352 132.86092 -41.379677 -108.84237 -0.40580478 78.536476
-49.970158 127.30878 -20.60972 169.15395 -0.40383518 78.514526 -39.260593 -118.91566
1029575000 -40.835735 -78.096489 -0.42521083 70.205017 -20.68082 160.98509 -50.096157 120.70554
-0.42465997 70.189941 -40.176815 -89.416489 -50.164909 121.50117 -20.657074 160.78
-20.670734 160.91548 -50.412128 121.90624 -41.807323 -102.46967 -0.41019896 70.138885
-49.764507 117.68028 -20.665255 160.78116 -0.4079282 70.104454 -39.340683 -115.33092
1059562500 -40.639988 -74.81675 -0.42949894 61.795563 -20.738977 152.60654 -49.866333 111.05769
-0.4294211 61.789936 -39.761433 -90.16069 -49.81572 110.75269 -20.716837 152.39232
-20.729853 152.52991 -50.194347 111.35272 -41.896 -96.345085 -0.41389146 61.74078
-49.575882 107.79754 -20.72197 152.37706 -0.41105333 61.69796 -39.251255 -111.34953
1089550000 -40.316715 -71.846542 -0.43397617 53.382172 -20.799213 144.20042 -49.651592 101.34672
-0.43325517 53.391663 -39.262608 -91.803581 -49.665951 100.56655 -20.775265 144.00859
-20.792738 144.12506 -50.042912 101.51633 -41.698669 -89.493507 -0.41933587 53.330986
-49.349499 98.472061 -20.783247 143.95958 -0.41438249 53.286358 -39.049282 -107.80401
1119537500 -39.886074 -69.054939 -0.43805054 44.988468 -20.86124 135.80527 -49.443428 90.797401
-0.43770474 44.982624 -38.759396 -93.880531 -49.472149 90.658302 -20.843309 135.60744
-20.855062 135.71684 -49.881214 91.706871 -41.172016 -83.923378 -0.42224655 44.917946
-49.253983 89.428604 -20.847042 135.55104 -0.4181492 44.88195 -38.692287 -105.07969
1149525000 -39.246346 -67.907394 -0.44232914 36.591293 -20.923031 127.45293 -49.107674 80.922661
-0.44263089 36.581802 -38.391373 -95.870628 -49.30471 79.732872 -20.907883 127.20055
-20.917513 127.32024 -49.731647 80.84687 -40.272228 -78.640747 -0.42616242 36.506615
-48.980167 80.003799 -20.909679 127.14662 -0.42184919 36.514965 -38.192692 -103.46387
1179512500 -38.588367 -66.949783 -0.44657329 28.182434 -20.985497 119.08093 -48.82645 71.018379
-0.4469994 28.175493 -37.870026 -99.66909 -49.04995 69.228119 -20.970297 118.78698
-20.977264 118.901 -49.513325 70.005333 -39.20702 -75.038727 -0.42994276 28.100683
-48.791832 69.99958 -20.969301 118.73306 -0.42575532 28.108133 -37.537842 -103.50792
1209500000 -37.890007 -67.733078 -0.45122337 19.7813 -21.04895 110.67199 -48.776493 60.522976
-0.4508701 19.771221 -37.456043 -103.34318 -48.899002 58.519928 -21.030476 110.37273
-21.036852 110.49255 -49.346416 58.915401 -38.062641 -73.424583 -0.43353501 19.70343
-48.728977 59.714474 -21.026962 110.30524 -0.42914924 19.699816 -36.784306 -104.04364
1239487500 -37.237522 -69.71669 -0.45536083 11.380779 -21.106016 102.25914 -48.683186 50.013569
-0.45492104 11.37158 -37.177425 -107.48319 -48.733025 48.021038 -21.088099 101.96759
-21.090761 102.05972 -49.319153 48.402363 -36.860458 -74.77536 -0.43776506 11.292178
-48.572735 49.599777 -21.081779 101.8844 -0.43254358 11.294051 -36.073463 -105.67122
1269475000 -36.619236 -72.921478 -0.45977563 2.9779923 -21.159964 93.850143 -48.619473 39.235268
-0.45737365 2.9652655 -36.899719 -112.16039 -48.631058 37.344799 -21.1394 93.558784
-21.139994 93.613625 -49.177605 37.601639 -35.844219 -78.946556 -0.44056156 2.8809166
-48.494675 39.421501 -21.129623 93.475616 -0.43580633 2.8908877 -35.509453 -108.04278
1299462500 -35.989277 -76.476929 -0.46338627 -5.4243517 -21.20562 85.408638 -48.541553 28.445068
-0.4621745 -5.4426804 -36.843159 -117.22269 -48.642696 26.643099 -21.18342 85.123459
-21.18531 85.208725 -49.171581 27.055073 -35.081917 -84.123703 -0.44315362 -5.5267544
-48.349052 28.425596 -21.172674 85.058281 -0.43882465 -5.5104074 -35.045307 -112.30985
1329450000 -35.499905 -80.787231 -0.46707335 -13.817172 -21.246181 76.98838 -48.438164 18.303875
-0.46576616 -13.848767 -36.819508 -122.45767 -48.688484 16.002722 -21.228138 76.679298
-21.224518 76.776535 -49.013988 16.186169 -34.531906 -89.454742 -0.44687203 -13.939775
-48.336079 18.568016 -21.213154 76.653893 -0.44342831 -13.916602 -34.658905 -117.02897
1359437500 -35.192272 -85.595596 -0.47044969 -22.218081 -21.281836 68.595108 -48.409401 6.801199
-0.46947926 -22.251581 -36.922657 -128.03511 -48.599529 5.1424241 -21.264557 68.249405
-21.258299 68.385109 -48.999336 5.4252176 -34.085621 -95.684883 -0.449431 -22.348072
-48.316761 7.3148742 -21.24592 68.246422 -0.44762313 -22.318283 -34.367355 -122.02465
1389425000 -34.848709 -90.074387 -0.47580177 -30.624714 -21.308577 60.156837 -48.386986 -3.5381751
-0.47415775 -30.650103 -37.139694 -134.58501 -48.626614 -6.3153219 -21.289783 59.810825
-21.287949 59.990685 -48.953518 -6.0759263 -33.756882 -102.19817 -0.45364991 -30.758368
-48.301018 -3.1722922 -21.270672 59.815247 -0.45030016 -30.726099 -34.215897 -127.58652
1419412500 -34.689426 -94.812477 -0.4805817 -39.031727 -21.327169 51.688362 -48.405346 -13.877747
-0.47750255 -39.047825 -37.403618 -141.40332 -48.624332 -16.949198 -21.309082 51.386745
-21.306953 51.560081 -48.958214 -16.831514 -33.563107 -108.65114 -0.45711932 -39.156635
-48.431332 -14.061542 -21.289873 51.383667 -0.45460534 -39.131771 -34.247639 -132.21582
1449400000 -34.651474 -99.673477 -0.48432904 -47.432247 -21.337286 43.262615 -48.477039 -24.885969
-0.4820933 -47.443615 -37.850792 -148.39886 -48.741661 -28.93079 -21.321836 42.948357
-21.321451 43.145229 -48.928291 -27.81658 -33.667538 -115.02258 -0.46005759 -47.564774
-48.600945 -24.840057 -21.301897 42.988888 -0.45793346 -47.539146 -34.47596 -137.71492
1479387500 -34.659073 -104.52531 -0.48903367 -55.829578 -21.337149 34.838566 -48.500191 -35.4464
-0.48628578 -55.845009 -38.489605 -155.46544 -48.865192 -40.02821 -21.326674 34.516132
-21.325857 34.73209 -49.039314 -38.494144 -33.874622 -121.35991 -0.46303499 -55.978313
-48.639309 -35.265633 -21.305202 34.558826 -0.46105149 -55.946922 -34.801464 -143.20038
1509375000 -34.763084 -108.45895 -0.4940277 -64.23069 -21.331846 26.41725 -48.524006 -45.727371
-0.49143687 -64.248543 -39.313881 -163.80524 -48.978794 -51.701614 -21.319012 26.083279
-21.32217 26.346365 -49.116962 -49.916386 -34.136559 -127.0228 -0.46683708 -64.374893
-48.831612 -45.620758 -21.30072 26.147713 -0.4638305 -64.353035 -35.235935 -148.63602
1539362500 -35.016521 -112.37425 -0.49847689 -72.626457 -21.320213 17.996349 -48.665928 -55.850975
-0.49674508 -72.651474 -40.634277 -171.80885 -49.292393 -62.888763 -21.310629 17.6546
-21.311758 17.974583 -49.273544 -61.239052 -34.649586 -132.43871 -0.47085735 -72.78112
-48.987526 -56.146885 -21.291166 17.71369 -0.46745759 -72.753807 -35.883575 -153.81911
1569350000 -35.333591 -115.64037 -0.5028401 -81.029114 -21.302147 9.5833445 -48.877502 -66.154633
-0.50016797 -81.039978 -42.442661 -176.44766 -49.401161 -73.468094 -21.294777 9.2450047
-21.298418 9.5599098 -49.342617 -72.9403 -35.396946 -137.99236 -0.47482964 -81.188164
-49.185974 -66.059334 -21.276579 9.2775354 -0.47150391 -81.164482 -36.721062 -158.20271
1599337500 -35.641747 -118.33807 -0.50627053 -89.437042 -21.27984 1.1543118 -49.127014 -77.045746
-0.50486124 -89.441208 -45.223293 162.63741 -49.636318 -84.251419 -21.269302 0.79282242
-21.279102 1.1570525 -49.696823 -82.890724 -36.243877 -142.14871 -0.47806594 -89.589432
