! MARKI MICROWAVE INC.
! Email:             	info@markimicrowave.com   				Phone:   408-778-4200
! Model Number:      	C20-0667						Date:    12/13
! Filename:		C20_0667.S4P						Version: 1.0
! Description:       	4-port S-parameter data for Directional Coupler C20-0667
! Frequency Range: 	10 MHz to 67 GHz		
! Port Configuration:	PORT 1: Input 
!			PORT 2: Output 
!			Port 3: Coupled 	
!			Port 4: Isolated
!
! S4P File: Measurements: Mag<S11> Ang<S11> Mag<S12> Ang<S12> Mag<S13> Ang<S13> Mag<S14> Ang<S14>! row 1 
!			  Mag<S21> Ang<S21> Mag<S22> Ang<S22> Mag<S23> Ang<S23> Mag<S24> Ang<S24>! row 2 
!			  Mag<S31> Ang<S31> Mag<S32> Ang<S32> Mag<S33> Ang<S33> Mag<S34> Ang<S34>! row 3 
!			  Mag<S41> Ang<S41> Mag<S42> Ang<S42> Mag<S43> Ang<S43> Mag<S44> Ang<S44>! row 4

# Hz S  dB   R 50
10000000 -44.01754 81.293549 -0.010433923 -7.355763 -52.081223 149.28525 -61.956898 13.278182
-0.0031344097 -7.354198 -45.559906 70.516747 -64.089157 57.898449 -52.762257 1.1761441
-50.563618 144.18428 -63.510098 31.828098 -44.906071 53.245193 -0.015425849 -7.3855715
-59.941826 -100.06507 -50.088684 62.804466 -0.020894822 -7.3787398 -42.865273 64.325928
93737500 -44.323586 73.052765 -0.011266553 -10.53573 -50.857475 132.5368 -64.248131 -31.782494
-0.0049807169 -10.537401 -45.507236 66.207726 -66.005959 57.655361 -51.410152 14.493796
-49.686951 128.91077 -65.558044 48.360073 -44.443565 48.81572 -0.020297976 -10.593025
-61.637524 -85.400833 -49.218525 63.640583 -0.025190301 -10.585027 -42.875271 56.648163
177475000 -44.570854 64.027679 -0.011516654 -14.363429 -49.461746 115.45828 -65.515694 -80.276344
-0.0057764472 -14.365378 -45.236031 61.861549 -66.992172 59.278427 -49.866211 26.830166
-48.647881 112.62704 -67.102211 53.38736 -43.90773 44.368454 -0.025561543 -14.446896
-63.414089 -64.122223 -48.191647 63.906528 -0.028926615 -14.438928 -42.740768 48.854267
261212500 -44.776005 55.080971 -0.011094942 -18.83601 -47.912468 97.914528 -66.974266 -128.29376
-0.0060599251 -18.837347 -44.805752 57.219036 -68.082001 53.959473 -48.183289 38.714294
-47.454258 95.846809 -68.666801 63.183151 -43.402306 39.306114 -0.031044148 -18.942793
-65.443596 -45.360615 -47.05814 63.354778 -0.034068644 -18.939528 -42.636555 39.381317
344950000 -44.885651 44.823273 -0.010778178 -23.950939 -46.21999 79.784294 -67.994247 -178.668
-0.0063583236 -23.955074 -44.255642 51.661446 -69.525208 48.503277 -46.373005 50.026955
-46.101097 78.369789 -70.108803 72.598572 -42.847878 33.26469 -0.038221519 -24.083731
-67.335129 -32.227417 -45.791218 62.321152 -0.038628299 -24.078939 -42.492653 28.671959
428687500 -45.089314 34.630688 -0.010305787 -29.715803 -44.446899 60.946461 -69.829346 127.98628
-0.0064604874 -29.720968 -43.650944 45.359108 -70.655754 44.350643 -44.473045 60.645218
-44.620293 60.323959 -71.48732 78.741203 -42.272099 26.787117 -0.044394899 -29.868099
-68.81321 -17.838108 -44.401653 60.675617 -0.044410698 -29.861822 -42.375511 17.409805
512425000 -44.430286 29.467722 -0.0084542064 -35.51841 -42.399593 55.584122 -69.379211 95.290428
-0.0035867183 -35.519279 -42.209995 41.817776 -69.789574 54.806122 -42.42794 54.731808
-42.567459 54.815411 -69.644295 82.96804 -41.539719 22.33526 -0.049034134 -35.667202
-67.388954 15.886681 -42.426048 54.724171 -0.04899697 -35.663048 -41.751434 9.5307636
596162500 -44.000122 24.89497 -0.0061686924 -41.330784 -40.800659 48.990681 -67.96402 66.434967
-0.0018411375 -41.33131 -41.021347 36.759464 -68.198715 58.958447 -40.762432 48.961433
-40.91354 49.069984 -68.656281 88.607811 -40.947178 15.507991 -0.053726669 -41.464062
-66.966026 37.918591 -40.834408 48.349102 -0.052997522 -41.463043 -41.311092 2.2453623
679900000 -43.806793 20.74979 -0.0053103296 -47.150543 -39.493782 42.617966 -67.088234 54.688179
0.0011157546 -47.154251 -39.843552 30.085573 -66.320908 64.1464 -39.446575 43.517075
-39.534256 43.001648 -67.665611 72.056534 -40.659588 9.6643867 -0.056825757 -47.26717
-66.852509 43.338181 -39.51086 42.782372 -0.057327483 -47.261421 -41.126785 -5.7986617
763637500 -43.888409 14.768423 -0.0034596636 -52.976894 -38.348492 36.764423 -66.001968 45.941097
0.0018767063 -52.985126 -39.032478 22.66917 -65.533684 59.559639 -38.402004 37.439396
-38.430561 36.923126 -67.13768 58.733383 -40.568111 2.9483597 -0.0611347 -53.066181
-66.477013 42.403793 -38.381832 36.99091 -0.061884992 -53.061985 -40.994835 -14.963073
847375000 -44.297215 8.4767227 -0.0024270243 -58.81163 -37.386074 31.337837 -64.588623 36.94215
0.0027854557 -58.817497 -38.285469 14.138654 -64.527367 50.175301 -37.422619 31.462303
-37.419643 30.902079 -65.725929 44.967834 -40.744019 -3.3446045 -0.064926103 -58.863842
-65.692093 38.723171 -37.444019 31.138863 -0.064060442 -58.861553 -40.946548 -24.774477
931112500 -45.046246 0.010747327 -0.0025313317 -64.6465 -36.532646 25.594147 -63.826138 30.745462
0.002165026 -64.650635 -37.772961 4.1658258 -63.980736 39.071693 -36.578819 25.772959
-36.517826 25.258547 -65.059288 40.938408 -41.099461 -11.189889 -0.068527721 -64.660362
-65.009315 29.21722 -36.594055 25.264238 -0.067800477 -64.657997 -41.078541 -36.808422
1014850000 -46.373234 -10.816998 -0.0035421855 -70.485344 -35.7673 19.673105 -63.059502 22.605276
0.0010483911 -70.490234 -37.474831 -7.5982943 -63.306553 32.656219 -35.811764 19.946072
-35.715458 19.384445 -63.856564 32.18047 -41.612083 -20.380995 -0.072568454 -70.459068
-63.831936 19.741888 -35.795841 19.521652 -0.069491662 -70.452225 -41.176205 -49.064983
1098587500 -47.513081 -27.96224 -0.0057968693 -76.330711 -35.079693 13.688903 -62.538158 17.12059
-0.00094537617 -76.330635 -37.2649 -20.668211 -62.131237 25.932188 -35.10569 14.004289
-35.019802 13.648786 -62.674389 21.811365 -42.239822 -31.367258 -0.074814625 -76.257523
-62.736694 16.845951 -35.06612 13.636858 -0.072488137 -76.256119 -41.312618 -62.352757
1182325000 -47.957005 -48.634747 -0.0082547488 -82.170212 -34.433666 7.8403745 -61.234676 13.25059
-0.003386368 -82.170868 -37.157478 -35.193974 -61.306141 17.405563 -34.445957 8.1138821
-34.388821 7.8366246 -61.762672 14.045921 -42.946903 -45.438751 -0.07813061 -82.056763
-61.859802 11.187526 -34.419575 7.7218261 -0.074797928 -82.060707 -41.258835 -77.056747
1266062500 -47.874767 -71.15744 -0.011797932 -88.008713 -33.844337 2.0167582 -60.293411 3.64362
-0.0070040002 -88.007729 -37.102776 -51.174614 -60.639893 7.2430077 -33.846512 2.2515919
-33.804905 1.8654644 -60.762753 5.2934771 -43.386822 -61.964111 -0.081187777 -87.860054
-61.275787 4.6164875 -33.822872 1.9226583 -0.076998092 -87.862396 -41.043564 -92.609406
1349800000 -47.453148 -93.539734 -0.017065447 -93.841644 -33.293571 -3.9035745 -59.338364 -6.7281036
-0.011169557 -93.840965 -36.977528 -68.108643 -59.372238 -2.3385925 -33.285427 -3.5079584
-33.258915 -3.9064722 -59.700039 -4.7400784 -43.656723 -79.980835 -0.083146863 -93.663567
-60.22274 -6.2016459 -33.268555 -3.7363436 -0.079741687 -93.66642 -40.739456 -108.75237
1433537500 -46.70097 -116.97545 -0.021834796 -99.672226 -32.779102 -9.6959858 -58.618038 -16.31525
-0.01692234 -99.673164 -36.769093 -85.488655 -58.632004 -14.62156 -32.754421 -9.3714743
-32.757915 -9.7793856 -58.704777 -12.58707 -43.518143 -100.0198 -0.085929863 -99.463425
-59.391468 -15.986782 -32.751656 -9.5639706 -0.081628889 -99.470169 -40.182522 -124.94022
1517275000 -45.644966 -139.45671 -0.028071899 -105.50214 -32.292118 -15.512067 -58.033401 -24.44902
-0.022493131 -105.49864 -36.423466 -103.49746 -57.77586 -23.735298 -32.267159 -15.205961
-32.291824 -15.576057 -57.757126 -22.667065 -43.134769 -119.94395 -0.087357841 -105.26573
-58.55624 -26.300112 -32.261578 -15.413696 -0.083066113 -105.27218 -39.520592 -140.81555
1601012500 -44.118141 -161.48827 -0.034273453 -111.32424 -31.829737 -21.377926 -57.309128 -32.868645
-0.028863885 -111.31941 -35.980724 -121.39682 -56.810516 -32.233631 -31.812159 -21.049932
-31.852554 -21.375124 -57.083622 -32.07172 -42.49778 -139.7249 -0.089489684 -111.07059
-57.926952 -35.399506 -31.810959 -21.151955 -0.085454404 -111.07517 -38.674538 -156.14445
1684750000 -42.095444 178.58733 -0.041036598 -117.14627 -31.392061 -27.244284 -56.996765 -42.763065
-0.034352131 -117.14284 -35.393589 -139.48695 -56.265186 -42.284317 -31.371555 -26.823704
-31.433624 -27.22917 -56.199459 -41.288586 -41.468994 -159.01413 -0.090868905 -116.87267
-57.086666 -45.339806 -31.3813 -26.914055 -0.086339332 -116.87875 -37.616592 -170.17538
1768487500 -39.418663 160.00838 -0.047981199 -122.95966 -30.986942 -33.100021 -56.361877 -51.349751
-0.041031502 -122.95745 -34.652138 -156.43883 -55.697044 -50.754715 -30.959352 -32.660812
-31.031496 -32.957901 -55.782642 -52.183773 -40.126331 -177.33507 -0.092655584 -122.67666
-56.466873 -54.831791 -30.975136 -32.743855 -0.088298358 -122.68253 -36.482033 176.67285
1852225000 -36.933434 148.43065 -0.053198341 -128.76854 -30.609808 -38.904324 -55.879467 -61.327095
-0.048402794 -128.76801 -33.849674 -172.19801 -55.178833 -60.09277 -30.584198 -38.419479
-30.649197 -38.801769 -55.420509 -61.168007 -38.612251 166.3584 -0.094936423 -128.48021
-55.820271 -64.752953 -30.601032 -38.572548 -0.08989764 -128.48402 -35.263599 164.98126
1935962500 -34.932098 139.64893 -0.05963679 -134.57434 -30.245007 -44.826683 -55.532528 -71.435257
-0.056075629 -134.57196 -32.90258 173.28668 -54.5989 -70.065201 -30.225414 -44.210426
-30.295242 -44.648643 -54.620789 -70.732506 -36.868053 152.92409 -0.096448533 -134.28677
-55.294403 -74.477585 -30.230974 -44.398941 -0.091772981 -134.29128 -34.10696 154.27344
2019700000 -33.34074 132.42224 -0.066571459 -140.37148 -29.903065 -50.628513 -55.093666 -81.248558
-0.063438952 -140.36736 -31.966318 160.42511 -54.079746 -79.020538 -29.874918 -50.018631
-29.956764 -50.465031 -54.098202 -80.341461 -35.267948 141.70461 -0.098370567 -140.09062
-54.794273 -85.215073 -29.883007 -50.149906 -0.094524965 -140.09279 -33.064308 144.86285
2103437500 -31.933708 125.1827 -0.07214646 -146.16798 -29.579332 -56.455761 -54.434856 -90.852264
-0.069990784 -146.16074 -31.030415 148.98769 -53.710007 -88.481789 -29.540611 -55.910385
-29.631107 -56.261196 -53.817844 -89.449203 -33.783283 132.36234 -0.10077345 -145.89496
-54.445042 -94.07547 -29.55912 -56.016445 -0.096614748 -145.89532 -32.041477 136.31113
2187175000 -30.69417 118.77955 -0.07753288 -151.96378 -29.268789 -62.265099 -53.940342 -99.736916
-0.075801417 -151.95201 -30.10096 138.36246 -53.299206 -97.272171 -29.228859 -61.718342
-29.323776 -61.970245 -53.31348 -99.030457 -32.441696 124.479 -0.10373554 -151.69873
-54.092228 -102.75733 -29.246113 -61.831127 -0.098845415 -151.6965 -31.124151 127.87139
2270912500 -29.60372 112.25039 -0.081738465 -157.7549 -28.976011 -68.032852 -53.390018 -110.36158
-0.080949575 -157.74385 -29.254513 128.69412 -52.776066 -106.95184 -28.92779 -67.543282
-29.026503 -67.764679 -52.856373 -108.1797 -31.267044 116.78166 -0.10675198 -157.50201
-53.588078 -110.97191 -28.952061 -67.62619 -0.10243498 -157.5058 -30.283033 119.78151
2354650000 -28.616724 105.75792 -0.086548544 -163.54367 -28.699108 -73.773567 -53.054398 -119.908
-0.084873267 -163.53458 -28.442184 119.92316 -52.306065 -116.59109 -28.646505 -73.350082
-28.741503 -73.594086 -52.367897 -118.22694 -30.14431 109.46902 -0.10937212 -163.30316
-53.082024 -119.28585 -28.662409 -73.476547 -0.10587793 -163.31194 -29.482914 112.11172
2438387500 -27.782518 99.435211 -0.090556197 -169.32762 -28.427782 -79.523521 -52.404629 -128.87749
-0.090458743 -169.32146 -27.687271 111.99577 -51.776611 -126.06192 -28.381317 -79.184143
-28.467535 -79.399307 -51.881828 -127.7656 -29.247482 102.4973 -0.11384928 -169.10614
-52.6964 -128.12843 -28.395042 -79.308571 -0.10953886 -169.11536 -28.812948 104.76047
2522125000 -27.031628 93.396652 -0.094297461 -175.11517 -28.171421 -85.263779 -51.934975 -138.51685
-0.095340759 -175.11115 -26.986116 104.18068 -51.311565 -135.82204 -28.131838 -84.995117
-28.199297 -85.211334 -51.443653 -137.02844 -28.407148 95.705795 -0.11712372 -174.90582
-52.228069 -136.57625 -28.140495 -85.082558 -0.11286803 -174.91995 -28.171469 97.729164
2605862500 -26.296318 87.357178 -0.099845767 179.09723 -27.924303 -91.040413 -51.612473 -147.72911
-0.098365195 179.1026 -26.320215 96.596115 -50.915615 -145.14348 -27.88386 -90.840126
-27.94603 -90.99366 -51.022881 -146.53065 -27.623886 89.006569 -0.12094863 179.28996
-51.779045 -146.72844 -27.89024 -90.812492 -0.11651181 179.28036 -27.572609 90.857933
2689600000 -25.624212 81.287704 -0.10446519 173.30804 -27.681074 -96.766457 -51.047211 -157.01291
-0.10189144 173.31068 -25.707144 89.302643 -50.537346 -155.08318 -27.640724 -96.638901
-27.705017 -96.784691 -50.703129 -156.05254 -26.976728 82.229553 -0.12618951 173.49117
-51.427601 -156.18918 -27.654598 -96.59024 -0.1200374 173.48427 -27.040798 84.253105
2773337500 -25.035336 75.316818 -0.10886891 167.5197 -27.452312 -102.62149 -50.646328 -166.22681
-0.10568123 167.51463 -25.125147 82.133636 -50.142277 -165.29451 -27.413303 -102.46455
-27.469631 -102.57437 -50.315632 -165.34898 -26.381386 75.578766 -0.13041873 167.69765
-51.094128 -165.34064 -27.42934 -102.42697 -0.12430372 167.68779 -26.551208 77.834648
2857075000 -24.521042 69.286034 -0.11352814 161.73213 -27.225288 -108.30865 -50.422371 -175.06178
-0.10985915 161.71954 -24.602589 75.098824 -49.772823 -175.42604 -27.200308 -108.20936
-27.247416 -108.35785 -49.869087 -175.35551 -25.860876 68.957748 -0.13480477 161.90129
-50.596748 -174.95023 -27.210861 -108.21198 -0.12864491 161.89313 -26.126202 71.42601
2940812500 -24.058311 63.252533 -0.11686077 155.94897 -27.011993 -114.05856 -50.108463 175.76147
-0.11366031 155.93188 -24.141657 68.090919 -49.44566 174.27422 -26.986187 -114.03032
-27.028732 -114.17886 -49.500046 175.26601 -25.419844 62.507729 -0.13802682 156.10785
-50.171974 175.75963 -26.999891 -114.04619 -0.13284332 156.09697 -25.743832 64.991127
3024550000 -23.654533 57.317631 -0.12218281 150.16533 -26.809153 -119.8838 -49.945763 166.98946
-0.11667681 150.14278 -23.72303 61.239319 -49.126385 164.95361 -26.775398 -119.75561
-26.823057 -119.95638 -49.232407 166.08003 -25.03767 56.231728 -0.14104253 150.31407
-49.91539 165.93282 -26.790268 -119.79223 -0.13642196 150.31233 -25.420397 58.862679
3108287500 -23.291983 51.398014 -0.126716 144.37938 -26.603891 -125.67293 -49.587978 157.67789
-0.11980657 144.35516 -23.355234 54.37677 -48.841244 155.20645 -26.581301 -125.54113
-26.620375 -125.72118 -48.976452 156.91429 -24.704599 49.986759 -0.14489469 144.52701
-49.758175 156.66318 -26.594704 -125.55341 -0.13938037 144.52408 -25.138363 52.620338
3192025000 -22.988096 45.558018 -0.1300925 138.59665 -26.40971 -131.43533 -49.533699 148.65483
-0.12254563 138.57329 -23.042669 47.596577 -48.633472 145.76228 -26.393486 -131.29733
-26.421978 -131.44064 -48.660786 147.66602 -24.422071 43.74081 -0.14764497 138.74274
-49.461224 146.83578 -26.40542 -131.34306 -0.14344116 138.73483 -24.888142 46.421841
3275762500 -22.710238 39.693844 -0.13411568 132.81744 -26.220972 -137.22403 -49.354134 138.52631
-0.12552883 132.79572 -22.761211 40.964737 -48.369125 136.18683 -26.205303 -137.05637
-26.23958 -137.22136 -48.312939 138.77522 -24.199368 37.640995 -0.1512107 132.95703
-49.27301 137.50044 -26.215296 -137.10274 -0.14769495 132.95168 -24.690239 40.249405
3359500000 -22.500103 33.890602 -0.13707857 127.03809 -26.041895 -142.9944 -49.073578 128.63524
-0.12864323 127.01566 -22.529299 34.322987 -48.134247 126.55939 -26.025045 -142.8226
-26.056755 -142.99075 -48.021069 129.26823 -24.039154 31.54649 -0.15489005 127.17669
-49.113235 128.47687 -26.036251 -142.92592 -0.1517528 127.16734 -24.536627 34.189442
3443237500 -22.33507 28.17452 -0.14017567 121.2615 -25.868319 -148.74399 -48.847462 119.43755
-0.13098606 121.23803 -22.326715 27.661587 -47.877426 117.55073 -25.852594 -148.59544
-25.876026 -148.759 -47.787949 119.78768 -23.916855 25.494801 -0.1579873 121.39709
-48.930313 119.04654 -25.862047 -148.67331 -0.1547675 121.38908 -24.409988 28.168839
3526975000 -22.205433 22.375977 -0.14268759 115.48598 -25.694502 -154.46034 -48.633865 110.21961
-0.13342521 115.46326 -22.169128 21.075132 -47.629642 108.53703 -25.683668 -154.3383
-25.708271 -154.49249 -47.541691 110.12875 -23.841076 19.569746 -0.16026412 115.61142
-48.743465 110.15433 -25.697601 -154.42198 -0.15716127 115.60774 -24.331791 22.105068
3610712500 -22.113968 16.71748 -0.14541769 109.70731 -25.530771 -160.23895 -48.52351 100.90024
-0.13558163 109.68938 -22.052929 14.545677 -47.423336 99.318939 -25.519981 -160.08713
-25.544905 -160.26851 -47.331741 100.92299 -23.81094 13.674404 -0.16379187 109.83348
-48.574337 101.46709 -25.535194 -160.18521 -0.15969782 109.82632 -24.282534 16.203253
3694450000 -22.069773 11.141079 -0.14869986 103.93209 -25.368822 -166.02312 -48.43182 91.474892
-0.13734758 103.91257 -21.975134 8.0806026 -47.205376 90.388962 -25.367981 -165.84846
-25.383682 -166.02061 -47.128269 91.825775 -23.825546 7.719461 -0.16800581 104.05377
-48.365967 92.248505 -25.374447 -165.91 -0.16323107 104.05089 -24.281639 10.357268
3778187500 -22.060686 5.5912681 -0.15020227 98.156372 -25.213379 -171.74919 -48.283386 82.09491
-0.14083062 98.138657 -21.943708 1.5270225 -47.052746 80.838135 -25.222466 -171.63913
-25.225246 -171.7914 -46.925457 81.907745 -23.896294 1.7956314 -0.17184456 98.277
-48.215809 83.409348 -25.224968 -171.67247 -0.16704296 98.270706 -24.31319 4.5451813
3861925000 -22.104673 0.074928895 -0.15230311 92.382759 -25.067963 -177.47075 -48.145336 72.463081
-0.14356501 92.365471 -21.939793 -4.9853325 -46.907875 71.730026 -25.071665 -177.37788
-25.077326 -177.5696 -46.773739 72.380814 -24.011627 -4.0281396 -0.17569284 92.495079
-47.979759 73.821449 -25.078411 -177.41957 -0.17071204 92.498474 -24.389778 -1.2921886
3945662500 -22.177197 -5.4078493 -0.15496312 86.60965 -24.926481 176.77298 -47.96933 63.140129
-0.14613339 86.588211 -21.979578 -11.481916 -46.753952 62.358349 -24.932173 176.89485
-24.935413 176.64259 -46.655533 62.980595 -24.15695 -9.5618486 -0.17990327 86.713669
-47.835278 64.906487 -24.938412 176.83163 -0.17373103 86.720734 -24.516836 -7.1546402
4029400000 -22.278156 -10.714676 -0.15678652 80.830391 -24.784454 171.05132 -47.864639 54.618645
-0.14819644 80.806374 -22.061016 -18.052721 -46.664104 53.026985 -24.793491 171.1321
-24.794806 170.87868 -46.529835 53.545597 -24.35762 -15.072061 -0.18271974 80.934784
-47.668549 55.785576 -24.801817 171.0927 -0.17661783 80.942719 -24.674942 -12.938092
4113137500 -22.43914 -16.125839 -0.15858045 75.055931 -24.651432 165.27667 -47.785164 45.700611
-0.15007694 75.027191 -22.178093 -24.531868 -46.529705 43.70454 -24.663574 165.39215
-24.659346 165.12354 -46.410343 43.991478 -24.583981 -20.390608 -0.18558306 75.157784
-47.528847 46.585537 -24.669765 165.35541 -0.17976449 75.164848 -24.866026 -18.861954
4196875000 -22.632265 -21.345568 -0.15972358 69.27491 -24.519053 159.49243 -47.732975 36.706326
-0.15127873 69.247147 -22.342604 -31.083853 -46.416428 34.597256 -24.532509 159.62733
-24.530935 159.39021 -46.312408 34.909367 -24.845892 -25.676281 -0.18880524 69.376266
-47.387295 37.33342 -24.541704 159.57307 -0.18352805 69.388771 -25.11095 -24.722857
4280612500 -22.854956 -26.455309 -0.16065164 63.494225 -24.395679 153.67908 -47.658463 27.865925
-0.15167898 63.469219 -22.53463 -37.652058 -46.320751 25.255987 -24.409527 153.85135
-24.406921 153.62265 -46.29158 25.245321 -25.137844 -30.829573 -0.19236514 63.60001
-47.315151 28.306784 -24.412205 153.8069 -0.18653701 63.609867 -25.374121 -30.479067
4364350000 -23.118736 -31.539574 -0.16090286 57.715729 -24.274731 147.89676 -47.46381 18.794548
-0.15169494 57.68795 -22.784981 -44.251129 -46.233082 16.257135 -24.289696 148.04294
-24.276133 147.83888 -46.197308 16.304884 -25.473103 -35.883984 -0.1941919 57.822033
-47.188663 18.826414 -24.287649 148.06715 -0.18948449 57.836143 -25.693619 -36.391464
4448087500 -23.424376 -36.525612 -0.16097161 51.93721 -24.154858 142.12274 -47.338779 10.079688
-0.15196398 51.908573 -23.08066 -50.933392 -46.135506 6.8843417 -24.172373 142.27182
