! MARKI MICROWAVE INC.
! Email:             	info@markimicrowave.com   				Phone:   408-778-4200
! Model Number:      	C20-0R612						Date:    10/12
! Filename:		C20_0R612.S4P						Version: 1.0
! Description:       	4-port S-parameter data for Directional Coupler C20-0R612
! Frequency Range: 	10 MHz to 15 GHz		
! Port Configuration:	PORT 1: Input 
!			PORT 2: Output 
!			Port 3: Coupled 	
!			Port 4: Isolated

! S4P File: Measurements: Mag<S11> Ang<S11> Mag<S12> Ang<S12> Mag<S13> Ang<S13> Mag<S14> Ang<S14>! row 1 
!			  Mag<S21> Ang<S21> Mag<S22> Ang<S22> Mag<S23> Ang<S23> Mag<S24> Ang<S24>! row 2 
!			  Mag<S31> Ang<S31> Mag<S32> Ang<S32> Mag<S33> Ang<S33> Mag<S34> Ang<S34>! row 3 
!			  Mag<S41> Ang<S41> Mag<S42> Ang<S42> Mag<S43> Ang<S43> Mag<S44> Ang<S44>! row 4

# Hz S  dB   R 50
10000000 -37.338062 66.668159 -0.053194683 -8.8710861 -45.769123 87.237503 -69.044098 -117.96957
-0.041119631 -9.0306559 -37.075165 60.54034 -61.886715 -74.460045 -45.74802 87.144058
-44.578743 72.363907 -69.745255 99.097977 -38.581791 59.652454 -0.030337604 -9.1078892
-61.368832 -28.057352 -44.187954 82.255966 -0.040415447 -8.9454193 -39.147038 71.94252
28737500 -37.319344 61.32618 -0.053838134 -11.775212 -43.707005 83.087456 -68.351326 -125.39439
-0.045121312 -11.906205 -37.025681 56.712112 -62.261139 -91.41333 -43.699699 83.09127
-42.742607 71.189003 -69.613434 117.13644 -38.298634 56.503769 -0.036307108 -11.973017
-62.443001 -48.793468 -42.419659 79.013802 -0.04282416 -11.836038 -38.632866 65.970108
47475000 -37.267834 55.479733 -0.055041835 -15.263761 -41.499081 78.315041 -67.860756 -137.58308
-0.049606245 -15.367634 -36.918919 52.553036 -62.714699 -110.22439 -41.495457 78.440948
-40.752659 69.362137 -69.088272 140.98994 -37.91074 53.154099 -0.042721353 -15.422792
-63.539619 -71.733421 -40.500172 75.214676 -0.045853917 -15.312499 -38.033695 59.309464
66212500 -37.098137 49.432941 -0.056604866 -19.338491 -39.152271 72.954666 -67.439407 -147.83737
-0.05434566 -19.413328 -36.703823 48.245342 -62.963932 -130.00896 -39.15963 73.22419
-38.632679 66.973862 -68.382751 161.37714 -37.4226 49.024048 -0.049749047 -19.455389
-64.424706 -94.688072 -38.444153 70.902832 -0.049439941 -19.377077 -37.351585 52.380791
84950000 -36.830727 43.002026 -0.058323823 -23.998795 -36.699589 67.037201 -66.619415 -159.10272
-0.060253028 -24.044762 -36.422539 43.146973 -63.116917 -148.98938 -36.711929 67.423607
-36.393784 63.990391 -67.701088 -177.33226 -36.949982 44.320835 -0.056633025 -24.075066
-65.055115 -118.77452 -36.27216 65.977013 -0.053528439 -24.022305 -36.613338 45.047165
103687500 -36.577274 36.097565 -0.06076505 -29.237759 -34.140541 60.49136 -65.592232 -172.06407
-0.066527382 -29.260931 -36.05637 37.560955 -63.262089 -169.60098 -34.151943 61.049454
-34.062424 60.457264 -67.001266 -162.01099 -36.342857 39.202919 -0.064750716 -29.278135
-65.65374 -143.52832 -34.005791 60.480354 -0.058110788 -29.252443 -35.834007 37.280098
122425000 -34.803394 38.060757 -0.066858821 -34.505917 -32.323334 55.417179 -63.947876 -175.2993
-0.071457952 -34.526844 -34.503258 34.173122 -63.275055 -173.6994 -32.325989 55.803963
-32.27869 55.0942 -64.433533 -164.31215 -34.98558 36.405334 -0.069263488 -34.538357
-63.395748 -161.31894 -32.251549 55.228237 -0.062925868 -34.511875 -34.783157 34.155804
141162500 -33.891247 32.914444 -0.072187774 -39.767464 -30.892351 49.995216 -62.334789 -179.85254
-0.076408669 -39.790863 -33.679493 29.716818 -62.658306 -177.10095 -30.904243 50.378105
-30.843668 49.890923 -63.900307 -169.52144 -34.104046 31.540749 -0.075113364 -39.80024
-62.395996 -171.18123 -30.845015 49.993332 -0.068793908 -39.773354 -33.901314 30.616528
159900000 -33.031338 30.659098 -0.077863611 -45.035969 -29.716219 44.734455 -61.464207 172.19519
-0.08124502 -45.059299 -32.697556 26.213085 -61.714993 167.80687 -29.731344 45.073978
-29.664501 44.476448 -62.717388 176.38043 -33.281868 27.636877 -0.07988885 -45.068943
-61.101234 178.2282 -29.672958 44.913017 -0.073831111 -45.035553 -33.105202 26.902744
178637500 -32.246204 26.536926 -0.083142295 -50.301228 -28.712706 39.442841 -60.766884 162.37173
-0.084934771 -50.317554 -31.94743 21.058062 -60.581455 155.55475 -28.721733 39.839622
-28.67119 39.285938 -60.913506 162.01437 -32.581703 23.077049 -0.084913053 -50.329884
-60.041477 167.14041 -28.666466 39.698383 -0.078077547 -50.303871 -32.498081 22.697361
197375000 -31.732038 22.595953 -0.087323464 -55.557549 -27.849501 34.142635 -60.014309 151.19322
-0.089499079 -55.579239 -31.386099 16.822929 -59.981834 145.52333 -27.842644 34.602188
-27.804026 34.032444 -59.834145 157.24959 -32.139893 18.932251 -0.08932361 -55.583954
-59.708942 153.98897 -27.794571 34.511253 -0.082929097 -55.566891 -32.04607 17.436045
216112500 -31.251513 18.945322 -0.091200434 -60.816498 -27.074461 28.891069 -59.167007 144.68158
-0.094028294 -60.841358 -30.860268 12.125884 -59.147182 136.50873 -27.069969 29.357298
-27.043184 28.804192 -59.056095 143.5775 -31.73843 14.539685 -0.093357652 -60.83424
-59.060677 143.45189 -27.028038 29.277159 -0.087307334 -60.825371 -31.604637 12.62071
234850000 -30.83563 14.940409 -0.095203273 -66.072807 -26.391096 23.629833 -58.164497 134.81589
-0.098474018 -66.100479 -30.423143 6.9666033 -58.357475 127.82507 -26.379555 24.12714
-26.352888 23.552406 -58.57021 132.91872 -31.397167 10.93716 -0.097612284 -66.091331
-58.164833 133.52177 -26.340305 24.014145 -0.091690786 -66.083466 -31.193367 7.5345421
253587500 -30.493319 10.633892 -0.10033211 -71.326355 -25.765465 18.381817 -57.649639 124.3057
-0.10260229 -71.352341 -30.036909 2.0030115 -57.565319 117.08875 -25.753008 18.930439
-25.743704 18.300697 -57.757576 119.54543 -30.938452 7.1848288 -0.10269324 -71.348892
-57.880764 122.40901 -25.724174 18.801256 -0.096742161 -71.342239 -30.790274 2.4413474
272325000 -30.123884 6.5492096 -0.10546911 -76.578583 -25.202965 13.148804 -57.122929 115.33556
-0.10700988 -76.607529 -29.670443 -3.0469165 -56.705257 107.1149 -25.196428 13.716298
-25.180525 13.001596 -56.810852 111.2038 -30.579485 3.1715395 -0.10670729 -76.603935
-57.248989 110.2466 -25.159346 13.569075 -0.1020714 -76.603035 -30.372335 -2.5286963
291062500 -29.863579 2.3251078 -0.1097454 -81.826241 -24.689323 7.8818274 -56.460548 103.74834
-0.11141877 -81.85466 -29.398344 -8.3041906 -55.787952 98.163712 -24.684023 8.526783
-24.667259 7.7639494 -56.100845 102.89008 -30.287111 -0.71620828 -0.11188702 -81.855484
-56.753639 100.29041 -24.642641 8.3550367 -0.106851 -81.853027 -29.988779 -7.3883333
309800000 -29.697474 -1.3080243 -0.11352398 -87.070938 -24.221863 2.6882355 -55.742493 95.466629
-0.11651434 -87.103539 -29.221693 -13.710645 -54.895039 89.435806 -24.216633 3.3393655
-24.197384 2.571023 -55.374443 91.453255 -30.028397 -4.7254562 -0.11660668 -87.110512
-56.201576 93.944618 -24.174612 3.1547892 -0.110774 -87.102089 -29.688507 -11.783133
328537500 -29.567125 -4.7588987 -0.11695883 -92.318024 -23.793322 -2.5522947 -55.47654 86.5504
-0.1216098 -92.348236 -29.085562 -18.730064 -54.499546 79.997368 -23.785011 -1.8902913
-23.774696 -2.663255 -54.884293 81.560303 -29.770508 -8.7797632 -0.12091504 -92.354958
-55.722031 84.616814 -23.741228 -2.0792856 -0.11527515 -92.349899 -29.458757 -16.079147
347275000 -29.480223 -8.3932943 -0.12086742 -97.558128 -23.399199 -7.8187218 -55.354683 78.073601
-0.12597939 -97.595596 -29.008869 -23.542015 -54.129642 69.611473 -23.387087 -7.108973
-23.374838 -7.9309435 -54.233238 73.257172 -29.610153 -12.95273 -0.12466245 -97.602226
-55.361473 73.669998 -23.350416 -7.312356 -0.12063444 -97.588501 -29.247543 -20.265905
366012500 -29.455658 -12.178463 -0.12580432 -102.79974 -23.032885 -13.091959 -55.335369 68.923286
-0.12988511 -102.83606 -28.992702 -29.032225 -53.511356 59.925369 -23.026644 -12.327202
-23.010431 -13.229762 -53.793354 59.973038 -29.463541 -17.067785 -0.12992984 -102.84376
-54.553646 66.343765 -22.98805 -12.501595 -0.12475742 -102.83566 -29.124578 -24.301157
384750000 -29.448198 -16.266817 -0.13087656 -108.0434 -22.699337 -18.382084 -55.057892 58.68013
-0.13381374 -108.06714 -29.002954 -34.279881 -53.113651 50.041176 -22.688635 -17.512968
-22.666853 -18.494394 -53.493347 50.17746 -29.392878 -21.393702 -0.13399242 -108.0934
-53.964752 56.984264 -22.647596 -17.648949 -0.13020557 -108.0804 -29.078777 -28.626091
403487500 -29.51129 -20.110209 -0.13613378 -113.28072 -22.388372 -23.62582 -54.719036 48.195358
-0.13865994 -113.30241 -29.035788 -39.398869 -52.745316 39.747936 -22.37851 -22.735767
-22.361097 -23.739729 -52.948936 39.56395 -29.39633 -26.452387 -0.13785417 -113.34005
-53.84164 46.114109 -22.344088 -22.832575 -0.13500644 -113.31642 -29.128944 -33.043076
422225000 -29.621923 -23.661486 -0.1397121 -118.51736 -22.100492 -28.888361 -54.253788 38.742775
-0.14227064 -118.5396 -29.128252 -44.566261 -52.489841 29.663874 -22.096937 -27.993397
-22.071404 -28.965258 -52.784878 29.630793 -29.554256 -31.242914 -0.1414081 -118.58012
-53.239872 36.881927 -22.061121 -28.04528 -0.13905148 -118.55552 -29.254976 -37.277168
440962500 -29.826691 -27.316189 -0.14328462 -123.75632 -21.837948 -34.140686 -54.013283 28.676888
-0.14628108 -123.77467 -29.343727 -49.949135 -52.265907 18.818127 -21.831436 -33.235291
-21.806578 -34.178162 -52.541546 19.737646 -29.784012 -35.786884 -0.14558525 -123.81565
-53.037361 27.674807 -21.800812 -33.248791 -0.14238159 -123.79265 -29.503681 -42.010632
459700000 -30.069571 -30.921926 -0.14592122 -128.99451 -21.595261 -39.388767 -53.805668 18.377302
-0.15097576 -129.01251 -29.64152 -55.238842 -52.030815 8.4403505 -21.584633 -38.446491
-21.564026 -39.420685 -52.250206 9.5932798 -30.071177 -40.144627 -0.1486388 -129.05466
-52.765968 17.601612 -21.561415 -38.447495 -0.14618416 -129.02675 -29.874479 -46.978481
478437500 -30.336443 -34.669456 -0.15108727 -134.23773 -21.366659 -44.64817 -53.705334 7.7705827
-0.15503828 -134.24156 -29.934742 -60.242527 -51.780663 -0.52161849 -21.360842 -43.64365
-21.340406 -44.689056 -52.065735 -0.38461298 -30.356558 -43.711102 -0.15220366 -134.2912
-52.505833 7.201375 -21.338993 -43.672028 -0.14934212 -134.26666 -30.287512 -52.167439
497175000 -30.654192 -38.742348 -0.15513223 -139.47241 -21.16614 -49.90065 -53.218494 -3.0086801
-0.15905504 -139.47774 -30.26712 -65.590157 -51.425045 -9.7490616 -21.159418 -48.860283
-21.13463 -49.933792 -51.698116 -9.9145603 -30.736107 -47.656418 -0.15592511 -139.53371
-52.297791 -2.6951959 -21.142588 -48.879295 -0.15259652 -139.50401 -30.698069 -57.586468
515912500 -31.013351 -42.149887 -0.15745045 -144.71021 -20.977324 -55.147617 -52.563744 -13.309499
-0.16320117 -144.71124 -30.796215 -71.350769 -51.210663 -19.7435 -20.974125 -54.094944
-20.946613 -55.15686 -51.5116 -20.196156 -31.167183 -51.22567 -0.15886523 -144.77472
-52.178181 -12.754442 -20.955145 -54.100239 -0.15461457 -144.74844 -31.137617 -63.102875
534650000 -31.488747 -45.516548 -0.16024867 -149.9476 -20.803297 -60.360779 -52.047386 -23.267633
-0.16763158 -149.94225 -31.36264 -77.002708 -50.94875 -29.401295 -20.803085 -59.30846
-20.778257 -60.414173 -51.28278 -28.770609 -31.598509 -54.843884 -0.16153367 -150.0175
-51.999565 -23.132881 -20.79081 -59.316162 -0.15813026 -149.98347 -31.60638 -68.045303
553387500 -31.994823 -48.245705 -0.16343805 -155.18419 -20.649319 -65.554596 -51.69162 -32.716545
-0.17142293 -155.17441 -32.010399 -82.444458 -50.725391 -38.689507 -20.650541 -64.526146
-20.624897 -65.622795 -51.009861 -38.338032 -32.11018 -58.526642 -0.16554113 -155.25211
-51.83411 -32.403046 -20.63953 -64.522591 -0.16123047 -155.21776 -32.173977 -72.696877
572125000 -32.575939 -50.85284 -0.16513884 -160.41754 -20.508553 -70.793228 -51.337234 -41.504436
-0.17426708 -160.40271 -32.764687 -87.638046 -50.586193 -48.198223 -20.510134 -69.731339
-20.483675 -70.863396 -50.858036 -47.43412 -32.659939 -61.294003 -0.16886175 -160.48932
-51.624073 -42.511555 -20.49577 -69.753494 -0.16396041 -160.45566 -32.936729 -77.675438
590862500 -33.270878 -52.732662 -0.16832185 -165.64388 -20.379791 -76.036766 -51.080936 -50.988308
-0.17717072 -165.63966 -33.685513 -92.741066 -50.426968 -57.140686 -20.378733 -74.937935
-20.355431 -76.124847 -50.577068 -56.860928 -33.235607 -63.853123 -0.17198412 -165.71625
-51.459007 -52.343662 -20.368059 -74.977989 -0.16672911 -165.69203 -33.790668 -83.167755
609600000 -33.936798 -54.258011 -0.17128859 -170.87598 -20.260517 -81.258789 -50.895332 -59.991856
-0.18018706 -170.87195 -34.750397 -97.674278 -50.267082 -65.90004 -20.270803 -80.132339
-20.240118 -81.366081 -50.465717 -66.508514 -34.057743 -65.660133 -0.1743249 -170.94977
-51.383595 -61.506058 -20.251959 -80.197075 -0.16934182 -170.92197 -34.708534 -88.039619
628337500 -34.751625 -55.315578 -0.17467247 -176.09962 -20.15571 -86.48024 -50.757828 -69.579567
-0.18279722 -176.09654 -35.946697 -102.9651 -50.15789 -74.741348 -20.1688 -85.378227
-20.141062 -86.591736 -50.249615 -75.497978 -34.988819 -67.244972 -0.17774741 -176.17863
-51.247528 -70.109184 -20.147186 -85.428596 -0.17270878 -176.15749 -35.653561 -92.257622
647075000 -35.528366 -55.307831 -0.17746753 178.66702 -20.064943 -91.728065 -50.487434 -78.686058
-0.18443435 178.67413 -37.518623 -109.25948 -49.991276 -84.209427 -20.078896 -90.594124
-20.049578 -91.807182 -49.999466 -84.716148 -35.975029 -68.707268 -0.18026508 178.58772
-51.088718 -79.492111 -20.052784 -90.65004 -0.17647587 178.61504 -36.802765 -96.802788
665812500 -36.514473 -53.513062 -0.17920855 173.43227 -19.984631 -96.934364 -50.382248 -88.636475
-0.18609139 173.44904 -39.237995 -117.56682 -49.78867 -93.553917 -19.995722 -95.82325
-19.965014 -97.046234 -49.89254 -93.965935 -37.185364 -69.00518 -0.18281902 173.35141
-50.828976 -89.001228 -19.971189 -95.850883 -0.17977811 173.38776 -38.424927 -99.572479
684550000 -37.343254 -51.203587 -0.18077588 168.20378 -19.913599 -102.18536 -50.173508 -97.494698
-0.18859531 168.21582 -41.709862 -134.29897 -49.57732 -102.46141 -19.926409 -101.0422
-19.893387 -102.28831 -49.832661 -102.95513 -38.290279 -67.25116 -0.18647419 168.12723
-50.688572 -97.368736 -19.903168 -101.05675 -0.18331982 168.16132 -40.478527 -97.170074
703287500 -38.035526 -46.816414 -0.18306343 162.97684 -19.856421 -107.40282 -50.166084 -107.64585
-0.18997854 162.98434 -43.653038 -161.36378 -49.586121 -111.67209 -19.864496 -106.25414
-19.831886 -107.51473 -49.888054 -111.42393 -39.250092 -63.332268 -0.18782008 162.88936
-50.577324 -106.96819 -19.838192 -106.25893 -0.18637708 162.93623 -42.369343 -87.359772
722025000 -38.610786 -42.575768 -0.1852635 157.75648 -19.801098 -112.66696 -50.259533 -116.93752
-0.1916258 157.7489 -44.987934 175.70256 -49.448418 -120.51686 -19.811224 -111.47119
-19.777853 -112.77921 -49.777893 -120.41584 -40.26627 -58.5219 -0.19030148 157.66263
-50.543526 -116.242 -19.783049 -111.49586 -0.18820743 157.70436 -43.909931 -76.30426
740762500 -38.987324 -37.289841 -0.18779485 152.52765 -19.752676 -117.90409 -50.385342 -127.05264
-0.19335493 152.50284 -45.662678 152.57483 -49.365822 -129.28589 -19.765448 -116.6984
-19.732183 -118.01434 -49.656437 -129.75035 -41.279762 -52.276794 -0.19269261 152.43611
-50.421097 -125.27452 -19.738943 -116.70761 -0.19058274 152.47215 -44.876953 -62.990402
759500000 -39.257896 -32.089386 -0.18965404 147.29242 -19.716381 -123.14246 -50.478951 -135.74983
-0.19549993 147.27054 -45.940975 128.23999 -49.268845 -139.01773 -19.725893 -121.91388
-19.693563 -123.23391 -49.631866 -138.78627 -41.846954 -44.669975 -0.19427237 147.20125
-50.463661 -134.19899 -19.701334 -121.9211 -0.19245836 147.24062 -45.415958 -49.838493
778237500 -39.22905 -26.768709 -0.19089222 142.05611 -19.690598 -128.38116 -50.382999 -145.53908
-0.19801098 142.04166 -45.865707 104.63833 -49.20689 -147.57841 -19.68952 -127.14386
-19.664845 -128.47472 -49.596836 -147.39993 -41.982525 -37.813599 -0.19560656 141.9697
-50.36211 -144.19377 -19.673204 -127.13628 -0.19441549 142.00844 -45.658337 -37.540844
796975000 -38.869331 -21.208521 -0.19252096 136.81461 -19.666859 -133.6234 -50.316441 -155.00525
-0.19986947 136.8084 -45.364079 81.279945 -49.111118 -156.2373 -19.666313 -132.32831
-19.642235 -133.72481 -49.577175 -156.32069 -41.84087 -29.968781 -0.1970451 136.73151
-50.242336 -153.96979 -19.652401 -132.33932 -0.19580102 136.7722 -45.477764 -25.222712
815712500 -38.543385 -16.42679 -0.19274448 131.58813 -19.649048 -138.83662 -50.327007 -163.686
-0.20193543 131.57962 -44.304039 57.75272 -49.033447 -164.15414 -19.649088 -137.55489
-19.630695 -138.97063 -49.532658 -164.80995 -41.477951 -21.603437 -0.19852914 131.49782
-50.248112 -163.19511 -19.639847 -137.55083 -0.19682272 131.53754 -44.811279 -12.614931
834450000 -37.781513 -12.613078 -0.19492635 126.36684 -19.641745 -144.06754 -50.35997 -171.78056
-0.20330273 126.34733 -42.985699 36.040447 -49.131695 -173.33691 -19.64209 -142.75418
-19.622362 -144.20596 -49.494705 -173.81267 -40.64024 -14.023129 -0.20068087 126.27152
-50.325367 -171.97774 -19.630487 -142.79034 -0.19867569 126.29362 -43.523041 -1.1499904
853187500 -37.128937 -9.317338 -0.19833161 121.13389 -19.635109 -149.29791 -50.408054 179.31119
-0.20578314 121.11841 -40.603928 22.898823 -49.147755 178.32669 -19.637568 -147.96602
-19.621128 -149.44193 -49.3577 176.93544 -39.700359 -9.401782 -0.20194015 121.03237
-50.204567 178.89026 -19.624521 -148.02098 -0.19995749 121.05981 -41.676262 5.4833126
871925000 -36.45105 -8.3712511 -0.20041059 115.90022 -19.635344 -154.5508 -50.345657 171.16681
-0.20816104 115.88757 -38.575081 20.643629 -49.090782 169.89374 -19.641798 -153.17491
-19.622089 -154.67801 -49.155003 167.79012 -38.853283 -6.5740752 -0.20374709 115.8058
-50.161098 170.28687 -19.627609 -153.26106 -0.20126271 115.81968 -39.816189 4.2898865
890662500 -35.778191 -7.5753875 -0.20153119 110.66438 -19.641159 -159.75641 -50.112106 161.80853
-0.21035811 110.65837 -36.988438 13.93771 -49.034626 160.80626 -19.648108 -158.39209
-19.632637 -159.90445 -49.045494 158.89964 -37.754086 -3.7888467 -0.20453775 110.56654
-50.085434 160.94435 -19.634165 -158.46889 -0.20289622 110.58619 -38.159527 1.559149
909400000 -35.136189 -8.1438923 -0.20367412 105.42735 -19.654842 -164.96089 -50.050491 153.36288
-0.21260573 105.44278 -35.970295 7.2044897 -49.069347 152.05009 -19.660109 -163.60037
-19.646152 -165.15219 -48.998741 150.12747 -36.537231 -3.3159986 -0.20623432 105.33427
-50.130817 152.05341 -19.646212 -163.70964 -0.20498045 105.35725 -36.790924 -3.3111582
928137500 -34.382931 -9.2872324 -0.20605244 100.19608 -19.672327 -170.21448 -50.097466 143.80406
-0.21527973 100.22351 -35.065544 1.8740174 -49.084698 143.76627 -19.679585 -168.82655
-19.666731 -170.37158 -48.987808 141.34019 -35.622173 -4.667727 -0.20872694 100.09715
-50.160744 142.34891 -19.661297 -168.93185 -0.20714352 100.13099 -35.748566 -7.4305601
946875000 -33.891102 -10.725373 -0.20814233 94.96772 -19.689373 -175.45926 -50.182121 134.87697
-0.21545056 95.002258 -34.235554 -4.0920463 -49.126095 134.52672 -19.702208 -174.06757
-19.684731 -175.59274 -48.998173 132.12834 -34.839085 -5.8276143 -0.21112852 94.859482
-50.168839 134.38011 -19.682558 -174.16608 -0.20908341 94.90284 -34.727619 -11.018577
965612500 -33.541832 -12.427117 -0.21004261 89.739143 -19.714527 179.30591 -50.362827 126.4749
-0.21685289 89.774681 -33.593548 -10.4601 -49.161144 125.09801 -19.724667 -179.31825
-19.708059 179.19221 -49.022171 123.44011 -34.138897 -7.8208542 -0.21298221 89.63018
-50.167316 126.12189 -19.70664 -179.38611 -0.211472 89.67144 -33.92215 -15.258689
984350000 -33.140289 -14.556064 -0.21192639 84.5093 -19.739958 174.05444 -50.354378 117.20435
-0.21980278 84.536316 -33.104332 -15.888623 -49.287971 115.7618 -19.755169 175.45856
-19.733192 173.9532 -49.097031 114.18453 -33.501785 -11.349146 -0.21557431 84.401527
-50.184162 116.16852 -19.733065 175.38158 -0.21388464 84.439453 -33.299725 -19.673544
1003087500 -32.883736 -17.633806 -0.2129727 79.271904 -19.764854 168.82736 -50.432365 107.75485
-0.22292219 79.307945 -32.723251 -20.934683 -49.436268 107.5518 -19.784563 170.24402
