! MARKI MICROWAVE INC.
! Email:             	info@markimicrowave.com   				Phone:   408-778-4200
! Model Number:      	C20-0116						Date:    10/12
! Filename:		C20_0116.S4P						Version: 1.0
! Description:       	4-port S-parameter data for Directional Coupler C20-0116
! Frequency Range: 	10 MHz to 18 GHz		
! Port Configuration:	PORT 1: Input 
!			PORT 2: Output 
!			Port 3: Coupled 	
!			Port 4: Isolated

! S4P File: Measurements: Mag<S11> Ang<S11> Mag<S12> Ang<S12> Mag<S13> Ang<S13> Mag<S14> Ang<S14>! row 1 
!			  Mag<S21> Ang<S21> Mag<S22> Ang<S22> Mag<S23> Ang<S23> Mag<S24> Ang<S24>! row 2 
!			  Mag<S31> Ang<S31> Mag<S32> Ang<S32> Mag<S33> Ang<S33> Mag<S34> Ang<S34>! row 3 
!			  Mag<S41> Ang<S41> Mag<S42> Ang<S42> Mag<S43> Ang<S43> Mag<S44> Ang<S44>! row 4

# Hz S  dB   R 50
10000000 -39.530323 62.279598 -0.040941164 -6.9764266 -49.985786 85.785461 -68.332161 -49.362537
-0.031418875 -7.1032686 -39.603172 64.12767 -68.971024 -141.76219 -51.079773 87.634514
-50.807854 138.54915 -72.331108 134.64362 -44.327332 50.421722 -0.03039431 -7.252398
-62.577339 -63.589043 -47.043427 60.525085 -0.047000617 -7.0735512 -46.297424 72.965843
32487500 -39.947643 56.727173 -0.04124283 -9.3890953 -47.871677 82.786995 -70.475319 -57.815495
-0.03454183 -9.4979687 -39.939163 60.542866 -69.769371 -135.65224 -48.785503 84.299606
-48.550095 125.06063 -72.758896 144.1606 -44.239338 47.752529 -0.033155493 -9.6377611
-64.091507 -77.213249 -45.538677 62.506081 -0.045995113 -9.4887285 -45.602318 63.489483
54975000 -40.233646 51.658863 -0.041800417 -12.290547 -45.603043 79.387947 -71.022369 -80.051651
-0.037399441 -12.37985 -40.103039 56.760509 -70.673256 -133.0461 -46.336311 80.397087
-46.130772 111.03327 -72.895844 158.18282 -44.088169 43.753017 -0.036070436 -12.507537
-65.55098 -89.774597 -43.876812 63.93079 -0.045278918 -12.39917 -44.882153 53.933727
77462500 -40.441437 45.43837 -0.04274926 -15.680067 -43.206551 75.420929 -71.743225 -102.45293
-0.039935101 -15.746347 -40.248371 52.676655 -70.820335 -133.52892 -43.734386 75.988548
-43.59127 96.612808 -72.706848 172.62805 -43.865257 39.474117 -0.038951784 -15.865959
-67.304886 -106.04002 -42.081253 64.844978 -0.04465339 -15.794043 -44.161045 43.462101
99950000 -40.578262 39.656254 -0.044004899 -19.553774 -40.682304 70.984207 -72.461563 -128.85414
-0.043655671 -19.600437 -40.249798 47.931755 -71.687263 -137.93312 -41.015011 71.072899
-40.929893 81.672287 -72.350655 -173.50594 -43.483704 34.10202 -0.042982854 -19.713995
-70.850342 -117.71699 -40.166939 65.264641 -0.044337183 -19.67695 -43.379559 33.259731
122437500 -40.573139 33.037777 -0.045711506 -23.917835 -38.040051 65.993797 -72.228203 -155.29082
-0.047347017 -23.946592 -40.219383 43.182156 -71.887726 -138.21239 -38.187847 65.739967
-38.147526 66.306206 -72.608315 -162.1692 -42.991127 28.065804 -0.047331221 -24.052351
-73.291397 -131.17967 -38.142399 65.134369 -0.045108929 -24.048721 -42.668545 22.769026
144925000 -38.796265 36.654812 -0.049682647 -28.311722 -36.24601 61.395439 -72.865395 -168.16003
-0.051316757 -28.327593 -38.676399 36.927883 -72.418121 -155.64139 -36.301037 61.614555
-36.233101 61.705536 -72.659027 -158.07875 -42.157227 25.14477 -0.051066779 -28.447483
-72.729248 -146.44121 -36.309708 61.610996 -0.048104428 -28.444515 -42.173634 21.347212
167412500 -38.042213 33.474892 -0.052320421 -32.703632 -34.79958 57.19548 -72.63028 -163.19017
-0.055553228 -32.715775 -37.991058 34.662613 -72.134018 -176.00812 -34.84108 57.199047
-34.838589 57.186737 -72.021545 -168.56456 -41.542454 21.585411 -0.054066051 -32.853142
-72.265259 -160.75444 -34.795605 56.872059 -0.050920229 -32.84853 -41.506138 21.318937
189900000 -36.95512 31.743099 -0.055009831 -37.093109 -33.577953 52.91959 -72.586044 -162.44142
-0.057839289 -37.103214 -36.998901 31.571665 -70.71347 167.87923 -33.612019 53.133118
-33.595036 52.895653 -71.136086 179.9451 -40.941563 16.886536 -0.058105133 -37.256947
-71.683212 -178.01738 -33.580383 52.493309 -0.053452324 -37.250763 -41.128002 18.8479
212387500 -36.272236 28.004845 -0.057710595 -41.476627 -32.554951 48.438618 -71.527435 -174.679
-0.061041679 -41.488708 -36.374092 28.387697 -69.343956 166.66139 -32.570507 48.709637
-32.55011 48.380329 -70.810829 173.08997 -40.57029 13.290955 -0.060991753 -41.659363
-72.131783 -175.63898 -32.530449 48.182762 -0.056651868 -41.643295 -40.703987 14.291492
234875000 -35.568592 25.304081 -0.060401153 -45.860661 -31.650143 44.06562 -69.436989 165.03865
-0.064425513 -45.876472 -35.6548 25.497334 -68.995743 155.2749 -31.65472 44.224331
-31.636139 43.966835 -69.872017 172.52014 -40.202488 10.031018 -0.063959442 -46.057362
-71.702812 178.80618 -31.630011 43.764706 -0.060020298 -46.046402 -40.345604 10.046434
257362500 -34.998039 21.730532 -0.063849092 -50.241539 -30.844814 39.625282 -69.450134 159.94034
-0.068094641 -50.265167 -35.029255 22.131712 -68.563156 143.15181 -30.834507 39.828243
-30.836552 39.62587 -69.202248 166.02408 -39.704514 7.4685926 -0.067482188 -50.451096
-71.383125 167.02602 -30.828972 39.475872 -0.063652754 -50.440212 -39.822693 6.4322248
279850000 -34.450481 18.957043 -0.067187898 -54.619816 -30.103436 35.266815 -68.454987 151.96419
-0.072624668 -54.645882 -34.444038 18.360134 -68.461571 136.70703 -30.108358 35.41988
-30.095284 35.245392 -68.537453 155.53554 -39.200851 4.7204566 -0.070964597 -54.850906
-70.605263 162.43681 -30.102999 35.082413 -0.066867478 -54.834339 -39.312099 3.735702
302337500 -33.993671 15.378502 -0.069924816 -59.001431 -29.44035 30.848665 -68.002449 145.1752
-0.075633168 -59.035042 -34.040043 14.729943 -67.633408 130.39377 -29.457815 31.057131
-29.433205 30.877058 -68.506569 145.22279 -38.851143 1.9842116 -0.073342159 -59.251453
-68.087082 149.5997 -29.442875 30.746708 -0.069612101 -59.230419 -38.863331 1.3248222
324825000 -33.675133 12.415112 -0.073517382 -63.383358 -28.847483 26.528614 -68.115608 138.52171
-0.079167604 -63.41164 -33.662067 11.228295 -67.306747 123.32323 -28.853172 26.618038
-28.842567 26.476231 -67.247841 137.17258 -38.517872 -0.11219289 -0.075981714 -63.641895
-67.131401 142.15738 -28.844578 26.469385 -0.071805395 -63.627415 -38.316677 -1.2368029
347312500 -33.400513 9.2212257 -0.077330031 -67.756714 -28.27529 22.112185 -67.267601 133.13968
-0.082197666 -67.791985 -33.424583 7.4207144 -66.84594 114.25971 -28.302816 22.24334
-28.295862 22.085726 -65.269302 132.44089 -38.093826 -1.6292779 -0.079483747 -68.038406
-66.782715 138.12708 -28.285774 22.077284 -0.074821375 -68.020416 -37.879417 -4.0281782
369800000 -33.161533 5.8256335 -0.080861308 -72.142494 -27.767202 17.733162 -66.495293 120.67033
-0.084923916 -72.169518 -33.043858 3.6912956 -66.406822 107.31715 -27.794012 17.885447
-27.764273 17.671356 -64.865829 121.83465 -37.702969 -4.1973987 -0.081226759 -72.430717
-66.565475 122.14204 -27.768427 17.724733 -0.079228833 -72.40451 -37.327282 -7.2062106
392287500 -32.932079 2.7792716 -0.084013037 -76.518288 -27.294062 13.327354 -65.683395 112.72594
-0.087839976 -76.547119 -32.816399 -0.7342059 -66.040741 102.90508 -27.321249 13.418473
-27.285753 13.198122 -64.385918 114.07455 -37.079617 -5.886385 -0.084213689 -76.813004
-66.124313 117.17009 -27.28931 13.355793 -0.082067989 -76.798248 -36.866058 -9.4859514
414775000 -32.735184 -0.49523553 -0.087938994 -80.898506 -26.86315 8.9237986 -65.743576 106.42578
-0.090610884 -80.932281 -32.640423 -4.67591 -65.458923 89.989754 -26.869181 9.0458279
-26.840736 8.7898073 -63.484081 104.73323 -36.657234 -9.2548923 -0.087601699 -81.199883
-65.090973 101.83217 -26.846331 8.9593115 -0.085694842 -81.197609 -36.443314 -10.601124
437262500 -32.647232 -3.8894665 -0.091130927 -85.274345 -26.448572 4.5082579 -65.45929 94.113663
-0.093228742 -85.301605 -32.564812 -9.2165508 -64.943909 81.313019 -26.451193 4.6774559
-26.44311 4.4386029 -62.952686 94.034409 -36.34679 -13.18718 -0.089791492 -85.582497
-64.754272 92.878136 -26.431232 4.5545254 -0.087727219 -85.576607 -36.281738 -12.304333
459750000 -32.630013 -7.4273133 -0.094502598 -89.650452 -26.058968 0.1213417 -65.031616 80.595932
-0.096080117 -89.66893 -32.596336 -13.201982 -64.633499 74.143394 -26.063515 0.2841641
-26.052866 0.081750393 -63.01326 85.303589 -36.231636 -16.361109 -0.092411384 -89.973221
-64.37738 88.263268 -26.046118 0.12704098 -0.09018892 -89.957008 -36.332687 -15.039882
482237500 -32.636765 -11.189641 -0.097326092 -94.021103 -25.702639 -4.2909484 -64.761803 71.986694
-0.098762579 -94.052025 -32.539387 -16.966227 -64.574158 63.868992 -25.702644 -4.0523734
-25.698957 -4.3702502 -62.977116 78.359863 -36.178455 -19.883747 -0.09591718 -94.350754
-64.11573 78.160881 -25.684443 -4.1655011 -0.09295477 -94.342072 -36.342594 -18.732035
504725000 -32.657921 -14.759316 -0.10087942 -98.394585 -25.363838 -8.6245222 -64.43705 63.539639
-0.10101004 -98.418953 -32.534206 -20.752375 -64.408516 55.65976 -25.353075 -8.4511118
-25.351507 -8.7873735 -62.602718 70.802727 -36.163239 -22.610737 -0.098868705 -98.733292
-64.029289 70.591133 -25.341902 -8.5229359 -0.096480332 -98.727264 -36.262688 -23.409237
527212500 -32.658901 -18.875017 -0.10337392 -102.76577 -25.044769 -13.01388 -63.825485 52.032513
-0.10408733 -102.7933 -32.563244 -24.895651 -64.201736 43.558453 -25.038343 -12.848042
-25.027679 -13.211165 -62.547325 63.429386 -36.210003 -25.5511 -0.10092665 -103.11973
-63.242954 58.901249 -25.02421 -12.888616 -0.1003623 -103.10842 -36.178925 -27.730768
549700000 -32.692093 -22.486027 -0.10604602 -107.14093 -24.748037 -17.364908 -63.540619 45.096893
-0.10685663 -107.17226 -32.616692 -28.738602 -64.327736 38.01606 -24.745649 -17.2222
-24.719065 -17.547649 -62.16753 52.485119 -36.187653 -28.58712 -0.10307251 -107.50746
-62.319435 49.513676 -24.726997 -17.242899 -0.1040476 -107.49217 -36.095104 -31.709578
572187500 -32.87175 -26.291988 -0.10961132 -111.50656 -24.467442 -21.740458 -62.744183 34.991562
-0.10868388 -111.54278 -32.706684 -32.991245 -63.662174 32.274586 -24.464046 -21.632832
-24.439817 -21.931761 -62.084026 41.471684 -36.242329 -31.181726 -0.10792372 -111.89001
-61.650387 40.127682 -24.445286 -21.60935 -0.10583916 -111.87601 -36.105217 -35.572685
594675000 -33.104702 -29.761133 -0.11193837 -115.87437 -24.204908 -26.068073 -62.514519 26.748129
-0.1130742 -115.90909 -32.955849 -36.660759 -63.411442 23.099495 -24.197311 -25.995232
-24.178053 -26.271021 -61.879189 31.50359 -36.363567 -34.50671 -0.11018737 -116.27575
-61.206177 33.371086 -24.183548 -25.977121 -0.10928729 -116.25433 -36.161556 -39.402119
617162500 -33.379662 -33.88636 -0.11342058 -120.24635 -23.945585 -30.411482 -62.474586 18.428205
-0.11559232 -120.27289 -33.173077 -40.192863 -63.100586 16.147707 -23.953716 -30.319443
-23.923918 -30.61095 -61.823547 23.201262 -36.394695 -37.21151 -0.11308315 -120.65353
-60.804802 25.132622 -23.93074 -30.379442 -0.1117231 -120.63404 -36.329166 -43.579849
639650000 -33.652119 -37.70031 -0.11662256 -124.61282 -23.71048 -34.738712 -62.119209 11.349174
-0.11850921 -124.64797 -33.421211 -43.823288 -62.607788 7.8569479 -23.723312 -34.697327
-23.686544 -34.984436 -61.778774 16.460075 -36.475834 -39.942425 -0.11703426 -125.03355
-60.81134 16.48789 -23.697332 -34.737705 -0.11521927 -125.01511 -36.313778 -47.382023
662137500 -33.922268 -40.972458 -0.11770947 -128.97954 -23.489456 -39.112675 -61.126404 2.1514914
-0.12028479 -129.01524 -33.748096 -47.822521 -61.705135 0.43687671 -23.496922 -39.062637
-23.466898 -39.37862 -60.946999 6.7062559 -36.519032 -43.486156 -0.11909539 -129.41449
-60.717175 7.9127479 -23.469057 -39.121208 -0.11816834 -129.39963 -36.276714 -51.702511
684625000 -34.404991 -44.516605 -0.12053076 -133.34792 -23.275171 -43.483433 -60.868324 -9.6477051
-0.12303473 -133.37906 -34.247311 -51.27486 -61.215534 -7.3391418 -23.282219 -43.434624
-23.256283 -43.692459 -60.752747 -3.5676167 -36.677921 -46.646397 -0.12148804 -133.80557
-60.405972 -2.3219321 -23.259609 -43.513378 -0.12111199 -133.77963 -36.312176 -55.12706
707112500 -34.85672 -47.510189 -0.12269966 -137.71835 -23.076555 -47.879761 -60.310257 -17.59845
-0.12535149 -137.75185 -34.724308 -54.79895 -60.673653 -15.463905 -23.085314 -47.783451
-23.062563 -48.034267 -60.308739 -11.856111 -36.749401 -49.209919 -0.12446456 -138.1749
-60.178566 -8.6131687 -23.065767 -47.876953 -0.1236867 -138.15901 -36.441151 -58.594337
729600000 -35.437054 -50.845146 -0.12447219 -142.08289 -22.89356 -52.248825 -60.225258 -22.517206
-0.12716964 -142.12503 -35.314953 -58.803093 -60.465366 -22.746944 -22.900858 -52.123058
-22.877619 -52.403061 -60.475101 -21.868349 -36.859386 -52.185528 -0.12808107 -142.5513
-59.91362 -17.445074 -22.881214 -52.220364 -0.12553208 -142.53793 -36.616131 -62.568851
752087500 -36.042549 -54.047432 -0.12678292 -146.44992 -22.716755 -56.617638 -60.19157 -30.765203
-0.12957041 -146.49083 -35.985348 -62.851437 -60.014839 -33.478485 -22.722898 -56.482922
-22.703165 -56.796341 -60.26738 -30.474962 -36.908222 -55.061966 -0.13120225 -146.93159
-59.909981 -23.547775 -22.700336 -56.559151 -0.12712917 -146.91132 -36.695683 -66.048523
774575000 -36.805492 -57.060951 -0.12858832 -150.82076 -22.554394 -60.968208 -60.029663 -37.270679
-0.13270929 -150.86026 -36.753181 -66.892265 -59.835415 -44.425468 -22.560387 -60.82341
-22.535795 -61.143158 -60.081837 -37.653309 -36.905968 -58.364471 -0.13262348 -151.30659
-59.909664 -32.609604 -22.536119 -60.933559 -0.12933259 -151.29312 -36.781612 -69.883316
797062500 -37.518749 -58.608345 -0.13103847 -155.19722 -22.397917 -65.319611 -59.558437 -47.746376
-0.13464278 -155.23137 -37.666832 -72.359856 -59.550095 -50.635357 -22.398849 -65.208038
-22.381369 -65.519409 -59.773949 -45.405685 -36.978451 -60.582981 -0.13492449 -155.68706
-59.875679 -42.810032 -22.38052 -65.296242 -0.13163282 -155.67204 -36.830208 -74.03035
819550000 -38.50325 -59.591125 -0.13353823 -159.55768 -22.254639 -69.67263 -59.219254 -55.965771
-0.13660371 -159.59578 -38.920277 -75.424629 -59.219181 -57.316456 -22.251497 -69.601173
-22.235117 -69.896866 -59.339859 -54.837753 -37.032562 -63.611362 -0.136617 -160.06761
-59.502998 -50.953537 -22.239317 -69.661385 -0.13392583 -160.04816 -36.947563 -76.979691
842037500 -39.514679 -60.240993 -0.13583407 -163.92865 -22.113228 -74.063377 -58.714054 -62.912094
-0.13906413 -163.95872 -40.176056 -78.796982 -59.037704 -66.33168 -22.112602 -73.96907
-22.094629 -74.258957 -59.16618 -64.622574 -37.120605 -66.366005 -0.13923159 -164.45284
-59.133923 -58.247723 -22.099205 -74.01825 -0.1364563 -164.4305 -37.136772 -81.174377
864525000 -40.70639 -59.536976 -0.13890441 -168.29588 -21.982401 -78.441315 -58.551945 -69.348625
-0.14187317 -168.32698 -41.61293 -82.508087 -59.245125 -75.152802 -21.986784 -78.346687
-21.966444 -78.60804 -59.160511 -72.198326 -37.209396 -67.810257 -0.14246503 -168.82884
-58.687855 -66.512077 -21.970377 -78.372086 -0.13885134 -168.80412 -37.301926 -84.700714
887012500 -41.769417 -55.535229 -0.14018443 -172.674 -21.860346 -82.789948 -58.160351 -74.362991
-0.14402434 -172.68871 -43.324432 -83.740936 -59.036842 -83.249245 -21.870028 -82.716904
-21.84396 -82.967064 -58.9706 -77.380005 -37.21632 -70.127831 -0.14441866 -173.20338
-58.798512 -73.102234 -21.85022 -82.74131 -0.1416012 -173.18315 -37.525082 -88.356171
909500000 -42.896229 -51.488762 -0.14167203 -177.03925 -21.744404 -87.163269 -58.032238 -81.926628
-0.14753737 -177.04738 -44.896389 -76.871017 -58.812904 -88.648483 -21.75699 -87.080734
-21.731447 -87.330772 -59.081192 -86.304863 -37.352333 -73.308624 -0.14661059 -177.58984
-58.480568 -82.009979 -21.737015 -87.137741 -0.14426188 -177.56459 -37.688583 -91.300552
931987500 -43.701653 -44.760693 -0.14474025 178.59254 -21.636072 -91.51075 -57.812431 -90.467674
-0.14956488 178.59914 -47.395489 -63.509232 -58.46896 -96.37812 -21.648315 -91.46447
-21.625698 -91.709892 -58.521236 -92.181068 -37.562004 -75.170174 -0.14903955 178.02777
-58.386806 -88.951416 -21.630207 -91.510384 -0.14660905 178.06186 -37.915264 -93.988693
954475000 -44.176903 -36.150261 -0.14612219 174.22809 -21.540241 -95.870171 -57.479988 -98.187729
-0.15226053 174.23854 -48.276447 -50.112988 -58.191082 -102.7378 -21.545633 -95.845535
-21.528915 -96.058632 -58.116192 -100.7719 -37.757225 -77.948952 -0.15160623 173.65546
-58.304569 -99.706924 -21.530329 -95.888481 -0.14831008 173.68471 -38.32003 -97.223885
976962500 -44.335106 -26.726931 -0.14794502 169.86385 -21.44142 -100.24612 -57.340687 -106.42947
-0.15502965 169.87889 -48.605984 -35.802269 -58.015827 -109.98862 -21.447449 -100.21468
-21.433577 -100.41388 -57.955437 -109.19701 -38.026081 -79.824097 -0.15459949 169.27808
-58.01297 -107.50474 -21.432737 -100.25941 -0.15156932 169.31305 -38.686813 -99.439896
999450000 -44.457493 -17.431662 -0.15095544 165.50052 -21.355459 -104.64781 -57.453808 -113.05417
-0.15553811 165.51997 -48.587925 -20.947859 -58.07835 -118.85165 -21.362648 -104.55903
-21.342922 -104.78477 -58.185909 -117.47615 -38.212311 -81.517593 -0.15701999 164.9052
-57.852406 -115.12524 -21.34593 -104.64262 -0.1538668 164.94443 -39.033577 -101.97054
1021937500 -44.130085 -8.657938 -0.15408754 161.13164 -21.275337 -109.01809 -57.059013 -120.11844
-0.15901914 161.15642 -48.159622 -7.5668182 -57.87608 -126.92091 -21.277489 -108.92067
-21.263912 -109.13615 -58.126297 -124.90941 -38.368622 -83.431007 -0.16007952 160.53307
-57.897717 -121.67839 -21.264858 -109.0141 -0.15589122 160.57085 -39.220268 -104.96602
1044425000 -43.623123 -0.25294173 -0.15534873 156.76843 -21.201401 -113.37276 -57.037731 -126.9054
-0.1606753 156.79771 -47.411747 6.015769 -57.853207 -132.91484 -21.197969 -113.29889
-21.189793 -113.4912 -57.942242 -132.41408 -38.75061 -86.032867 -0.16155072 156.16734
-57.729832 -129.2917 -21.189466 -113.37341 -0.1563531 156.20111 -39.494667 -107.71513
1066912500 -42.588718 6.7712359 -0.1576457 152.40442 -21.130379 -117.71771 -56.913605 -135.04033
-0.16329604 152.42732 -46.232079 19.831976 -57.50856 -138.65388 -21.130062 -117.65179
-21.117073 -117.85735 -57.786701 -139.98126 -39.094681 -89.119568 -0.16300581 151.7934
-57.756065 -136.76266 -21.120672 -117.75653 -0.157371 151.82378 -39.904831 -110.0878
1089400000 -41.445854 10.776355 -0.15985911 148.04784 -21.067202 -122.08066 -57.136463 -143.14563
-0.16480514 148.05933 -44.630249 31.553831 -57.206593 -144.99576 -21.064703 -122.03024
-21.051332 -122.23852 -57.537746 -148.12343 -39.576904 -91.817879 -0.16442685 147.42303
-57.535862 -143.14116 -21.055185 -122.1292 -0.15924263 147.45088 -40.366959 -111.92346
1111887500 -40.272545 14.4894 -0.16284354 143.68202 -21.009407 -126.42606 -56.7281 -151.65385
-0.16651595 143.68631 -42.961147 35.100452 -57.012966 -152.77489 -21.005438 -126.41671
-20.99127 -126.62802 -57.023804 -155.05234 -40.025986 -93.327515 -0.16597188 143.04909
-57.506718 -150.59776 -20.996058 -126.49859 -0.16141976 143.08696 -41.025703 -113.86356
1134375000 -39.171093 16.752661 -0.16478871 139.31577 -20.955288 -130.80737 -56.876751 -160.2298
-0.16923644 139.31607 -40.187386 32.419106 -57.165604 -158.62704 -20.95393 -130.7592
-20.936687 -130.98491 -57.013115 -164.10532 -40.320343 -95.335426 -0.16751854 138.67879
-57.418804 -157.28265 -20.938562 -130.87692 -0.16309194 138.71136 -41.542992 -116.78267
1156862500 -38.257965 16.889589 -0.16664436 134.94905 -20.905787 -135.1653 -57.003799 -168.79637
-0.17162919 134.95407 -38.862797 29.765339 -57.045479 -167.1823 -20.904995 -135.13742
-20.886644 -135.34322 -56.851097 -170.72701 -40.689514 -96.391708 -0.16831385 134.30836
-57.001797 -163.77286 -20.890688 -135.23456 -0.16560762 134.3389 -42.201775 -119.39024
1179350000 -37.338028 15.664233 -0.16894704 130.59213 -20.86289 -139.5153 -56.859543 -175.35785
-0.17348729 130.59325 -37.858391 26.393026 -56.829544 -174.87067 -20.864014 -139.50467
-20.841759 -139.72151 -56.584442 -177.69342 -41.11937 -98.054016 -0.16908482 129.93149
-56.763721 -170.40504 -20.848436 -139.6035 -0.16616513 129.96732 -42.921188 -122.82546
1201837500 -36.416973 13.285374 -0.16999985 126.23195 -20.822336 -143.86035 -56.743134 178.40894
-0.17747714 126.22652 -36.940258 23.52177 -56.636192 178.57474 -20.824663 -143.87813
