! MARKI MICROWAVE INC.
! Email:             	info@markimicrowave.com   				Phone:   408-778-4200
! Model Number:      	C20-0240						Date:    07/11
! Filename:		C20_0240.S4P						Version: 1.0
! Description:       	4-port S-parameter data for Directional Coupler C20-0240
! Frequency Range: 	10 MHz to 40 GHz		
! Port Configuration:	PORT 1: Input
!			PORT 2: Output 
!			Port 3: Coupled 
!			Port 4: Isolated
!
! S4P File: Measurements: Mag<S11> Ang<S11> Mag<S12> Ang<S12> Mag<S13> Ang<S13> Mag<S14> Ang<S14>! row 1 
!			  Mag<S21> Ang<S21> Mag<S22> Ang<S22> Mag<S23> Ang<S23> Mag<S24> Ang<S24>! row 2 
!			  Mag<S31> Ang<S31> Mag<S32> Ang<S32> Mag<S33> Ang<S33> Mag<S34> Ang<S34>! row 3 
!			  Mag<S41> Ang<S41> Mag<S42> Ang<S42> Mag<S43> Ang<S43> Mag<S44> Ang<S44>! row 4

# GHz S DB R 50



0.01	-21.8474	89.4422		0.0153323	-0.822858	-59.4956	89.9033		-57.229		-159.421	
	0.0225911	-0.548431	-21.7493	88.7564		-64.7133	-105.326	-65.1836	40.1544	
	-65.1836	40.1544		-57.229		-159.421	-27.138		89.0976		0.0066358	-0.768496
	-64.7133	-105.326	-59.4956	89.9033		0.0169426	-0.521923	-27.1107	88.3442
0.21	-29.9988	57.4384		-0.0190913	-18.55		-40.5951	71.7414		-64.4677	-131.663
	-0.00604011	-18.4875	-29.6621	55.6651		-65.2113	-126.979	-41.2124	66.2907	
	-41.2124	66.2907		-64.4677	-131.663	-33.1856	58.6846		-0.00344694	-18.2563
	-65.2113	-126.979	-40.5951	71.7414		0.0106582	-18.1958	-33.1367	57.2158
0.41	-28.8658	43.4246		-0.0364539	-36.1601	-32.5919	54.008		-60.2145	-155.425
	-0.0225907	-36.1228	-28.6842	38.4412		-60.3151	-154.363	-32.5852	54.0004	
	-32.5852	54.0004		-60.2145	-155.425	-31.3185	47.6966		-0.0117474	-35.6385
	-60.3151	-154.363	-32.5919	54.008		0.00312188	-35.601		-31.3005	44.2517
0.61	-27.7481	32.6246		-0.050075	-53.7256	-29.017		36.5072		-57.141		177.448	
	-0.0369643	-53.6835	-27.7621	25.7553		-57.1358	177.094		-29.0049	36.5524
	-29.0049	36.5524		-57.141		177.448		-29.4593	41.5		-0.0208104	-52.9914
	-57.1358	177.094		-29.017		36.5072		-0.00665137	-52.9491	-29.6403	35.4648
0.81	-27.9734	23.2126		-0.0622866	-71.2753	-26.6601	19.0557		-54.9382	151.097	
	-0.0492217	-71.232		-28.1569	14.3905		-54.9336	150.809		-26.6472	19.1006	
	-26.6472	19.1006		-54.9382	151.097		-28.4901	33.5344		-0.0304646	-70.3318
	-54.9336	150.809		-26.6601	19.0557		-0.0163152	-70.2891	-28.9732	25.2659
1.01	-28.9384	16.8473		-0.0742517	-88.8114	-24.9472	1.62428		-53.147		124.238	
	-0.0605153	-88.766		-29.3856	3.78536		-53.151		124.354		-24.9339	1.66968	
	-24.9339	1.66968		-53.147		124.238		-28.1064	20.9167		-0.0406445	-87.6601
	-53.151		124.354		-24.9472	1.62428		-0.0255207	-87.6146	-28.8464	11.0244
1.21	-30.0473	12.4828		-0.0867666	-106.337	-23.651		-15.7875	-51.5664	96.3447
	-0.0724824	-106.289	-30.8919	-8.09663	-51.5401	96.6785		-23.6372	-15.7393
	-23.6372	-15.7393	-51.5664	96.3447		-28.1307	1.46652		-0.0511619	-104.976
	-51.5401	96.6785		-23.651		-15.7875	-0.0360885	-104.927	-28.9043	-9.42136
1.41	-30.6748	5.35665		-0.0987245	-123.857	-22.6549	-33.1902	-50.1526	67.2331		
	-0.083426	-123.806	-31.9858	-24.8978	-50.1686	67.3534		-22.6406	-33.1344
	-22.6406	-33.1344	-50.1526	67.2331		-28.1838	-25.2838	-0.0616762	-122.282
	-50.1686	67.3534		-22.6549	-33.1902	-0.0463034	-122.233	-28.6886	-35.8791
1.61	-30.7404	-10.0782	-0.110163	-141.361	-21.8895	-50.5693	-48.9312	36.4445	
	-0.0953089	-141.32		-32.0225	-47.4807	-48.9348	36.4828		-21.8754	-50.5215
	-21.8754	-50.5215	-48.9312	36.4445		-27.7739	-56.498		-0.0725777	-139.575
	-48.9348	36.4828		-21.8895	-50.5693	-0.0575651	-139.536	-27.8963	-64.6472
1.81	-30.3484	-35.8486	-0.121754	-158.854	-21.3076	-67.92		-47.9408	4.03418	
	-0.107583	-158.822	-30.8979	-72.1935	-47.9313	4.11786		-21.2954	-67.8728
	-21.2954	-67.8728	-47.9408	4.03418		-26.8751	-86.5294	-0.0847019	-156.857
	-47.9313	4.11786		-21.3076	-67.92		-0.0700245	-156.825	-26.7681	-90.6234
2.01	-29.6476	-67.3377	-0.132322	-176.33		-20.8756	-85.2397	-47.1655	-29.7254
	-0.119046	-176.298	-29.5999	-94.7049	-47.1417	-29.6173	-20.8639	-85.1942
	-20.8639	-85.1942	-47.1655	-29.7254	-26.1639	-111.448	-0.0959475	-174.112
	-47.1417	-29.6173	-20.8756	-85.2397	-0.0821743	-174.08		-26.0278	-111.161
2.21	-29.2791	-97.9322	-0.140788	166.204		-20.5675	-102.562	-46.5728	-64.6344
	-0.127765	166.243		-29.3005	-112.278	-46.5556	-64.4649	-20.5569	-102.513
	-20.5569	-102.513	-46.5728	-64.6344	-26.462		-131.432	-0.104213	168.651
	-46.5556	-64.4649	-20.5675	-102.562	-0.0907111	168.689		-26.3585	-126.302
2.41	-30.1863	-127.181	-0.146127	148.735		-20.3691	-119.917	-46.1407	-100.435
	-0.133223	148.783		-30.7285	-122.6		-46.1277	-100.331	-20.3582	-119.867
	-20.3582	-119.867	-46.1407	-100.435	-28.5396	-147.702	-0.107414	151.413
	-46.1277	-100.331	-20.3691	-119.917	-0.0942101	151.461		-28.2686	-134.667
2.61	-33.0258	-166.409	-0.149997	131.254		-20.2708	-137.324	-45.8168	-136.967
	-0.136347	131.308		-34.0723	-114.205	-45.8344	-136.975	-20.2587	-137.262
	-20.2587	-137.262	-45.8168	-136.967	-34.6879	-149.044	-0.107472	134.158	
	-45.8344	-136.975	-20.2708	-137.324	-0.0935404	134.215		-31.5725	-124.599
2.81	-34.9364	127.374		-0.1549		113.758		-20.2629	-154.764	-45.602		-173.967	
	-0.139779	113.822		-34.9942	-78.0054	-45.6172	-173.955	-20.2503	-154.688
	-20.2503	-154.688	-45.602		-173.967	-37.9892	-96.2536	-0.107324	116.879
	-45.6172	-173.955	-20.2629	-154.764	-0.0921844	116.944		-32.5427	-92.1364
3.01	-32.293		57.8385		-0.162466	96.2513		-20.3391	-172.195	-45.4405	148.696	
	-0.145822	96.3229		-31.2395	-45.4231	-45.4409	148.885		-20.3252	-172.119
	-20.3252	-172.119	-45.4405	148.696		-34.1421	-42.2765	-0.109831	99.575
	-45.4409	148.885		-20.3391	-172.195	-0.0935602	99.6459		-29.5278	-63.754
3.21	-27.1344	15.4017		-0.172844	78.7603		-20.4837	170.421		-45.31		111.773
	-0.155522	78.8369		-26.4336	-41.8859	-45.3122	111.864		-20.4697	170.495
	-20.4697	170.495		-45.31		111.773		-27.1099	-39.6517	-0.117339	82.2702
	-45.3122	111.864		-20.4837	170.421		-0.100152	82.3445		-25.6366	-59.021
3.41	-24.0208	-8.36632	-0.183558	61.2945		-20.679		153.099		-45.212		75.2851
	-0.166367	61.371		-23.7496	-50.6187	-45.2068	75.3522		-20.6629	153.177	
	-20.6629	153.177		-45.212		75.2851		-24.1734	-50.2585	-0.128449	64.9863	
	-45.2068	75.3522		-20.679		153.099		-0.11069	65.0588		-23.4335	-64.929
3.61	-22.7136	-27.1997	-0.191772	43.8529		-20.9068	135.832		-45.1113	39.4505
	-0.174677	43.9276		-22.6833	-62.0358	-45.086		39.5648		-20.8905	135.91	
	-20.8905	135.91		-45.1113	39.4505		-22.9452	-61.3694	-0.139072	47.7389
	-45.086		39.5648		-20.9068	135.832		-0.121309	47.8097		-22.5648	-73.1328
3.81	-22.901		-43.5458	-0.19502	26.4187		-21.1507	118.586		-45.0104	4.64496	
	-0.177852	26.4846		-22.9981	-74.1188	-44.9839	4.665		-21.1351	118.657	
	-21.1351	118.657		-45.0104	4.64496		-22.8873	-72.2524	-0.144712	30.5192	
	-44.9839	4.665		-21.1507	118.586		-0.127528	30.5828		-22.7459	-81.3703
4.01	-24.7342	-57.3079	-0.193762	8.96666		-21.3985	101.3		-44.9139	-29.0938	
	-0.17606	9.01625		-24.8833	-85.2646	-44.8917	-29.0789	-21.3823	101.359	
	-21.3823	101.359		-44.9139	-29.0938	-23.8934	-82.8246	-0.144878	13.299	
	-44.8917	-29.0789	-21.3985	101.3		-0.126925	13.3454		-23.8665	-88.4748
4.21	-29.2626	-62.9479	-0.190772	-8.51322	-21.6418	83.9572		-44.8417	-61.8734
	-0.172348	-8.47426	-29.2623	-88.4013	-44.8389	-61.8655	-21.6256	84.004	
	-21.6256	84.004		-44.8417	-61.8734	-26.1743	-92.7363	-0.140288	-3.94403
	-44.8389	-61.8655	-21.6418	83.9572		-0.121828	-3.9053		-25.9395	-92.7979
4.41	-34.5049	-27.5137	-0.189837	-26.0262	-21.8736	66.5426		-44.7979	-93.5717	
	-0.169453	-25.9999	-33.7044	-56.4387	-44.7876	-93.628		-21.8555	66.5719
	-21.8555	66.5719		-44.7979	-93.5717	-30.7529	-98.9833	-0.13447	-21.2215
	-44.7876	-93.628		-21.8736	66.5426		-0.114268	-21.1953	-28.9613	-90.2006
4.61	-33.5579	23.2392		-0.193075	-43.5541	-22.0876	49.0551		-44.7594	-124.498	
	-0.173828	-43.5448	-32.5876	-14.5223	-44.7546	-124.534	-22.0707	49.0724
	-22.0707	49.0724		-44.7594	-124.498	-37.1968	-67.2479	-0.131169	-38.5332
	-44.7546	-124.534	-22.0876	49.0551		-0.111649	-38.5263	-31.8439	-73.7006
4.81	-27.5077	43.9347		-0.200738	-61.0756	-22.2776	31.5365		-44.7351	-154.686
	-0.182634	-61.0756	-27.3586	-2.13593	-44.7321	-154.717	-22.262		31.5502	
	-22.262		31.5502		-44.7351	-154.686	-37.119		-15.1566	-0.13185	-55.8628
	-44.7321	-154.717	-22.2776	31.5365		-0.113507	-55.8635	-32.2385	-48.9626
5.01	-24.0476	38.0099		-0.210996	-78.5768	-22.4355	14.0281		-44.7071	175.655
	-0.192033	-78.571		-24.2563	-15.0677	-44.6806	175.55		-22.4198	14.0479		
	-22.4198	14.0479		-44.7071	175.655		-30.7474	8.87577		-0.136974	-73.1889	
	-44.6806	175.55		-22.4355	14.0281		-0.118225	-73.1813	-29.9644	-34.1392
5.21	-22.2498	29.1302		-0.222145	-96.0586	-22.5529	-3.45371	-44.6578	146.261
	-0.203733	-96.0474	-22.7557	-33.4285	-44.6295	146.139		-22.5355	-3.42949
	-22.5355	-3.42949	-44.6578	146.261		-26.61		-5.73425	-0.146249	-90.5024
	-44.6295	146.139		-22.5529	-3.45371	-0.127862	-90.4897	-27.1846	-36.6728
5.41	-21.3085	19.1314		-0.232711	-113.525	-22.6242	-20.8981	-44.6178	116.72
	-0.214587	-113.514	-22.1111	-54.2535	-44.6099	116.731		-22.6062	-20.8712
	-22.6062	-20.8712	-44.6178	116.72		-24.3565	-26.6189	-0.157321	-107.8	
	-44.6099	116.731		-22.6242	-20.8981	-0.139619	-107.787	-25.0133	-49.1045
5.61	-20.9309	7.42467		-0.242026	-130.975	-22.6478	-38.2895	-44.5746	86.9327
	-0.223381	-130.959	-21.8994	-76.2458	-44.5843	86.9488		-22.6293	-38.2524
	-22.6293	-38.2524	-44.5746	86.9327		-22.8568	-50.3686	-0.169126	-125.072	
	-44.5843	86.9488		-22.6478	-38.2895	-0.150986	-125.057	-23.3346	-66.0206
5.81	-21.0313	-6.57936	-0.249463	-148.415	-22.6255	-55.6268	-44.5267	56.5702	
	-0.230855	-148.396	-21.9193	-98.2003	-44.528		56.6065		-22.6052	-55.5957	
	-22.6052	-55.5957	-44.5267	56.5702		-21.7338	-75.2399	-0.180436	-142.323	
	-44.528		56.6065		-22.6255	-55.6268	-0.162731	-142.304	-22.0136	-84.817
6.01	-21.6267	-23.4265	-0.253709	-165.846	-22.5597	-72.9091	-44.473		25.4492
	-0.236058	-165.824	-22.1687	-118.702	-44.463		25.4523		-22.5397	-72.8848
	-22.5397	-72.8848	-44.473		25.4492		-20.8974	-99.4939	-0.190263	-159.548
	-44.463		25.4523		-22.5597	-72.9091	-0.173113	-159.53		-21.0402	-103.657
6.21	-22.7876	-43.3518	-0.254772	176.72		-22.4534	-90.162		-44.3947	-6.78489
	-0.238139	176.746		-22.779		-136.836	-44.3865	-6.72553	-22.4363	-90.1316
	-22.4363	-90.1316	-44.3947	-6.78489	-20.4528	-122.329	-0.195638	-176.759
	-44.3865	-6.72553	-22.4534	-90.162		-0.179572	-176.736	-20.5082	-121.765
6.41	-24.657		-66.6567	-0.252847	159.266		-22.3131	-107.439	-44.2995	-40.2727
	-0.237027	159.307		-24.0332	-151.901	-44.288		-40.2404	-22.2979	-107.393
	-22.2979	-107.393	-44.2995	-40.2727	-20.6559	-143.662	-0.196509	166.028	
	-44.288		-40.2404	-22.3131	-107.439	-0.181241	166.063		-20.6277	-138.782
6.61	-27.6359	-94.5527	-0.249942	141.784		-22.1533	-124.779	-44.1958	-75.2686
	-0.234662	141.843		-26.4666	-162.681	-44.1806	-75.1729	-22.1387	-124.715
	-22.1387	-124.715	-44.1958	-75.2686	-21.8693	-163.644	-0.193212	148.794	
	-44.1806	-75.1729	-22.1533	-124.779	-0.178122	148.846		-21.7059	-154.102
6.81	-32.5426	-138.34		-0.24828	124.274		-21.9898	-142.214	-44.0317	-111.291	
	-0.231361	124.338		-31.1811	-158.756	-44.0091	-111.201	-21.9727	-142.142
	-21.9727	-142.142	-44.0317	-111.291	-24.8004	177.715		-0.187489	131.53
	-44.0091	-111.201	-21.9898	-142.214	-0.170555	131.588		-24.2576	-165.597
7.01	-35.0121	145.196		-0.250855	106.741		-21.8417	-159.754	-43.7583	-148.175
	-0.232233	106.803		-33.9104	-118.429	-43.7418	-148.045	-21.8223	-159.688
	-21.8223	-159.688	-43.7583	-148.175	-33.0367	139.105		-0.182424	114.227
	-43.7418	-148.045	-21.8417	-159.754	-0.164551	114.283		-29.2453	-160.552
7.21	-31.7305	69.3473		-0.258969	89.2058		-21.7253	-177.344	-43.3607	174.346
	-0.239677	89.2541		-30.7967	-76.3763	-43.3387	174.442		-21.704		-177.293
	-21.704		-177.293	-43.3607	174.346		-35.8977	42.6081		-0.182018	96.8948
	-43.3387	174.442		-21.7253	-177.344	-0.163381	96.9352		-31.7745	-120.359
7.41	-26.1035	28.3394		-0.272533	71.692		-21.6479	165.095		-42.8376	136.655	
	-0.253312	71.7305		-24.9944	-69.0937	-42.8188	136.711		-21.6267	165.146	
	-21.6267	165.146		-42.8376	136.655		-30.7565	-52.7063	-0.188544	79.5529	
	-42.8188	136.711		-21.6479	165.095		-0.169277	79.5828		-28.6368	-81.5303
7.61	-22.6887	4.5666		-0.289434	54.2165		-21.6096	147.646		-42.2289	99.3869
	-0.271255	54.2464		-21.6675	-79.0332	-42.202		99.3557		-21.5915	147.684	
	-21.5915	147.684		-42.2289	99.3869		-23.6286	-70.4061	-0.201594	62.2314	
	-42.202		99.3557		-21.6096	147.646		-0.183377	62.251		-23.5183	-78.3364
7.81	-20.7431	-14.2426	-0.305417	36.7894		-21.602		130.35		-41.5932	62.7681
	-0.287349	36.8181		-19.9234	-92.7415	-41.5559	62.8237		-21.5847	130.381	
	-21.5847	130.381		-41.5932	62.7681		-21.0063	-87.4872	-0.218417	44.9569	
	-41.5559	62.8237		-21.602		130.35		-0.200341	44.974		-20.8743	-89.409
8.01	-19.8881	-30.2263	-0.316057	19.4014		-21.6094	113.208		-40.937		26.9936
	-0.296975	19.4266		-19.2912	-108.385	-40.909		27.0602		-21.5915	113.232	
	-21.5915	113.232		-40.937		26.9936		-19.9997	-104.777	-0.233453	27.7369	
	-40.909		27.0602		-21.6094	113.208		-0.214319	27.7493		-19.7823	-103.224
8.21	-19.9317	-43.8482	-0.319156	2.02192		-21.6217	96.1444		-40.3115	-7.80301
	-0.299801	2.05089		-19.6579	-125.643	-40.2834	-7.73074	-21.6034	96.1713	
	-21.6034	96.1713		-40.3115	-7.80301	-20.1014	-122.884	-0.242091	10.5495	
	-40.2834	-7.73074	-21.6217	96.1444		-0.223249	10.5645		-19.7852	-118.382
8.41	-20.9119	-55.205		-0.314711	-15.3809	-21.6339	79.0453		-39.7428	-41.8043
	-0.295543	-15.3524	-21.1295	-144.408	-39.7207	-41.7678	-21.6153	79.0725
	-21.6153	79.0725		-39.7428	-41.8043	-21.1565	-142.201	-0.242605	-6.63433
	-39.7207	-41.7678	-21.6339	79.0453		-0.223843	-6.62097	-20.761		-134.304
8.61	-23.0571	-63.6954	-0.306497	-32.8285	-21.6528	61.8036		-39.2654	-75.2018
	-0.288244	-32.7924	-24.2019	-165.21		-39.2465	-75.1684	-21.6332	61.8431
	-21.6332	61.8431		-39.2654	-75.2018	-23.2501	-163.488	-0.237074	-23.8466
	-39.2465	-75.1684	-21.6528	61.8036		-0.218889	-23.8259	-22.8298	-150.656
8.81	-27.2116	-63.7965	-0.298285	-50.3277	-21.6888	44.3632		-38.8864	-108.136
	-0.279647	-50.2839	-31.3069	161.901 	-38.8556	-108.108	-21.6699	44.4092	
	-21.6699	44.4092		-38.8864	-108.136	-26.8788	170.792		-0.227664	-41.1049
	-38.8556	-108.108	-21.6888	44.3632		-0.208979	-41.0777	-26.637		-166.116
9.01	-31.6005	-29.8819	-0.294157	-67.8726	-21.7579	26.7334		-38.6304	-140.734	
	-0.274849	-67.8169	-35.7518	69.4698		-38.6025	-140.671	-21.7394	26.7918	
	-21.7394	26.7918		-38.6304	-140.734	-32.8601	123.322		-0.218579	-58.4183
	-38.6025	-140.671	-21.7579	26.7334		-0.199072	-58.3785	-33.9568	-158.97
9.21	-30.3759	17.7636		-0.298879	-85.4484	-21.8708	8.99712		-38.5185	-172.965
	-0.277375	-85.3831	-32.307		-25.7305	-38.501		-172.895	-21.8508	9.05768	
	-21.8508	9.05768		-38.5185	-172.965	-34.9356	40.9238		-0.215064	-75.7843
	-38.501		-172.895	-21.8708	8.99712		-0.193692	-75.7343	-36.0259	-110.613
9.41	-24.5042	39.5018		-0.313451	-103.025	-22.0285	-8.74954	-38.5573	155.177
	-0.287933	-102.948	-24.637		-66.399		-38.5374	155.186		-22.0034	-8.66884
	-22.0034	-8.66884	-38.5573	155.177		-30.6142	-35.5716	-0.221433	-93.1762
	-38.5374	155.186		-22.0285	-8.74954	-0.195971	-93.1181	-30.5439	-70.915
9.61	-20.3455	33.1809		-0.337883	-120.557	-22.2212	-26.3889	-38.7315	123.639
	-0.308108	-120.474	-20.9927	-91.0292	-38.6953	123.657		-22.1927	-26.3022
	-22.1927	-26.3022	-38.7315	123.639		-24.8189	-72.521		-0.239642	-110.559
	-38.6953	123.657		-22.2212	-26.3889	-0.209992	-110.496	-24.3641	-82.5635
9.81	-17.9714	20.9538		-0.367558	-138.007	-22.4322	-43.8113	-39.0184	92.4353
	-0.333305	-137.942	-18.7458	-113.611	-38.9665	92.4623		-22.3999	-43.765
	-22.3999	-43.765		-39.0184	92.4353		-21.2617	-97.3063	-0.268266	-127.886
	-38.9665	92.4623		-22.4322	-43.8113	-0.234246	-127.839	-20.9718	-100.495
10.01	-16.714		6.08472		-0.394576	-155.358	-22.6359	-60.9986	-39.3819	61.3865	
	-0.35814	-155.322	-17.3307	-134.162	-39.3339	61.3726		-22.6016	-60.9758
	-22.6016	-60.9758	-39.3819	61.3865		-18.8563	-118.386	-0.300421	-145.109
	-39.3339	61.3726		-22.6359	-60.9986	-0.264783	-145.086	-18.7229	-118.182
10.21	-16.3164	-10.7872	-0.411096	-172.633	-22.8096	-77.9763	-39.8183	30.2213	
	-0.373196	-172.628	-16.6241	-152.543	-39.7817	30.1914		-22.7731	-77.9627	
	-22.7731	-77.9627	-39.8183	30.2213		-17.2726	-137.153	-0.327236	-162.224
	-39.7817	30.1914		-22.8096	-77.9763	-0.289866	-162.23		-17.2491	-134.887
10.41	-16.7523	-29.5433	-0.410489	170.117	   	-22.934		-94.8372	-40.3345	-1.37193	
	-0.371958	170.099		-16.6377	-168.858	-40.292		-1.3544		-22.895		-94.8486
	-22.895		-94.8486	-40.3345	-1.37193	-16.4186	-154.199	-0.338704	-179.267
	-40.292		-1.3544		-22.934		-94.8372	-0.30038	-179.3		-16.4585	-150.436
10.61	-18.0602	-50.5236	-0.393167	152.818		-23.0019	-111.75		-40.9013	-33.5587	
	-0.355084	152.753		-17.4465	176.972		-40.8671	-33.6071	-22.9626	-111.806	
	-22.9626	-111.806	-40.9013	-33.5587	-16.2949	-169.926	-0.331452	163.689	
	-40.8671	-33.6071	-23.0019	-111.75		-0.293624	163.607		-16.3515	-164.901
10.81	-20.538		-74.8186	-0.366722	135.412		-23.0189	-128.833	-41.5193	-66.7278
	-0.329836	135.309		-19.296		165.999		-41.4849	-66.8347	-22.9815	-128.936
	-22.9815	-128.936	-41.5193	-66.7278	-17.0106	175.621		-0.307656	146.57
	-41.4849	-66.8347	-23.0189	-128.833	-0.271413	146.45		-17.0297	-178.111
11.01	-24.7088	-108.28		-0.343122	117.9		-23.0081	-146.143	-42.158		-101.059
	-0.310513	117.753		-22.5583	162.613		-42.1326	-101.204	-22.9753	-146.29
	-22.9753	-146.29		-42.158		-101.059	-18.8506	163.015		-0.278235	129.335
	-42.1326	-101.204	-23.0081	-146.143	-0.24643	129.175		-18.7394	170.792
11.21	-29.0659	-169.366	-0.331259	100.31		-22.9891	-163.682	-42.7738	-136.712
	-0.302723	100.138		-26.33		-179.776	-42.7477	-136.924	-22.96		-163.848
	-22.96		-163.848	-42.7738	-136.712	-22.5507	155.93		-0.254149	111.984
	-42.7477	-136.924	-22.9891	-163.682	-0.226456	111.797		-22.0079	165.635
11.41	-28.895		116.064		-0.333874	82.7077		-22.9785	178.663		-43.3025	-173.805
	-0.310311	82.5397		-26.8253	-146.706	-43.2844	-174.052	-22.9559	178.503
	-22.9559	178.503		-43.3025	-173.805	-27.7622	176.621		-0.243577	94.5641	
	-43.2844	-174.052	-22.9785	178.663		-0.220878	94.3806		-26.3522	-177.335
11.61	-24.8627	61.138		-0.347459	65.1507		-22.9822	161.045		-43.6669	147.994	
	-0.328545	64.9801		-23.7593	-125.135	-43.6636	147.816		-22.9635	160.873	
	-22.9635	160.873		-43.6669	147.994		-28.3995	-140.337	-0.248318	77.1457
	-43.6636	147.816		-22.9822	161.045		-0.230359	76.9601		-27.1698	-140.414
11.81	-21.7874	30.6138		-0.364773	47.6691		-22.9916	143.565		-43.795		109.473
	-0.348146	47.5096		-20.7781	-125.13		-43.7985	109.287		-22.9744	143.4	
	-22.9744	143.4		-43.795		109.473		-23.9685	-113.633	-0.263949	59.7865
	-43.7985	109.287		-22.9916	143.565		-0.2482		59.6108		-23.6995	-114.955
12.01	-20.3428	7.24464		-0.378412	30.2523		-22.9915	126.254		-43.6494	71.3875
	-0.362741	30.1104		-19.273		-133.156	-43.6307	71.2228		-22.9755	126.118
	-22.9755	126.118		-43.6494	71.3875		-20.2936	-118.506	-0.281966	42.51
	-43.6307	71.2228		-22.9915	126.254		-0.26725	42.3467		-20.2391	-115.78
12.21	-19.9953	-12.5715	-0.384311	12.8665		-22.9701	109.088		-43.2576	34.3865	
	-0.366679	12.7282		-18.9514	-143.773	-43.2525	34.085		-22.9543	108.973	
	-22.9543	108.973		-43.2576	34.3865		-18.7494	-130.55		-0.295042	25.296	
	-43.2525	34.085		-22.9701	109.088		-0.278372	25.1369		-18.5945	-125.208
12.41	-20.5886	-29.3624	-0.381714	-4.52949	-22.9221	92.0203		-42.7155	-1.40094
	-0.362984	-4.67461	-19.6631	-155.455	-42.7138	-1.67348	-22.9058	91.8822	
	-22.9058	91.8822		-42.7155	-1.40094	-18.5591	-144.743	-0.299095	8.10644
	-42.7138	-1.67348	-22.9221	92.0203		-0.28141	7.94071		-18.2355	-136.999
12.61	-22.1412	-42.1559	-0.374155	-21.9651	-22.8482	74.9237		-42.1258	-36.0035	
	-0.353575	-22.1497	-21.5042	-167.578	-42.1061	-36.2358	-22.8302	74.7409	
	-22.8302	74.7409		-42.1258	-36.0035	-19.5134	-160.491	-0.294354	-9.10293
	-42.1061	-36.2358	-22.8482	74.9237		-0.274704	-9.30868	-18.9474	-149.769
