! MARKI MICROWAVE INC.
! Email:             	info@markimicrowave.com   				Phone:   408-778-4200
! Model Number:      	C20-0226						Date:    10/12
! Filename:		C20_0226.S4P						Version: 1.0
! Description:       	4-port S-parameter data for Directional Coupler C20-0226
! Frequency Range: 	10 MHz to 26.5 GHz		
! Port Configuration:	PORT 1: Input 
!			PORT 2: Output 
!			Port 3: Coupled 	
!			Port 4: Isolated

! S4P File: Measurements: Mag<S11> Ang<S11> Mag<S12> Ang<S12> Mag<S13> Ang<S13> Mag<S14> Ang<S14>! row 1 
!			  Mag<S21> Ang<S21> Mag<S22> Ang<S22> Mag<S23> Ang<S23> Mag<S24> Ang<S24>! row 2 
!			  Mag<S31> Ang<S31> Mag<S32> Ang<S32> Mag<S33> Ang<S33> Mag<S34> Ang<S34>! row 3 
!			  Mag<S41> Ang<S41> Mag<S42> Ang<S42> Mag<S43> Ang<S43> Mag<S44> Ang<S44>! row 4

# Hz S  dB   R 50
10000000 -50.593933 -9.1313438 -0.017250445 -6.785243 -51.654591 47.820534 -61.880917 171.24078
-0.038181894 -7.0616422 -48.593861 21.233852 -67.587181 -77.512154 -56.487247 132.41266
-53.24408 82.679649 -66.157555 131.06305 -46.023411 9.3577261 -0.034606311 -6.8759818
-62.45565 121.34415 -48.66399 65.043793 -0.019664975 -6.840456 -49.539833 27.485565
43112500 -48.900475 0.96876824 -0.021320753 -9.500926 -49.48822 52.192806 -63.574684 168.73145
-0.03817457 -9.7231579 -47.275791 25.195435 -69.920517 -89.976181 -53.32024 119.92326
-50.737202 80.032455 -67.514885 144.85599 -45.342861 15.493237 -0.035021342 -9.523119
-64.261391 74.030251 -47.080727 66.066307 -0.023163 -9.4926319 -48.201839 29.674829
76225000 -47.023407 10.980847 -0.025314337 -12.755743 -47.159763 56.220989 -65.58036 174.70523
-0.038877569 -12.920115 -45.785484 28.980154 -71.340508 -102.82829 -49.997635 106.83347
-48.057446 76.851776 -68.441055 158.60669 -44.456966 20.705336 -0.03533756 -12.701107
-66.481522 28.339865 -45.320183 66.395317 -0.027189922 -12.676755 -46.728577 31.341953
109337500 -45.035168 20.473505 -0.030229896 -16.545332 -44.689465 59.618317 -67.546616 177.37978
-0.039187659 -16.655045 -44.243885 32.591663 -72.459503 -114.58553 -46.542439 93.203011
-45.255432 73.127708 -69.092323 171.138 -43.614151 25.089193 -0.035923548 -16.408976
-68.533867 -15.822027 -43.443882 66.285759 -0.03146993 -16.394133 -45.283848 33.703854
142450000 -43.08923 29.355087 -0.034267034 -20.869204 -42.100849 62.361691 -69.61145 176.40941
-0.040696643 -20.931341 -42.589085 36.149876 -72.662163 -127.91508 -42.930889 78.965782
-42.328739 68.967949 -69.613808 -170.72502 -42.863667 28.619514 -0.037176322 -20.644409
-69.399467 -63.404243 -41.424301 65.573341 -0.035112262 -20.638176 -43.779259 35.068336
175562500 -40.904442 38.326847 -0.04007509 -25.733397 -39.405983 64.620155 -70.618423 175.98189
-0.041896794 -25.745033 -40.764896 38.949223 -73.277985 -142.90529 -39.237156 64.278091
-39.283596 64.239952 -69.813644 -156.43631 -41.870438 33.490833 -0.037658557 -25.415823
-70.775635 -109.42755 -39.29044 64.319641 -0.040212203 -25.420353 -42.071091 35.051044
208675000 -39.566471 33.931023 -0.04405186 -30.574993 -37.296539 59.713543 -69.508347 -176.46451
-0.04590999 -30.587561 -39.565571 35.040607 -72.293831 -158.75282 -37.287395 59.495708
-37.309631 59.030285 -68.407394 -165.30878 -40.772835 29.764957 -0.041119702 -30.206276
-70.384354 -140.86835 -37.30154 59.482437 -0.044461697 -30.206614 -40.914528 32.698654
241787500 -38.485329 32.184017 -0.047130242 -35.417191 -35.769306 54.856567 -69.439545 173.95107
-0.048288405 -35.41547 -38.44091 33.230255 -71.56282 -164.03558 -35.75967 55.01247
-35.767403 54.43924 -67.749466 -166.45995 -39.818893 27.542665 -0.045063592 -34.98531
-69.828171 -159.04634 -35.755032 54.563854 -0.046872079 -34.98608 -39.973999 30.87088
274900000 -37.700634 29.100372 -0.050734378 -40.252865 -34.516109 49.939056 -68.187805 178.131
-0.051691975 -40.248482 -37.60701 29.679258 -70.185684 -164.15874 -34.511127 50.052158
-34.52874 49.791454 -66.8321 -170.77654 -38.9884 23.652739 -0.047429897 -39.76281
-68.10408 -160.85118 -34.497952 49.674568 -0.049790461 -39.767757 -39.191563 27.939325
308012500 -36.873543 25.604471 -0.054365177 -45.078224 -33.4491 45.149494 -68.162178 175.55101
-0.055182196 -45.064514 -36.802036 25.808853 -69.003853 -168.72076 -33.452644 45.226475
-33.464916 45.001362 -66.192787 178.02444 -38.154522 20.456322 -0.050579768 -44.53521
-66.997841 -164.36574 -33.452808 44.872303 -0.052800216 -44.535988 -38.503708 24.764109
341125000 -36.177902 22.262592 -0.057266273 -49.907749 -32.513111 40.413471 -67.281296 176.67755
-0.057662465 -49.884068 -36.042961 22.712543 -66.815216 -177.58936 -32.518776 40.338352
-32.528275 40.248569 -65.068459 174.77818 -37.348339 16.759808 -0.054002229 -49.309059
-66.459686 -168.23351 -32.514404 40.016865 -0.056693088 -49.306366 -37.730545 21.786201
374237500 -35.570133 18.627508 -0.059571389 -54.730644 -31.685656 35.486469 -66.273331 172.42426
-0.060262676 -54.709518 -35.472061 19.447109 -65.679222 175.78648 -31.68738 35.443478
-31.717907 35.49332 -64.158173 169.90459 -36.790688 13.192887 -0.057568744 -54.080109
-65.047691 -176.81909 -31.68782 35.358234 -0.05912482 -54.076427 -37.061939 19.248302
407350000 -35.119976 14.96196 -0.062673792 -59.555187 -30.949579 30.679527 -65.151932 167.26375
-0.062945947 -59.526733 -34.883968 15.534776 -64.596436 168.96819 -30.92853 30.598831
-30.963369 30.746885 -63.73484 165.68167 -36.168327 9.754632 -0.060878463 -58.842743
-63.986984 173.8757 -30.930668 30.58238 -0.062611476 -58.848099 -36.375309 15.76133
440462500 -34.643223 11.576593 -0.066308886 -64.382469 -30.279226 25.976328 -63.82214 164.47733
-0.066086791 -64.338875 -34.458885 11.196711 -64.738991 159.18253 -30.269032 25.838923
-30.276062 25.91531 -63.905033 155.79678 -35.48069 6.8538113 -0.064187497 -63.611778
-64.308266 167.60231 -30.253162 25.865435 -0.067214109 -63.615795 -35.727837 12.747298
473575000 -34.295959 7.9203849 -0.068861037 -69.199585 -29.66077 21.206326 -63.531998 160.92357
-0.069548875 -69.151573 -34.082623 6.9994445 -64.299675 151.18271 -29.650805 20.960032
-29.654968 21.097872 -64.090187 150.35039 -35.055977 1.9811295 -0.068435021 -68.375717
-63.668526 159.12033 -29.655039 21.155251 -0.069715112 -68.378517 -35.291664 10.711442
506687500 -33.92746 4.2327948 -0.072369665 -74.014458 -29.076141 16.446306 -63.145138 150.83858
-0.072974198 -73.965691 -33.772747 2.6680059 -64.413887 147.311 -29.079597 16.249849
-29.074631 16.341677 -64.128983 146.95576 -34.666828 -2.4725475 -0.072426349 -73.142601
-63.228184 152.45412 -29.088659 16.39357 -0.070524596 -73.1409 -34.950016 7.6781096
539800000 -33.63364 -0.081833288 -0.075920179 -78.834457 -28.553308 11.595451 -62.616287 145.25423
-0.077341758 -78.786476 -33.475334 -1.3227286 -64.172897 140.54581 -28.559427 11.389208
-28.565825 11.618105 -63.661991 141.95934 -34.314796 -7.0722747 -0.074750066 -77.907974
-62.557751 144.97594 -28.560375 11.514595 -0.074172884 -77.90728 -34.700874 4.2456398
572912500 -33.376919 -4.4571447 -0.07825496 -83.647552 -28.06912 6.8081164 -63.033653 139.64854
-0.079899162 -83.605331 -33.269531 -5.000103 -63.96471 133.21402 -28.073582 6.6863842
-28.075949 6.7972193 -63.698566 135.26936 -34.042007 -11.330963 -0.078731455 -82.667648
-62.191898 141.12509 -28.071857 6.7544742 -0.076597169 -82.671944 -34.542076 0.40163168
606025000 -33.253391 -8.5877075 -0.080068491 -88.467354 -27.620438 2.0429602 -61.903572 133.01186
-0.082893655 -88.432823 -33.086601 -8.8137856 -63.581055 125.68365 -27.619722 1.9417611
-27.623718 1.9595804 -63.397316 129.31859 -33.850311 -15.64104 -0.081524566 -87.440201
-61.897633 130.49332 -27.619493 2.0054317 -0.078724712 -87.447586 -34.293587 -3.0985904
639137500 -33.167999 -12.72982 -0.083758667 -93.273132 -27.204288 -2.7167263 -61.972126 126.55547
-0.085573658 -93.253868 -32.968731 -12.97688 -63.050175 121.00735 -27.200159 -2.8777616
-27.20644 -2.7834463 -63.185768 120.61386 -33.749718 -20.22942 -0.084378771 -92.207291
-61.391529 125.36476 -27.200741 -2.7904773 -0.080457523 -92.213676 -34.162479 -6.5146403
672250000 -33.102055 -16.67742 -0.089219168 -98.082825 -26.812735 -7.508677 -61.528011 114.99939
-0.087718122 -98.065102 -32.860634 -17.770958 -62.812576 112.59975 -26.805696 -7.6330385
-26.803556 -7.5852222 -63.320122 109.92277 -33.598709 -25.117378 -0.087330319 -96.970848
-61.316868 119.60455 -26.814505 -7.6277256 -0.084435679 -96.983307 -34.039894 -10.131534
705362500 -33.03175 -20.984711 -0.092171319 -102.89694 -26.438221 -12.326137 -61.602955 110.44289
-0.091458932 -102.88789 -32.769005 -21.878653 -62.367718 101.72604 -26.436855 -12.402036
-26.433392 -12.393755 -63.207397 101.88786 -33.495228 -29.311556 -0.090460353 -101.74252
-61.429462 112.37397 -26.438099 -12.445395 -0.08610224 -101.74458 -33.927776 -13.864367
738475000 -32.868996 -24.80023 -0.095497608 -107.71423 -26.087048 -17.111443 -61.547661 104.67944
-0.094229139 -107.70403 -32.628315 -26.166348 -61.852848 96.302582 -26.096029 -17.19561
-26.087276 -17.168043 -62.74271 93.733261 -33.327789 -33.674343 -0.092038967 -106.51115
-60.842892 105.60754 -26.102074 -17.252235 -0.087578706 -106.51447 -33.804058 -17.74844
771587500 -32.88163 -29.051994 -0.098266944 -112.53648 -25.759727 -21.887266 -61.369427 97.58065
-0.097155213 -112.52044 -32.655037 -30.096144 -61.722801 89.721313 -25.764162 -21.924837
-25.765091 -21.951626 -62.798363 83.562347 -33.156857 -37.650181 -0.094705105 -111.28186
-60.740856 96.328621 -25.765984 -22.020567 -0.090477072 -111.27663 -33.68531 -21.573324
804700000 -32.898331 -32.946148 -0.10074172 -117.35683 -25.461145 -26.699476 -61.114918 93.43161
-0.099840194 -117.33057 -32.634945 -34.239746 -61.389328 79.798019 -25.44965 -26.738413
-25.45422 -26.746956 -61.7477 75.189384 -33.116146 -41.585697 -0.097007282 -116.0444
-60.647697 89.805374 -25.452034 -26.814487 -0.094589256 -116.04795 -33.640236 -25.925953
837812500 -32.990791 -36.940342 -0.10389107 -122.16666 -25.160805 -31.488674 -60.696022 86.216331
-0.10289792 -122.14761 -32.640434 -38.038609 -61.133869 72.797157 -25.154997 -31.535875
-25.152193 -31.540892 -61.504646 64.53125 -33.05621 -45.943398 -0.099075951 -120.81335
-60.326759 83.532486 -25.1514 -31.566748 -0.097004637 -120.81377 -33.550026 -29.965075
870925000 -33.089005 -40.327488 -0.10781372 -126.97685 -24.885607 -36.246002 -60.363132 80.375763
-0.10599313 -126.95451 -32.708618 -42.337006 -60.981075 65.161156 -24.879969 -36.331448
-24.877634 -36.298576 -61.571995 58.398014 -33.048767 -49.930622 -0.10111576 -125.57781
-60.357494 75.561676 -24.879015 -36.327732 -0.099694662 -125.57382 -33.459267 -33.887268
904037500 -33.140511 -44.469162 -0.11063097 -131.78769 -24.625223 -41.019161 -60.464233 71.501854
-0.10928429 -131.76399 -32.735146 -46.098721 -60.812672 58.581783 -24.619421 -41.124493
-24.61083 -41.034027 -61.337769 49.647049 -32.987797 -53.811192 -0.10330435 -130.33524
-60.078899 71.071083 -24.614708 -41.126434 -0.10159681 -130.33028 -33.366413 -37.547207
937150000 -33.132565 -48.022083 -0.1133568 -136.60269 -24.381897 -45.808289 -60.108952 64.446884
-0.11303954 -136.58002 -32.821728 -50.090137 -60.911736 50.284389 -24.376041 -45.904015
-24.360958 -45.874741 -61.269218 43.096966 -32.957283 -57.873798 -0.10477156 -135.09232
-59.866814 62.545799 -24.370831 -45.900486 -0.10469081 -135.09377 -33.282288 -41.3064
970262500 -33.265682 -51.719883 -0.11532915 -141.41805 -24.147779 -50.55238 -60.000141 59.794735
-0.11579985 -141.39584 -32.888 -53.371567 -60.540401 43.621056 -24.140112 -50.654976
-24.121256 -50.636471 -61.321236 39.06496 -32.944477 -61.264912 -0.10625219 -139.86009
-59.959064 55.803734 -24.13566 -50.687618 -0.10600526 -139.855 -33.226902 -45.190117
1003375000 -33.323483 -54.837841 -0.11782724 -146.23143 -23.925508 -55.329655 -59.561306 50.274029
-0.11838339 -146.19745 -33.041084 -56.992416 -60.577717 37.317696 -23.918051 -55.42054
-23.901257 -55.405865 -61.367275 31.679388 -32.901264 -64.925232 -0.10932803 -144.62239
-59.559883 49.296829 -23.918148 -55.463394 -0.10810737 -144.61276 -33.198357 -49.393539
1036487500 -33.489105 -58.53524 -0.12173084 -151.03719 -23.713047 -60.099354 -59.241364 42.401756
-0.12004999 -151.00674 -33.199177 -60.30695 -60.869724 29.707434 -23.70616 -60.200455
-23.692467 -60.196957 -61.066223 24.682335 -32.937729 -68.346634 -0.11295846 -149.38438
-59.53635 42.606487 -23.708187 -60.213249 -0.11078048 -149.36806 -33.143353 -53.491001
1069600000 -33.69537 -62.255787 -0.12465121 -155.83896 -23.514978 -64.889336 -59.228405 36.729939
-0.12226997 -155.81731 -33.325939 -64.332489 -60.34734 22.034924 -23.510963 -64.986
-23.492842 -64.940498 -60.535652 16.899435 -32.966061 -72.093124 -0.11402772 -154.13951
-59.49538 36.921005 -23.510553 -65.025658 -0.1130752 -154.12912 -33.080357 -57.231976
1102712500 -33.85902 -66.167511 -0.12697183 -160.64233 -23.326231 -69.634422 -59.051506 27.780231
-0.12378554 -160.63345 -33.488567 -68.041161 -59.931061 13.939869 -23.326422 -69.785133
-23.304836 -69.71785 -60.714809 8.5476856 -32.968353 -75.951241 -0.11690819 -158.90245
-59.544632 30.984362 -23.321344 -69.796883 -0.11529675 -158.88231 -33.043941 -60.699181
1135825000 -34.031982 -69.686523 -0.12805167 -165.45395 -23.145407 -74.405205 -59.164059 18.783255
-0.12514305 -165.44896 -33.694267 -72.113548 -59.747032 3.8375142 -23.152002 -74.533325
-23.132782 -74.49485 -60.545883 1.1546267 -32.971054 -80.14296 -0.11916267 -163.64876
-59.630394 23.442085 -23.148296 -74.578514 -0.11801574 -163.63812 -33.001774 -64.073059
1168937500 -34.289856 -73.798317 -0.12898436 -170.26714 -22.976137 -79.201981 -59.091385 11.263923
-0.12825304 -170.25945 -33.9053 -75.366043 -59.627537 -4.4545217 -22.988239 -79.331398
-22.960602 -79.29631 -60.053123 -9.9120111 -33.048542 -84.443527 -0.1219791 -168.40694
-59.569519 14.35354 -22.976948 -79.342232 -0.12130639 -168.39835 -33.024025 -67.785133
1202050000 -34.617638 -77.588242 -0.13164203 -175.0735 -22.816341 -83.975906 -59.063885 2.56534
-0.12953308 -175.06439 -34.207355 -78.718796 -59.764111 -15.814063 -22.829466 -84.100761
-22.799747 -84.101517 -60.351601 -18.363831 -33.231731 -88.325188 -0.12463154 -173.16177
-59.474739 6.2001371 -22.821604 -84.126862 -0.12395389 -173.15076 -33.142017 -71.401634
1235162500 -35.004765 -81.389084 -0.13392147 -179.89008 -22.665321 -88.781494 -58.731667 -3.4768105
-0.13076128 -179.86838 -34.566772 -82.443016 -59.701382 -23.352468 -22.679319 -88.87767
-22.645983 -88.860329 -60.562805 -29.58696 -33.416885 -91.894341 -0.12600508 -177.91911
-59.447651 -2.3784397 -22.669014 -88.904465 -0.12637939 -177.90672 -33.234787 -75.473137
1268275000 -35.41943 -85.581749 -0.13526954 175.30005 -22.522652 -93.57811 -59.010967 -10.623508
-0.13393301 175.32462 -34.938236 -86.309898 -59.649261 -32.797436 -22.534569 -93.660866
-22.506355 -93.618874 -60.092415 -37.13628 -33.565289 -95.474663 -0.12864548 177.33258
-59.135006 -10.167889 -22.527174 -93.692001 -0.12854163 177.3382 -33.423256 -79.534676
1301387500 -35.907291 -90.050034 -0.1379578 170.5023 -22.386547 -98.313889 -58.862064 -18.584223
-0.13651012 170.50529 -35.519787 -89.729538 -59.766056 -45.567375 -22.402845 -98.478706
-22.371231 -98.379219 -60.091629 -47.047497 -33.871056 -99.580238 -0.12982497 172.57523
-58.789543 -18.827187 -22.394043 -98.462082 -0.1316101 172.58133 -33.545002 -83.899406
1334500000 -36.405437 -94.270103 -0.13925889 165.69583 -22.256714 -103.09326 -59.240284 -26.536798
-0.1392495 165.69867 -36.041897 -92.857399 -59.664032 -55.328983 -22.276173 -103.24043
-22.24333 -103.1647 -60.325905 -58.195759 -34.13942 -103.18964 -0.13085021 167.82565
-58.684853 -28.84445 -22.264088 -103.27938 -0.13332082 167.82724 -33.786804 -87.671974
1367612500 -36.946117 -98.825874 -0.14109696 160.89748 -22.137051 -107.85383 -59.126244 -36.256638
-0.14139892 160.89142 -36.629986 -94.464722 -60.187443 -66.17308 -22.151499 -108.0478
-22.124214 -107.93993 -60.419189 -65.912224 -34.385925 -107.18635 -0.13377047 163.07228
-58.738701 -37.105957 -22.143278 -108.03636 -0.13575642 163.07527 -34.075241 -92.556343
1400725000 -37.669411 -102.76379 -0.14379689 156.09467 -22.017738 -112.65199 -59.389187 -43.014645
-0.14501037 156.08299 -37.174458 -96.248978 -60.571705 -73.668404 -22.03986 -112.84366
-22.008116 -112.71875 -60.46841 -73.661316 -34.704674 -110.97715 -0.13511907 158.31529
-58.358913 -46.426708 -22.03157 -112.8203 -0.13724038 158.31866 -34.286999 -96.589104
1433837500 -38.362915 -106.34834 -0.14643732 151.29434 -21.916548 -117.43015 -59.525543 -50.290237
-0.14779587 151.28369 -37.793251 -98.07737 -60.710648 -81.224564 -21.928867 -117.64085
-21.899385 -117.47841 -60.450577 -82.192131 -35.119637 -114.80811 -0.13714987 153.55458
-58.334663 -54.049332 -21.923315 -117.60136 -0.13852964 153.56311 -34.618614 -101.01831
1466950000 -39.030781 -110.18166 -0.14931057 146.48949 -21.810574 -122.19872 -59.196865 -59.005737
-0.1492869 146.46588 -38.563587 -99.952332 -61.171463 -89.415634 -21.828659 -122.40879
-21.803127 -122.24187 -60.422096 -89.4123 -35.484104 -118.70898 -0.13905536 148.79617
-58.315235 -61.624767 -21.823545 -122.40172 -0.13966772 148.81119 -34.978733 -105.21058
1500062500 -39.781559 -113.21693 -0.15133646 141.68835 -21.717989 -126.96716 -58.98048 -65.510696
-0.15114661 141.64758 -39.374775 -101.47958 -61.185043 -95.916565 -21.732882 -127.22379
-21.707222 -127.01458 -60.396595 -95.484055 -35.895241 -122.61014 -0.14005756 144.03841
-58.517414 -66.990547 -21.727175 -127.19514 -0.14232285 144.0598 -35.334118 -109.67342
1533175000 -40.72644 -116.53065 -0.15338421 136.88724 -21.628174 -131.73471 -59.002129 -74.596344
-0.15427564 136.83699 -40.100163 -101.58758 -61.600037 -105.85581 -21.641481 -132.01797
-21.622793 -131.79205 -60.424381 -101.60439 -36.278038 -126.9052 -0.14327013 139.27936
-58.907494 -74.899261 -21.639019 -131.9726 -0.14393401 139.30194 -35.827251 -114.05419
1566287500 -41.921429 -121.18633 -0.15619364 132.08147 -21.543158 -136.51736 -58.744152 -84.536133
-0.15560067 132.0274 -40.974117 -101.16116 -61.890537 -114.34499 -21.558752 -136.79843
-21.539112 -136.59422 -60.712597 -110.8303 -36.802135 -130.65421 -0.14499944 134.52319
-58.960266 -84.203339 -21.55583 -136.74536 -0.14625725 134.54823 -36.226635 -118.67552
1599400000 -43.159142 -126.38525 -0.15808934 127.26894 -21.46294 -141.32295 -58.749008 -93.506813
-0.15711905 127.23007 -41.505569 -99.770142 -62.319233 -119.948 -21.476429 -141.57135
-21.457314 -141.34735 -60.975964 -119.58137 -37.243858 -133.83243 -0.14657561 129.77345
-59.309875 -92.345116 -21.479362 -141.53023 -0.14779203 129.78943 -36.76004 -122.67126
1632512500 -45.017044 -126.40119 -0.16022155 122.46099 -21.392416 -146.11446 -58.17979 -101.34383
-0.15950218 122.428 -42.211433 -95.660721 -62.043545 -129.33054 -21.404375 -146.36594
-21.385538 -146.11803 -61.04781 -128.23531 -37.631432 -137.82809 -0.14932337 125.01702
-59.593826 -98.163658 -21.406578 -146.29231 -0.15004323 125.03279 -37.332577 -127.14351
1665625000 -46.796398 -121.74525 -0.16246967 117.64273 -21.322628 -150.90259 -58.317612 -108.6283
-0.16268729 117.62523 -42.811085 -91.841606 -61.749222 -137.70865 -21.342514 -151.1261
-21.317051 -150.91777 -61.25412 -137.11992 -38.20462 -140.71252 -0.15097293 120.26515
-59.537357 -105.91104 -21.341906 -151.09872 -0.15207249 120.2763 -37.91758 -131.35321
1698737500 -48.524971 -103.69142 -0.16444519 112.82659 -21.263006 -155.67799 -58.241089 -117.63133
-0.16361256 112.82637 -43.215336 -87.091362 -61.74752 -151.33542 -21.27796 -155.87129
-21.254351 -155.67445 -61.047886 -149.68658 -38.859207 -143.43947 -0.15289965 115.5181
-59.427158 -114.95161 -21.275415 -155.88472 -0.15511571 115.52516 -38.614681 -135.96735
1731850000 -49.860657 -96.057999 -0.1673816 108.02546 -21.205799 -160.44313 -58.33585 -125.05878
-0.164629 108.02052 -43.6329 -82.388145 -61.807011 -161.6812 -21.222546 -160.64948
-21.195972 -160.48058 -61.101707 -158.84067 -39.556694 -145.78946 -0.15511319 110.76131
-59.547203 -122.17322 -21.215111 -160.66312 -0.15790558 110.77578 -39.356567 -140.54457
1764962500 -50.948086 -84.049194 -0.16807504 103.22272 -21.154125 -165.2182 -58.420097 -133.37495
-0.16586708 103.22942 -43.591896 -78.070229 -61.514221 -171.43279 -21.169006 -165.42516
