! MARKI MICROWAVE INC.
! Email:             	info@markimicrowave.com   				Phone:   408-778-4200
! Model Number:      	CA-18							Date:    08/13
! Filename:		CA_18.S4P						Version: 1.0
! Description:       	4-port S-parameter data for Directional Coupler CA-18
! Frequency Range: 	10 MHz to 18 GHz		
! Port Configuration:	PORT 1: Input, PORT 2: Output Port 3: Coupled and Port 4: Isolated


! S3P File: Measurements: Mag<S11> Ang<S11> Mag<S12> Ang<S12> Mag<S13> Ang<S13> Mag<S14> Ang<S14>! row 1 
!			  Mag<S21> Ang<S21> Mag<S22> Ang<S22> Mag<S23> Ang<S23> Mag<S24> Ang<S24>! row 2 
!			  Mag<S31> Ang<S31> Mag<S32> Ang<S32> Mag<S33> Ang<S33> Mag<S34> Ang<S34>! row 3 
!			  Mag<S41> Ang<S41> Mag<S42> Ang<S42> Mag<S43> Ang<S43> Mag<S44> Ang<S44>! row 4
# Hz S  dB   R 50
10000000 -44.263657 27.333389 -0.03211692 -6.1952767 -71.024437 159.74689 -80.060463 64.257729
-0.028139297 -6.4217224 -45.720867 19.076332 -86.498131 -71.28923 -81.414864 -9.0975018
-81.723 88.569016 -81.571983 -6.1464744 -44.069397 -11.200074 -0.027902411 -6.8683591
-90.21312 -134.39929 -77.207527 51.44825 -0.034060672 -6.7745657 -43.821896 -8.2964973
32487500 -44.316093 22.150517 -0.033634178 -8.441865 -71.032997 142.45654 -81.784615 67.318581
-0.030332537 -8.6289024 -45.906918 14.696239 -88.344994 -45.117302 -79.899078 7.3078876
-79.727081 86.619751 -83.350098 46.540897 -44.55233 -8.5551291 -0.030409038 -9.2853022
-91.491135 -120.22549 -76.049408 55.82476 -0.035231009 -9.2110777 -44.077972 -8.4945536
54975000 -44.429832 14.704618 -0.035708502 -11.131224 -70.89962 123.95094 -83.039322 61.566952
-0.033308212 -11.279315 -46.003025 8.919816 -88.376442 -21.753483 -78.229973 22.729136
-77.530807 84.169365 -85.784119 91.154953 -44.97216 -8.4112921 -0.033616785 -12.184441
-91.592743 -91.657578 -74.726486 59.440281 -0.036950964 -12.13166 -44.315228 -9.7149572
77462500 -44.433601 7.6528087 -0.037936259 -14.2679 -70.617325 105.09361 -85.399712 66.455704
-0.036384739 -14.37768 -46.180241 1.8381937 -88.559494 5.3852491 -76.458839 37.430508
-75.161598 81.347504 -87.923599 151.15178 -45.281498 -7.2857614 -0.037090406 -15.569606
-91.968742 -64.635887 -73.32502 62.697865 -0.038895931 -15.536491 -44.493176 -12.775274
99950000 -44.515331 -0.1857364 -0.040702295 -17.850126 -70.24321 85.521095 -87.240959 62.251743
-0.039953459 -17.920307 -46.202061 -5.6394458 -88.983566 26.040775 -74.556656 52.65242
-72.728661 77.865311 -89.312668 -145.47174 -45.377861 -7.5740223 -0.040918075 -19.437943
-91.475296 -33.179588 -71.786453 65.315575 -0.041338593 -19.424433 -44.872826 -15.841232
122437500 -44.478313 -8.2034912 -0.043562975 -21.877728 -69.730118 65.784935 -88.197739 70.595276
-0.043653641 -21.910717 -46.289852 -13.264913 -89.360359 42.202438 -72.501511 66.811188
-70.189049 73.471985 -90.659668 -85.07634 -45.481983 -8.810339 -0.044816319 -23.793152
-91.717026 1.5336494 -70.156601 67.048645 -0.043719277 -23.798685 -45.175262 -18.384165
144925000 -43.896721 -13.011096 -0.047047082 -25.895607 -67.801476 65.831871 -89.113625 59.884735
-0.047145661 -25.928156 -45.417542 -17.199114 -89.037628 21.04855 -68.841286 64.358704
-68.081734 63.558449 -89.779007 -39.699924 -44.928097 -16.923948 -0.04919688 -28.164686
-90.569946 17.738548 -68.160774 61.896294 -0.047581006 -28.16556 -44.884537 -25.355545
167412500 -43.64687 -20.189875 -0.050509095 -29.91206 -66.106194 59.280079 -89.850983 42.434998
-0.050618835 -29.94206 -45.145393 -22.283445 -88.441437 -10.4154 -66.440224 58.597607
-66.174316 58.034416 -89.280174 -11.45626 -44.103466 -24.504349 -0.052746218 -32.524746
-89.573776 38.41769 -66.399483 56.646805 -0.05108621 -32.521332 -45.092899 -31.827278
189900000 -43.218616 -25.590942 -0.053938325 -33.926933 -65.099136 54.161869 -88.705017 41.820995
-0.053901963 -33.955505 -44.755867 -25.863993 -88.480141 -53.890465 -65.197372 53.637768
-65.238808 55.417606 -89.066643 25.187746 -43.304001 -34.190041 -0.056285612 -36.885872
-88.23806 47.856583 -65.121223 53.284016 -0.054408222 -36.879742 -44.858826 -40.724125
212387500 -42.89106 -31.435287 -0.056962688 -37.943443 -64.049263 49.906494 -88.964378 37.676826
-0.056687322 -37.968967 -44.56427 -30.583559 -88.193405 -93.978439 -64.047394 50.434303
-64.028511 50.97345 -88.124588 44.912674 -42.571884 -43.554489 -0.059003744 -41.248524
-87.310699 48.504803 -64.086708 49.326508 -0.057293158 -41.23988 -44.668507 -49.722488
234875000 -42.685871 -38.002113 -0.060111132 -41.953861 -63.110279 45.392189 -89.199493 31.795378
-0.059970651 -41.978889 -44.309067 -35.582317 -86.542587 -134.64883 -63.104183 45.753063
-63.110706 46.289936 -88.145889 40.968506 -42.082748 -54.399647 -0.062183119 -45.605461
-86.197853 37.945595 -63.152214 44.714348 -0.060555387 -45.596703 -44.263268 -58.734314
257362500 -42.546253 -42.491009 -0.063297331 -45.968948 -62.249512 41.214111 -89.266556 42.980228
-0.062614433 -45.991817 -44.09877 -40.00436 -86.106567 178.73907 -62.294079 41.795517
-62.287483 41.856853 -86.863831 50.032925 -41.879383 -63.043495 -0.064938083 -49.963974
-85.306168 31.407539 -62.362682 40.412899 -0.063639648 -49.954475 -43.89827 -65.955589
279850000 -42.465885 -48.152477 -0.0664744 -49.978081 -61.501907 37.38184 -88.21064 41.195538
-0.065756053 -50.000393 -43.838169 -44.387459 -85.570351 126.98022 -61.524246 38.14204
-61.607109 37.262707 -85.545753 44.212013 -41.751736 -72.487831 -0.067937836 -54.317532
-84.990776 22.927599 -61.5541 36.535667 -0.066345081 -54.307819 -43.681465 -71.84938
302337500 -42.448421 -54.643963 -0.069140278 -53.985844 -60.806339 33.542068 -88.238388 45.962063
-0.068519041 -54.005894 -43.721596 -49.411304 -84.415947 86.789604 -60.797745 33.600292
-60.935062 32.817886 -85.514122 28.495975 -41.819214 -81.529999 -0.070808947 -58.671482
-85.588234 9.7226067 -60.888268 32.461964 -0.069122747 -58.662228 -43.367916 -78.906227
324825000 -42.485752 -61.674053 -0.072547123 -57.992222 -60.156639 29.599861 -88.223251 37.92432
-0.071554691 -58.013088 -43.471466 -55.147079 -83.653206 44.329906 -60.168934 29.30369
-60.316387 29.041685 -85.33017 20.929102 -41.806347 -89.83741 -0.07422141 -63.020496
-85.12809 -8.5143776 -60.21896 28.520851 -0.072451033 -63.011673 -43.176167 -87.48481
347312500 -42.409214 -69.099739 -0.075691782 -61.999519 -59.640388 25.364235 -87.114288 27.200193
-0.074777909 -62.018501 -43.206596 -61.195694 -83.092918 22.139774 -59.589119 25.776329
-59.701817 25.151255 -84.048897 16.172468 -41.851017 -97.396156 -0.076818965 -67.366081
-85.14801 -10.605371 -59.56477 24.174541 -0.075727768 -67.362007 -42.773682 -95.050682
369800000 -42.373672 -76.555977 -0.078742653 -66.002678 -59.081047 20.678476 -86.306076 31.018656
-0.07776124 -66.020447 -43.153805 -68.950478 -83.245041 15.10025 -59.036858 20.985567
-59.134796 21.628584 -83.191856 15.815514 -41.818428 -104.62148 -0.080127038 -71.713623
-84.926971 -15.510268 -59.031784 20.52231 -0.078819156 -71.710533 -42.29438 -101.8902
392287500 -42.351776 -84.740234 -0.082107678 -70.004295 -58.454269 16.843164 -86.029686 14.440524
-0.080779515 -70.022949 -43.030998 -77.086487 -82.112587 12.446579 -58.529037 16.806692
-58.62318 16.598013 -82.900978 5.9251466 -41.773266 -111.60492 -0.083113037 -76.0606
-85.296967 -19.561228 -58.541885 16.163879 -0.082212545 -76.055138 -42.20097 -108.96216
414775000 -42.443962 -93.320778 -0.084491193 -74.004875 -57.990643 12.622942 -84.879784 19.462496
-0.083443262 -74.024429 -42.915234 -85.835442 -82.929108 11.302744 -58.070339 12.01369
-58.1418 11.99739 -83.930206 0.38152242 -41.580238 -118.11774 -0.086184002 -80.404678
-84.661865 -19.647778 -58.106251 12.365919 -0.084921941 -80.399437 -42.174801 -116.50542
437262500 -42.342575 -102.13699 -0.087110937 -78.00663 -57.539032 8.3654642 -84.42498 14.519116
-0.086202756 -78.025322 -42.7295 -95.81179 -81.892403 -0.44507402 -57.617977 7.9458418
-57.658421 8.1483936 -83.752014 1.913146 -41.243744 -124.59186 -0.088821225 -84.748917
-83.183792 -0.80378085 -57.651154 8.6542587 -0.087453119 -84.744873 -42.113659 -125.30839
459750000 -42.125374 -112.12332 -0.089448221 -82.005463 -57.1138 4.2072983 -83.458488 3.0581393
-0.088983126 -82.023697 -42.545898 -106.1048 -81.992088 -7.337657 -57.167252 3.7889967
-57.244465 3.9385488 -83.165131 -1.8137717 -40.617149 -131.85815 -0.09148816 -89.091164
-83.36422 -6.8417902 -57.17905 4.4625912 -0.09012115 -89.088615 -41.8881 -135.76268
482237500 -41.892658 -121.98808 -0.091904461 -86.006737 -56.687008 -0.15842541 -82.66745 -7.9472828
-0.091325663 -86.025375 -42.237785 -115.85019 -81.809456 -12.50069 -56.717731 -0.50911099
-56.818581 -0.1407924 -83.033073 -4.3732662 -39.893726 -140.03528 -0.093939394 -93.436501
-82.21994 -9.5028324 -56.772232 -0.080351353 -0.093370087 -93.435806 -41.453617 -146.375
504725000 -41.40324 -131.04832 -0.094655208 -90.00869 -56.273418 -4.4403811 -81.50161 -18.446344
-0.09402775 -90.029411 -41.904659 -125.75218 -81.573898 -21.111496 -56.341377 -4.6489711
-56.381927 -4.244832 -82.244385 -5.6176538 -39.197777 -148.11464 -0.096545644 -97.779449
-81.414398 -8.6802378 -56.334362 -4.2879653 -0.096137881 -97.780937 -40.837532 -156.79053
527212500 -40.9795 -140.50743 -0.09675049 -94.010948 -55.92458 -8.8638821 -81.066833 -25.448042
-0.096400551 -94.029213 -41.513409 -135.53278 -81.344894 -23.559912 -55.969536 -8.5142813
-55.993889 -8.4555054 -81.446701 -12.744893 -38.439617 -156.56601 -0.098552302 -102.12391
-81.268806 -8.6847553 -55.954536 -8.1279554 -0.098792195 -102.12663 -40.103279 -166.96475
549700000 -40.543213 -149.528 -0.098859757 -98.010567 -55.522621 -13.182126 -80.590889 -31.557251
-0.098219819 -98.030479 -41.144463 -145.43451 -80.908585 -28.870718 -55.594574 -12.648091
-55.62859 -12.653328 -82.253998 -14.313956 -37.806198 -165.65735 -0.10054789 -106.46932
-81.007599 -25.467272 -55.608994 -12.22511 -0.10086815 -106.46767 -39.369087 -176.85811
572187500 -40.07954 -157.9944 -0.10093366 -102.00996 -55.169022 -17.439144 -80.627731 -38.293236
-0.10038146 -102.03077 -40.512188 -154.73633 -80.234917 -32.755215 -55.245346 -16.663157
-55.256691 -17.125191 -82.000824 -19.878059 -37.103012 -174.55254 -0.10227317 -110.81382
-80.824219 -34.407547 -55.244629 -16.508095 -0.10281318 -110.81043 -38.615887 174.17097
594675000 -39.475822 -165.61659 -0.1030189 -106.0117 -54.8619 -21.60253 -80.786484 -41.81789
-0.10274334 -106.03118 -39.884335 -163.74118 -80.766342 -35.8927 -54.930447 -20.723335
-54.935459 -21.043648 -81.678406 -25.732624 -36.460499 177.35143 -0.10468343 -115.15826
-79.818016 -37.619629 -54.897881 -20.884232 -0.10503726 -115.15566 -37.646713 166.83308
617162500 -38.742718 -173.27359 -0.10552415 -110.01143 -54.521854 -25.836187 -80.535187 -47.209045
-0.10530274 -110.03336 -39.250416 -172.54973 -78.94117 -43.602688 -54.626289 -24.760969
-54.607605 -25.178091 -79.939758 -34.855785 -35.790226 169.55574 -0.10701733 -119.50103
-79.361946 -44.557705 -54.55827 -25.256714 -0.10737117 -119.5017 -36.759193 159.97937
639650000 -38.197021 179.04555 -0.10782804 -114.01031 -54.21492 -30.098261 -79.827744 -52.191845
-0.10706905 -114.03391 -38.600555 179.36267 -78.917336 -52.88718 -54.312313 -28.931841
-54.29277 -29.397152 -78.519463 -42.918503 -35.187752 161.95013 -0.10931683 -123.84572
-79.309967 -55.512039 -54.251091 -29.601097 -0.10939714 -123.84722 -35.960854 153.79216
662137500 -37.532009 172.40982 -0.11025126 -118.00962 -53.909771 -34.036194 -80.324417 -58.164082
-0.10923105 -118.03525 -37.921951 171.64381 -78.414917 -54.968746 -54.021709 -33.209457
-53.980457 -33.467365 -78.258995 -51.947029 -34.583424 154.92024 -0.11151941 -128.19086
-78.870232 -59.312263 -53.946907 -33.443459 -0.11134078 -128.19067 -35.215588 147.94795
684625000 -36.877621 165.52919 -0.11257152 -122.00901 -53.641224 -38.128365 -80.616318 -64.890205
-0.11179788 -122.03393 -37.229595 164.16859 -78.205643 -59.174881 -53.743195 -37.284813
-53.686119 -37.59798 -78.17617 -63.277119 -34.041424 148.15558 -0.11385611 -132.53401
-78.743454 -63.92049 -53.659611 -37.640553 -0.11307775 -132.53503 -34.535507 142.00951
707112500 -36.300228 159.05534 -0.11457075 -126.00816 -53.352875 -42.156158 -80.137718 -68.523178
-0.11378245 -126.03363 -36.572578 157.15916 -78.182716 -65.672394 -53.449165 -41.635288
-53.411987 -41.694622 -78.259674 -67.243225 -33.470913 141.59795 -0.11574238 -136.87964
-78.32972 -73.424728 -53.36676 -41.72467 -0.11482577 -136.87907 -33.873417 136.44164
729600000 -35.681202 153.13393 -0.11685165 -130.007 -53.06567 -46.023571 -79.821724 -75.736122
-0.11610173 -130.03217 -35.935547 150.4223 -77.769501 -70.125511 -53.166004 -45.968693
-53.138378 -45.821545 -78.402878 -71.613541 -32.978493 135.11873 -0.11836457 -141.22142
-77.410744 -81.046753 -53.109634 -45.952045 -0.11614083 -141.22333 -33.243961 131.13487
752087500 -35.10648 147.50735 -0.11884494 -134.00626 -52.811718 -50.142265 -79.510735 -83.296112
-0.11810823 -134.03101 -35.359188 143.99596 -77.560188 -75.841942 -52.915382 -50.374046
-52.887589 -49.903755 -77.438553 -78.515083 -32.475903 129.45319 -0.12063825 -145.56607
-77.329102 -85.753311 -52.867184 -50.022038 -0.11783133 -145.56953 -32.654724 125.90738
774575000 -34.565838 141.80276 -0.12085608 -138.00404 -52.581417 -54.07618 -79.44664 -90.17955
-0.12034198 -138.03064 -34.762959 138.01413 -77.622948 -82.351898 -52.653965 -54.612835
-52.653046 -53.874428 -77.170113 -86.730492 -31.971022 124.08345 -0.12296154 -149.90712
-76.985397 -89.499283 -52.634239 -54.169186 -0.12028518 -149.91376 -32.104904 120.57593
797062500 -34.098545 135.79614 -0.12272425 -142.00124 -52.347137 -58.14909 -78.942894 -95.790306
-0.1224685 -142.02808 -34.185947 132.04053 -76.743004 -93.16687 -52.413174 -58.773376
-52.403652 -57.862015 -76.896721 -90.94368 -31.527712 118.38349 -0.12476466 -154.24576
-77.362503 -95.095558 -52.37505 -58.269192 -0.12200807 -154.25594 -31.663029 114.8496
819550000 -33.583496 130.40741 -0.12522139 -145.99905 -52.12109 -62.307133 -78.736771 -102.37293
-0.12475118 -146.02367 -33.568802 126.59544 -76.712013 -99.669136 -52.156025 -63.00758
-52.176517 -62.058765 -76.574913 -94.849457 -31.098806 113.04874 -0.12729123 -158.58495
-77.11911 -103.33294 -52.124001 -62.504078 -0.12423036 -158.59531 -31.197966 109.36905
842037500 -33.079918 125.14251 -0.12714398 -149.99559 -51.885296 -66.364998 -78.116646 -108.41331
-0.12736109 -150.01949 -33.018356 121.28057 -76.764336 -103.20245 -51.938812 -67.085083
-51.929405 -66.267242 -76.445251 -100.47061 -30.712204 108.04121 -0.12964864 -162.92285
-77.172226 -107.94919 -51.910515 -66.786087 -0.12644243 -162.93481 -30.756824 104.01615
864525000 -32.625629 119.80968 -0.12888679 -153.98967 -51.681179 -70.579224 -77.325356 -113.38142
-0.12931503 -154.01396 -32.499302 116.04894 -76.307251 -111.67257 -51.678249 -71.160645
-51.705349 -70.494812 -76.336487 -104.89499 -30.357296 102.85305 -0.13173959 -167.26141
-76.859398 -114.14892 -51.695118 -70.983398 -0.12851629 -167.27354 -30.364733 98.773895
887012500 -32.189854 114.84496 -0.1308383 -157.9827 -51.43919 -74.802498 -76.521675 -117.54957
-0.13083081 -158.00737 -32.052025 110.70096 -76.069061 -118.69543 -51.454517 -75.338432
-51.484787 -74.630569 -75.834763 -108.54173 -30.043135 97.665726 -0.13358095 -171.59744
-76.66687 -119.58109 -51.475533 -75.03643 -0.13086234 -171.60785 -29.978464 93.817131
909500000 -31.772287 109.57645 -0.13273381 -161.97368 -51.205006 -78.81205 -76.417969 -121.18141
-0.13280161 -161.99962 -31.542719 105.85352 -75.849892 -123.74896 -51.243332 -79.485664
-51.292702 -78.720924 -75.63662 -115.83706 -29.697058 92.764023 -0.13556661 -175.93079
-76.330757 -123.67668 -51.26889 -79.188766 -0.13303348 -175.94298 -29.641241 88.744217
931987500 -31.361176 104.28384 -0.13428099 -165.96265 -50.995571 -83.041367 -76.362061 -128.27065
-0.13462925 -165.98898 -31.097094 100.89182 -75.828194 -132.85085 -51.048203 -83.573021
-51.07143 -82.955765 -75.459938 -124.55469 -29.39089 87.636009 -0.13654888 179.73232
-76.142563 -128.02759 -51.043201 -83.292839 -0.13529977 179.72429 -29.316719 83.588173
954475000 -30.941542 99.152458 -0.13624896 -169.95247 -50.792938 -87.359543 -76.31768 -132.42659
-0.13640195 -169.97818 -30.641594 96.227257 -75.496933 -139.76561 -50.849285 -87.540558
-50.866688 -87.192131 -75.242897 -131.49979 -29.078217 82.670784 -0.13850527 175.40022
-75.808975 -134.06682 -50.816753 -87.569443 -0.13689019 175.39308 -28.96669 78.483864
976962500 -30.531683 94.096481 -0.13815337 -173.94339 -50.588108 -91.455177 -75.87442 -138.90616
-0.13804109 -173.9675 -30.218166 91.560272 -75.444992 -143.6617 -50.638493 -91.726761
-50.662945 -91.380394 -75.090317 -137.39305 -28.773954 77.857124 -0.14016373 171.06531
-75.425835 -139.12175 -50.621254 -91.629578 -0.13829567 171.06165 -28.635529 73.507736
999450000 -30.149612 88.979843 -0.13953193 -177.93214 -50.375145 -95.650307 -75.624847 -147.15872
-0.13886552 -177.95601 -29.830723 86.726624 -75.426544 -147.29729 -50.451626 -95.858116
-50.473019 -95.614799 -75.066849 -144.29562 -28.475658 73.0336 -0.14183193 166.73253
-75.005745 -146.44759 -50.420586 -95.775101 -0.13959321 166.73051 -28.293003 68.754501
1021937500 -29.824755 84.197655 -0.14052464 178.08069 -50.184746 -99.914017 -75.630379 -153.33672
-0.13992634 178.05496 -29.466028 82.06694 -75.337402 -152.99002 -50.275284 -100.01788
-50.259064 -99.700867 -75.271164 -150.56169 -28.196796 68.086967 -0.1427103 162.39963
-75.137047 -150.04735 -50.234982 -99.916977 -0.1410764 162.39917 -28.000299 64.084274
1044425000 -29.494545 79.590942 -0.1422198 174.09312 -50.005917 -104.10715 -75.265022 -158.40913
-0.14085284 174.06683 -29.109098 77.415672 -75.007835 -158.96541 -50.076935 -104.20293
-50.082336 -103.90817 -75.325325 -156.53593 -27.920017 63.073021 -0.14359586 158.06778
-75.177467 -156.76212 -50.032879 -104.07278 -0.14244163 158.0692 -27.721098 59.582241
1066912500 -29.195513 74.708275 -0.14321969 170.10559 -49.817581 -108.16222 -75.223381 -165.76137
-0.14185032 170.07948 -28.769463 72.94371 -75.127846 -162.52782 -49.903149 -108.36801
-49.900509 -108.0256 -75.10701 -162.82584 -27.66025 58.252155 -0.14456628 153.73801
-75.007759 -163.00771 -49.849987 -108.22868 -0.14354904 153.73875 -27.45859 54.918652
1089400000 -28.915596 69.982269 -0.14379254 166.1165 -49.632942 -112.27292 -75.176399 -173.30197
-0.14252381 166.09053 -28.449041 68.720802 -74.661835 -167.56355 -49.722065 -112.54996
-49.712997 -112.23538 -75.092911 -170.91878 -27.414564 53.508099 -0.14526454 149.40569
-74.82032 -170.58762 -49.672302 -112.3186 -0.14383119 149.40536 -27.246893 50.18087
1111887500 -28.629335 65.699463 -0.14494617 162.12572 -49.480492 -116.49422 -74.900459 178.69087
-0.14374584 162.1022 -28.135571 64.377594 -74.510956 -174.82671 -49.534527 -116.72415
-49.530788 -116.40593 -74.56897 -177.1207 -27.195707 48.776035 -0.14625852 145.07382
-74.651054 -176.92917 -49.496132 -116.50214 -0.14473228 145.07256 -27.009136 45.793804
1134375000 -28.344793 61.518757 -0.14615041 158.13255 -49.312405 -120.76408 -74.78315 173.03441
-0.1444777 158.11008 -27.873978 59.923435 -74.46183 -179.78755 -49.365185 -120.84957
-49.367085 -120.55053 -74.181915 178.65303 -27.000818 44.069843 -0.14766528 140.74231
-74.778381 175.97705 -49.316898 -120.68771 -0.14532907 140.73773 -26.792372 41.536575
1156862500 -28.099342 56.982647 -0.14687844 154.14177 -49.140739 -124.90803 -74.560913 165.55812
-0.1454175 154.11852 -27.597984 55.662331 -74.428795 175.52573 -49.196476 -125.04198
-49.204247 -124.72527 -73.986115 172.98813 -26.815836 39.394173 -0.14839043 136.40858
-74.78804 170.60526 -49.161076 -124.85201 -0.14624508 136.40472 -26.622999 37.122097
1179350000 -27.899147 52.545902 -0.14759584 150.15115 -48.98711 -129.05537 -74.217484 158.28766
-0.14600115 150.12804 -27.349691 51.384274 -74.412109 168.17374 -49.03363 -129.23198
-49.050583 -128.94206 -74.216713 166.31891 -26.677782 34.688576 -0.14907254 132.07469
-74.655807 164.51912 -48.98613 -129.04706 -0.14694028 132.07207 -26.482069 32.585018
1201837500 -27.687424 48.338184 -0.14868128 146.16042 -48.83934 -133.18057 -74.18203 154.78726
-0.14750221 146.13821 -27.104931 47.373322 -74.34198 162.2446 -48.856071 -133.36026
