! MARKI MICROWAVE INC.
! Email:             	info@markimicrowave.com   				Phone:   408-778-4200
! Model Number:      	CA-26						Date:    10/12
! Filename:		CA_26.S4P						Version: 1.0
! Description:       	4-port S-parameter data for Airline Coupler CA-26
! Frequency Range: 	10 MHz to 26.5 GHz		
! Port Configuration:	PORT 1: Input 
!			PORT 2: Output 
!			Port 3: Coupled 	
!			Port 4: Isolated

! S4P File: Measurements: Mag<S11> Ang<S11> Mag<S12> Ang<S12> Mag<S13> Ang<S13> Mag<S14> Ang<S14>! row 1 
!			  Mag<S21> Ang<S21> Mag<S22> Ang<S22> Mag<S23> Ang<S23> Mag<S24> Ang<S24>! row 2 
!			  Mag<S31> Ang<S31> Mag<S32> Ang<S32> Mag<S33> Ang<S33> Mag<S34> Ang<S34>! row 3 
!			  Mag<S41> Ang<S41> Mag<S42> Ang<S42> Mag<S43> Ang<S43> Mag<S44> Ang<S44>! row 4

# Hz S  dB   R 50
10000000 -42.813759 70.101868 -0.022422774 -2.6320977 -78.409698 -166.95531 -74.94339 17.26951
-0.019643452 -2.8561397 -44.148602 59.613941 -75.468803 -89.024246 -72.387619 72.462387
-73.542908 69.256721 -76.386932 4.8740015 -49.299454 -10.935469 -0.021392642 -3.3906264
-72.27932 -34.113689 -69.094521 161.92947 -0.027760657 -3.2928376 -46.724525 7.4096222
26556250 -43.305569 66.993744 -0.022778401 -3.1484518 -77.286385 -178.71796 -75.759995 18.98823
-0.020221677 -3.3478534 -44.684952 56.753525 -75.843437 -91.048531 -72.010345 72.870438
-72.969994 70.057938 -76.999557 -2.4975426 -48.979488 -4.4147716 -0.022499636 -4.034091
-73.628685 -7.1498528 -69.008232 152.38403 -0.027973551 -3.9473717 -46.652756 10.960974
43112500 -43.788696 63.436245 -0.023101715 -3.7211695 -76.140717 168.70261 -77.116623 19.286301
-0.020726165 -3.8966124 -45.261772 54.411636 -76.775208 -98.799835 -71.52037 73.307266
-72.314537 69.908653 -78.251266 0.66488528 -48.612862 1.7098151 -0.023448613 -4.7488885
-74.927002 9.8999214 -68.830887 143.07292 -0.028399732 -4.6726675 -46.577579 14.645185
59668750 -44.362347 60.172279 -0.023467632 -4.3501749 -74.976753 156.4799 -77.914993 29.34487
-0.021406651 -4.5018539 -45.665932 52.193027 -77.803688 -97.642639 -70.982948 73.168732
-71.631126 70.747169 -78.723656 -0.12341398 -48.233242 8.0901909 -0.024500836 -5.535243
-76.459671 24.679411 -68.646835 133.49203 -0.028688133 -5.4706378 -46.454269 18.706957
76225000 -44.78767 57.304714 -0.023753719 -5.0357542 -73.637947 144.47884 -78.907326 33.867157
-0.022071579 -5.1644502 -46.094234 49.845543 -78.327904 -97.140297 -70.632751 74.109528
-70.856506 71.421921 -79.212067 -7.202847 -47.83939 14.610716 -0.025436254 -6.3949256
-77.26548 45.134491 -68.424881 123.58573 -0.029173827 -6.3392844 -46.255573 22.725494
92781250 -45.189812 54.046265 -0.024154702 -5.7787476 -72.295982 132.09189 -80.059959 43.255703
-0.022889569 -5.8842368 -46.476765 47.85553 -78.997917 -92.670616 -70.10463 74.026451
-70.08493 71.732338 -81.053596 -19.369497 -47.379265 20.94747 -0.026614815 -7.3255248
-78.644493 60.84267 -68.118393 114.15333 -0.029660026 -7.2819963 -46.042217 26.737167
109337500 -45.656353 50.874424 -0.024748214 -6.5783801 -70.999588 119.60928 -80.549179 57.458263
-0.023590896 -6.6605182 -46.813313 45.618229 -79.995598 -97.027985 -69.541489 74.008026
-69.262917 71.737411 -82.197853 -40.857193 -46.932728 27.354815 -0.02782345 -8.3269625
-80.292358 85.456955 -67.741653 103.91064 -0.03016142 -8.2958231 -45.810863 30.83522
125893750 -46.040092 47.984291 -0.025226589 -7.4355259 -69.682655 107.66835 -80.960686 67.817635
-0.024167355 -7.4923983 -47.097534 43.346134 -80.354584 -99.269798 -68.964279 73.843765
-68.575966 71.740303 -83.00309 -57.640583 -46.424931 33.684006 -0.029060349 -9.4009886
-81.148453 111.99 -67.35228 93.800201 -0.030771684 -9.3811655 -45.542542 34.922779
142450000 -46.398388 44.815102 -0.025792314 -8.3491316 -68.327133 95.411613 -81.763626 74.230743
-0.024949227 -8.3823719 -47.398022 41.149792 -80.945915 -101.2372 -68.267876 73.578247
-67.698662 71.961212 -83.540703 -81.332245 -45.904938 39.982113 -0.030139513 -10.547132
-81.915771 137.75241 -66.950714 84.628532 -0.031494092 -10.540295 -45.218178 38.970589
159006250 -46.769428 41.335304 -0.026091505 -9.319582 -66.886787 82.837509 -82.414978 83.613441
-0.025771258 -9.3297691 -47.627964 39.260727 -81.441406 -104.08729 -67.546692 73.490005
-66.824875 71.767586 -84.24054 -110.22509 -45.345932 46.403049 -0.031370122 -11.764903
-82.861328 160.1479 -66.48127 74.699005 -0.032131489 -11.770746 -44.890236 43.118248
175562500 -46.558212 46.487713 -0.0270663 -10.291982 -66.094505 77.210312 -82.719185 79.665909
-0.026697835 -10.300289 -47.108147 45.11375 -81.183212 -108.83781 -66.419571 78.572937
-66.040375 78.534981 -84.20314 -142.50874 -44.765091 44.970299 -0.032871 -12.9916
-82.709892 -177.90804 -66.260658 74.173172 -0.033580218 -12.995322 -44.264111 40.440186
192118750 -46.023922 43.069675 -0.028021159 -11.263582 -65.212959 75.316986 -82.736343 85.450081
-0.027469998 -11.269183 -46.669048 42.811802 -81.391495 -108.81995 -65.380714 77.988564
-65.45063 75.991287 -84.224457 -177.66869 -44.260784 45.660107 -0.034103502 -14.216635
-82.570465 -144.49728 -65.223419 72.251053 -0.034556497 -14.219337 -43.810978 40.63607
208675000 -45.853287 42.976231 -0.028983559 -12.230323 -64.43013 74.406601 -82.5728 91.906334
-0.028215865 -12.234416 -46.328953 43.400566 -81.699715 -121.10043 -64.525215 76.674477
-64.505714 75.495743 -84.494225 153.41438 -43.593678 45.108551 -0.03520393 -15.43996
-82.446793 -126.68282 -64.274117 72.79599 -0.035869353 -15.441455 -43.160969 41.684776
225231250 -45.428448 44.607437 -0.029813189 -13.197243 -63.697933 73.568611 -82.317421 97.491325
-0.029071111 -13.199631 -45.591805 44.244808 -81.620018 -131.0295 -63.931751 75.070381
-63.776188 74.235962 -83.880074 126.38872 -43.079483 44.929203 -0.036276478 -16.66256
-82.404732 -125.4239 -63.508919 72.478111 -0.036837101 -16.663462 -42.597317 41.23064
241787500 -44.715607 43.911892 -0.030431107 -14.164651 -62.940468 72.803757 -81.908188 103.34267
-0.029833935 -14.165125 -45.183388 43.739342 -81.269997 -135.8259 -63.131363 73.523712
-63.020443 72.963829 -84.247215 99.713974 -42.497799 45.131584 -0.037053112 -17.885365
-81.933449 -117.99979 -62.815582 72.211388 -0.037707802 -17.885262 -42.171162 41.562538
258343750 -44.527309 43.001446 -0.031174103 -15.129137 -62.141712 71.742584 -82.040314 99.894608
-0.030653084 -15.130228 -44.875885 43.441154 -80.936432 -142.40105 -62.429482 71.980843
-62.521004 71.730835 -84.141335 77.67778 -42.053391 43.972324 -0.037933469 -19.104542
-81.973434 -127.40971 -62.150475 71.176254 -0.038606066 -19.10541 -41.748459 41.446365
274900000 -44.221699 43.179241 -0.031760734 -16.093527 -61.594376 71.291679 -81.742706 97.285339
-0.031460073 -16.093557 -44.481949 42.690018 -81.114792 -145.44725 -61.76823 70.957069
-61.831924 71.583572 -84.150223 57.155743 -41.677685 43.250957 -0.038656723 -20.322046
-82.219124 -152.06339 -61.543476 69.637321 -0.039280619 -20.3256 -41.338917 41.100193
291456250 -43.666725 43.093479 -0.032493062 -17.058073 -61.075897 70.764061 -81.121109 91.457321
-0.032107215 -17.057985 -44.146976 42.065079 -80.648315 -143.83916 -61.314804 70.271019
-61.248074 70.377647 -83.773239 53.049675 -41.221699 42.585793 -0.039410107 -21.539215
-81.99897 -179.17078 -60.867538 68.481667 -0.040219996 -21.545761 -40.950401 40.872093
308012500 -43.356853 42.542282 -0.032936614 -18.022299 -60.521606 69.169151 -80.968323 78.993401
-0.032803416 -18.022661 -43.712307 42.649059 -81.584419 -136.61774 -60.773365 68.91391
-60.692127 69.033691 -83.786629 50.38623 -40.814384 41.582787 -0.040034268 -22.759136
-81.695313 157.25853 -60.358212 67.800209 -0.041205987 -22.764639 -40.570305 41.287136
324568750 -43.055336 42.562214 -0.033529162 -18.986248 -60.064468 68.509987 -80.395782 64.897758
-0.033620246 -18.987015 -43.251915 42.647156 -81.205536 -123.41331 -60.323009 67.835358
-60.226234 68.354568 -83.147636 37.842148 -40.431023 41.003574 -0.040910911 -23.978516
-81.422951 138.66605 -59.885567 66.702751 -0.041997101 -23.984703 -40.18008 41.419476
341125000 -42.636932 42.174454 -0.034369133 -19.950365 -59.555779 67.415337 -80.639366 34.373741
-0.034372907 -19.951086 -42.906685 42.503666 -80.797958 -127.7778 -59.883202 67.227562
-59.762001 66.798332 -83.480064 30.683382 -40.051537 40.052956 -0.041521359 -25.199841
-80.740669 121.98973 -59.40844 65.835587 -0.042846195 -25.202009 -39.850014 41.292549
357681250 -42.350811 41.466347 -0.034886815 -20.91448 -59.22628 66.278961 -80.600517 17.246996
-0.035136864 -20.915262 -42.541832 42.276981 -80.813751 -122.4381 -59.283623 65.433456
-59.392693 65.419601 -83.345497 22.847492 -39.669331 38.922588 -0.042514395 -26.419069
-81.017982 98.19278 -58.918144 65.055176 -0.043725874 -26.422108 -39.602383 41.095341
374237500 -42.08765 41.16993 -0.03550617 -21.877649 -58.843182 65.394371 -80.098595 -8.4814529
-0.035605118 -21.879404 -42.199535 41.686531 -81.018654 -128.69847 -58.801804 64.754387
-58.965591 64.410721 -82.093674 22.956396 -39.361256 37.80405 -0.043190297 -27.637428
-80.63517 85.853203 -58.500835 63.656502 -0.044418301 -27.640856 -39.33939 40.892044
390793750 -41.746178 40.797283 -0.035985339 -22.842651 -58.428951 64.417061 -80.726959 -49.605598
-0.036343146 -22.843067 -41.905022 41.315792 -80.973129 -134.33 -58.368755 63.804443
-58.601727 63.635132 -81.829681 38.554939 -39.011734 36.578735 -0.043984953 -28.856335
-80.064491 65.571304 -58.156464 63.152538 -0.045225739 -28.859688 -39.084114 40.600716
407350000 -41.469513 40.162048 -0.036768932 -23.806692 -57.995636 62.741982 -81.204048 -96.733963
-0.037404519 -23.807835 -41.640301 40.934929 -81.266701 -136.00351 -57.906464 62.776352
-58.046436 62.671543 -82.112038 46.483437 -38.71307 35.34531 -0.044898886 -30.076094
-80.367645 39.279289 -57.798466 62.505302 -0.046071395 -30.078129 -38.852116 40.275307
423906250 -41.240448 39.599739 -0.037333094 -24.770517 -57.616135 61.489037 -80.999626 -136.7549
-0.038035866 -24.770483 -41.359268 40.524754 -81.243347 -143.47609 -57.563828 61.83173
-57.724785 61.435661 -82.475899 59.331936 -38.411503 34.020432 -0.045937359 -31.293131
-81.129433 11.55508 -57.468925 60.750454 -0.046771232 -31.295982 -38.67289 39.947514
440462500 -40.977528 39.340717 -0.038119946 -25.735294 -57.287151 60.592003 -81.2715 175.66156
-0.038656026 -25.733629 -41.108723 39.868061 -81.265518 -146.34811 -57.217758 60.702747
-57.353287 60.659271 -82.409813 72.437424 -38.139698 32.515869 -0.046927914 -32.510593
-81.316673 -9.1521549 -57.177502 59.767933 -0.047629636 -32.5126 -38.473045 39.341908
457018750 -40.710484 38.473652 -0.0388631 -26.697189 -56.986877 59.07378 -81.421898 139.02774
-0.039372962 -26.697248 -40.806061 39.163502 -81.254936 -147.10416 -56.928028 59.543842
-57.034004 59.62141 -82.052841 96.442703 -37.940434 30.953455 -0.047920208 -33.728058
-81.709953 -44.336651 -56.785515 58.578884 -0.048537992 -33.73119 -38.283375 38.647354
473575000 -40.503971 37.82642 -0.039261404 -27.659754 -56.733028 57.846436 -81.087898 102.22117
-0.039947856 -27.660442 -40.558521 38.35693 -81.697685 -144.77637 -56.632156 58.464569
-56.711681 58.7421 -82.458954 125.59724 -37.710785 29.768141 -0.048688389 -34.946362
-81.622444 -80.582542 -56.536404 57.839806 -0.049510293 -34.950096 -38.128281 38.044903
490131250 -40.280376 37.338879 -0.039690074 -28.622007 -56.446972 57.005169 -80.962486 79.732559
-0.040837184 -28.62332 -40.325802 37.656097 -81.387489 -144.69296 -56.353119 57.797398
-56.396313 57.595631 -82.233727 151.86989 -37.508938 28.471167 -0.049367085 -36.163853
-81.547218 -109.89251 -56.256695 56.701317 -0.050196625 -36.166641 -37.960392 37.135357
506687500 -40.004787 36.79612 -0.040467139 -29.584244 -56.185066 56.054882 -81.079948 58.436348
-0.041553419 -29.586983 -40.070141 37.010635 -81.31636 -149.18268 -56.042393 56.494114
-56.10717 56.42112 -81.703552 172.9287 -37.329208 27.313099 -0.050277337 -37.380581
-81.38784 -129.33884 -56.020664 55.647552 -0.050677884 -37.384586 -37.779816 36.1688
523243750 -39.794647 36.203224 -0.040931325 -30.547071 -55.904945 55.24028 -81.182098 31.058783
-0.042017251 -30.551161 -39.840714 36.15707 -81.498405 -151.32047 -55.771774 55.188751
-55.837704 55.327892 -81.206917 -169.63066 -37.150707 26.399437 -0.051042426 -38.597984
-81.777817 -149.61667 -55.717678 54.711365 -0.051377892 -38.602634 -37.585365 35.005901
539800000 -39.577946 35.622601 -0.041535713 -31.509384 -55.673462 54.059475 -80.755127 7.603107
-0.042486783 -31.514708 -39.614544 35.66045 -81.105095 -145.12357 -55.503712 54.295673
-55.578491 54.17601 -80.728905 -157.73416 -36.974625 25.585503 -0.051687904 -39.815971
-81.430984 -162.63507 -55.437908 53.944649 -0.052198846 -39.819687 -37.383263 33.88118
556356250 -39.319687 34.900532 -0.04224195 -32.473537 -55.397682 52.684643 -81.148201 -17.833382
-0.042932715 -32.479221 -39.357811 34.90255 -80.772186 -145.22957 -55.239971 53.208275
-55.305683 52.970139 -80.31102 -160.66647 -36.786179 24.602432 -0.052501515 -41.03503
-81.261215 -159.66185 -55.157455 53.098804 -0.053385545 -41.036121 -37.190323 32.757168
572912500 -39.108551 34.310146 -0.04272842 -33.436543 -55.156948 51.459766 -81.797668 -49.234917
-0.04375216 -33.442478 -39.136429 34.268185 -80.680588 -147.03261 -54.997105 52.120975
-55.066296 51.865341 -80.133949 -163.13953 -36.628578 23.946167 -0.053203888 -42.254696
-81.424904 -164.38258 -54.942268 51.955524 -0.054007355 -42.254242 -36.996334 31.670822
589468750 -38.948318 33.763943 -0.043381963 -34.399506 -54.929375 50.854584 -82.062485 -78.730431
-0.044368431 -34.405392 -38.918507 33.477623 -79.811836 -156.77486 -54.760136 51.252308
-54.852173 50.876118 -80.580338 -167.46782 -36.453285 23.118744 -0.054024179 -43.47303
-81.180794 -169.65848 -54.647053 50.714714 -0.054708418 -43.473083 -36.817493 30.535583
606025000 -38.764755 33.05759 -0.044105675 -35.362892 -54.637798 49.931026 -81.894516 -104.42065
-0.04473957 -35.369209 -38.692745 32.658802 -79.889275 -170.57643 -54.528267 50.021835
-54.602821 50.062717 -80.725174 -177.08583 -36.309811 22.239702 -0.054776575 -44.690838
-81.114578 -170.82065 -54.394806 49.590828 -0.055395167 -44.692173 -36.640648 29.475578
622581250 -38.571423 32.29966 -0.044344168 -36.325825 -54.401199 48.950352 -81.595749 -119.25678
-0.045114756 -36.331558 -38.527412 31.824615 -79.893463 -169.69635 -54.329086 48.821255
-54.363247 48.927589 -80.302887 -178.12564 -36.157162 21.379368 -0.055681735 -45.907864
-81.436203 -171.77673 -54.168106 48.441662 -0.056134488 -45.912209 -36.448116 28.123386
639137500 -38.403316 31.513803 -0.045237675 -37.28981 -54.133488 47.743397 -81.304947 -140.76064
-0.045627013 -37.295147 -38.322178 31.203918 -80.251823 -177.49065 -54.070068 47.858185
-54.117638 47.770927 -81.106689 -175.42802 -36.02002 20.546858 -0.056310795 -47.123943
-81.316742 -173.25641 -53.974037 47.465263 -0.056865193 -47.131039 -36.235035 26.781921
655693750 -38.231586 30.673792 -0.045723222 -38.254158 -53.915916 46.575466 -81.149223 -161.76236
-0.046227284 -38.257153 -38.183155 30.476988 -80.569054 -175.88467 -53.873428 46.535484
-53.903843 46.571671 -81.832207 -170.34099 -35.886635 19.966309 -0.057024285 -48.342136
-81.646446 -178.92848 -53.788406 46.523735 -0.057724833 -48.347656 -36.05217 25.359564
672250000 -38.05875 29.794338 -0.046298798 -39.21656 -53.681587 45.412312 -82.156479 -177.63976
-0.046761937 -39.220085 -38.022934 29.778475 -80.521645 -170.60582 -53.650551 45.560646
-53.665031 45.381298 -81.845581 -175.11865 -35.759182 19.332994 -0.057649646 -49.560745
-81.756767 174.06673 -53.575348 45.428383 -0.058417834 -49.565376 -35.871265 23.901171
688806250 -37.910538 28.792038 -0.046667777 -40.178955 -53.483627 44.555553 -81.99865 -178.46181
-0.047030196 -40.182545 -37.85112 29.121878 -80.164574 -171.10925 -53.489002 44.566246
-53.469589 44.239384 -81.192932 179.1837 -35.636768 18.657591 -0.058154874 -50.777161
-81.719864 172.11694 -53.378166 44.339142 -0.059120871 -50.78278 -35.694523 22.40486
705362500 -37.730614 27.989731 -0.046991229 -41.141476 -53.257683 43.413418 -82.124733 174.79755
-0.047722459 -41.14645 -37.697098 28.348963 -79.929596 -164.49074 -53.277802 43.57502
-53.232708 43.202061 -81.350212 -179.1046 -35.522503 18.112637 -0.05873438 -51.996758
-81.189056 171.61429 -53.154263 43.354065 -0.059915483 -51.999321 -35.524868 20.868425
721918750 -37.559303 27.184526 -0.047400828 -42.10281 -53.044056 42.120117 -81.603851 177.72639
-0.048518945 -42.110401 -37.569313 27.400068 -79.967957 -166.18489 -53.080963 42.425579
-53.040001 41.883156 -81.081085 -175.96361 -35.416328 17.46508 -0.05929276 -53.215683
-80.93084 169.45348 -52.962494 42.21928 -0.060581367 -53.217018 -35.369335 19.453299
738475000 -37.430614 26.436579 -0.047743559 -43.06464 -52.829075 40.982605 -81.84272 178.47556
-0.049079526 -43.073589 -37.437988 26.606926 -80.180397 -168.54556 -52.882442 41.140755
-52.861355 40.58292 -81.181076 -178.67137 -35.319908 16.71936 -0.059798773 -54.432133
-80.538353 172.23308 -52.777363 41.152485 -0.061180379 -54.432346 -35.229961 17.973886
755031250 -37.271606 25.734917 -0.048313368 -44.027912 -52.623589 39.988598 -81.691338 176.2787
-0.049725309 -44.035782 -37.272686 25.881176 -79.413292 -176.2849 -52.689457 40.04311
-52.654129 39.529091 -80.836876 175.76953 -35.241909 16.142019 -0.060230207 -55.649429
-80.392906 172.21083 -52.587009 40.112648 -0.061701447 -55.647804 -35.077042 16.497879
771587500 -37.102436 24.825977 -0.049166199 -44.991802 -52.464203 38.827007 -81.351959 162.56821
-0.050229616 -44.999729 -37.15184 25.225773 -79.816772 -174.07494 -52.50581 38.980194
-52.484352 38.33181 -81.520531 173.43031 -35.142719 15.501727 -0.061070766 -56.865772
-80.392906 170.62697 -52.391682 38.953167 -0.062298197 -56.866367 -34.939785 15.069289
788143750 -36.994209 23.913433 -0.049651477 -45.955002 -52.266975 37.957508 -81.181313 159.41734
-0.050848763 -45.963188 -37.015083 24.506165 -79.548775 -172.19516 -52.306416 37.905979
-52.298649 37.429344 -82.30983 163.76927 -35.03701 14.810082 -0.061727382 -58.084583
-80.874596 161.68312 -52.186226 37.783287 -0.063159265 -58.08165 -34.819336 13.632215
804700000 -36.881775 23.029047 -0.050197691 -46.917278 -52.087811 36.805069 -81.206268 158.29358
-0.051496316 -46.926289 -36.862568 23.819315 -79.353821 -172.43173 -52.12114 36.759541
-52.110771 36.475716 -82.618263 166.70589 -34.937531 13.931903 -0.062501624 -59.299744
-80.364754 165.63733 -51.991184 36.727932 -0.063956358 -59.298214 -34.717472 12.259083
821256250 -36.748081 22.214191 -0.050628234 -47.880047 -51.87545 35.753803 -81.00518 162.37854
-0.052145619 -47.889847 -36.730869 23.008812 -79.126877 179.94299 -51.930893 35.588558
-51.925194 35.395332 -82.958893 168.72301 -34.85902 13.032685 -0.063200295 -60.518208
-80.145767 171.39598 -51.82357 35.480606 -0.064435318 -60.514877 -34.631413 11.037257
837812500 -36.627228 21.420559 -0.050996095 -48.841984 -51.736385 34.524097 -80.935799 159.53305
-0.052840531 -48.851151 -36.61726 22.309755 -79.420883 -179.2966 -51.775452 34.671139
-51.758492 34.448311 -83.284348 176.22562 -34.804668 12.098546 -0.063658834 -61.735909
-80.050797 165.8821 -51.647484 34.260036 -0.064772069 -61.731304 -34.538143 9.8306818
854368750 -36.517643 20.512892 -0.051455054 -49.804646 -51.554672 33.476864 -80.450859 162.50858
-0.052861743 -49.814098 -36.520142 21.556393 -79.448097 179.84833 -51.59074 33.446846
-51.561592 33.363094 -83.302177 171.48227 -34.740311 11.03073 -0.064388067 -62.952324
-79.762482 164.39362 -51.472878 33.198589 -0.065567248 -62.945923 -34.469315 8.5707388
870925000 -36.399624 19.725407 -0.051984273 -50.765396 -51.383228 32.210869 -80.147476 165.9084
-0.053283829 -50.77636 -36.416275 20.696005 -79.737709 -179.72997 -51.393009 32.405998
-51.370373 32.170761 -83.077972 171.03607 -34.692307 9.9432621 -0.064897016 -64.167023
-81.288048 165.59756 -51.315624 32.089584 -0.06615898 -64.162796 -34.397018 7.4650364
887481250 -36.293724 18.97337 -0.052319873 -51.726536 -51.211365 31.004824 -80.114777 168.1057
-0.053835675 -51.737118 -36.317959 19.916496 -79.555206 -174.86729 -51.218685 31.366501
-51.208565 31.028372 -83.330147 177.85529 -34.628082 8.900959 -0.06549155 -65.382545
