! MARKI MICROWAVE INC.
! Email:             	info@markimicrowave.com   				Phone:   408-778-4200
! Model Number:      	CA-40						Date:    10/12
! Filename:		CA_40.S4P						Version: 1.0
! Description:       	4-port S-parameter data for Directional Coupler CA-40
! Frequency Range: 	10 MHz to 40 GHz		
! Port Configuration:	PORT 1: Input, PORT 2: Output Port 3: Coupled and Port 4: Isolated


! S3P File: Measurements: Mag<S11> Ang<S11> Mag<S12> Ang<S12> Mag<S13> Ang<S13> Mag<S14> Ang<S14>! row 1 
!			  Mag<S21> Ang<S21> Mag<S22> Ang<S22> Mag<S23> Ang<S23> Mag<S24> Ang<S24>! row 2 
!			  Mag<S31> Ang<S31> Mag<S32> Ang<S32> Mag<S33> Ang<S33> Mag<S34> Ang<S34>! row 3 
!			  Mag<S41> Ang<S41> Mag<S42> Ang<S42> Mag<S43> Ang<S43> Mag<S44> Ang<S44>! row 4

# GHz S DB R 50
0.01	-42.7051	-76.8894	-0.0314582	-0.947963	-57.729		-33.5713	-60.3104	-4.6319	
	-0.0179263	-0.851793	-45.3421	-56.1918	-63.4022	-18.595		-68.7931	47.1903	
	-58.8915	-117.373	-67.7408	-97.8898	-50.4129	-59.534		-0.0214251	-1.48612
	-63.1239	-80.166		-62.2987	-128.769	-0.0205977	-1.3252		-48.101		-68.3933
0.21	-40.1239	26.4756		-0.0663737	-23.9303	-66.2252	73.5751		-88.5792	166.476	
	-0.0632695	-23.9345	-39.7945	15.762		-89.0536	34.4729		-66.5309	71.3711	
	-66.345		75.218		-88.9439	-22.4982	-40.9959	20.0648		-0.0855866	-35.5991
	-88.8653	-72.6054	-66.5902	55.9512		-0.0867143	-35.5855	-36.6197	5.19076
0.41	-37.7878	14.9147		-0.0890201	-46.5767	-60.5851	39.5633		-89.2423	-168.33	
	-0.0861952	-46.5834	-37.3829	3.90782		-89.3054	87.6839		-60.6345	39.3533	
	-60.598		39.2484		-89.3863	106.063		-38.2544	5.59521		-0.117049	-69.2845
	-89.0251	-48.9147	-60.6224	39.4197		-0.11787	-69.2734	-35.2754	-22.8612
0.61	-36.4118	-2.81576	-0.107298	-69.1743	-56.3782	15.5174		-88.1126	160.674	
	-0.10475	-69.183		-36.2031	-15.3903	-88.3351	-149.429	-56.3808	15.5504	
	-56.3734	15.5522		-88.3861	165.783		-37.0508	-9.75185	-0.141895	-102.912
	-88.0555	160.903		-56.3867	15.5211		-0.142356	-102.903	-36.7303	-59.3718
0.81	-36.5105	-22.6041	-0.121307	-91.7486	-53.7163	-8.50289	-86.985		138.83	
	-0.118989	-91.7607	-36.7397	-35.6563	-86.8904	143.537		-53.721		-8.5277	
	-53.7136	-8.50046	-87.1838	148.093		-37.316		-22.2906	-0.161605	-136.513
	-86.9478	137.373		-53.7198	-8.52639	-0.16182	-136.509	-40.985		-120.292
1.01	-38.2704	-43.722		-0.132848	-114.314	-51.7209	-32.5551	-85.8534	119.242	
	-0.130498	-114.325	-39.292		-56.1008	-85.4727	127.852		-51.73		-32.5913
	-51.7161	-32.5445	-85.8414	130.012		-38.0664	-31.0507	-0.178643	-170.102
	-85.9251	118.226		-51.7221	-32.5819	-0.17852	-170.098	-42.7137	163.011
1.21	-43.6383	-79.112		-0.142348	-136.873	-50.1164	-56.588		-84.7658	100.282	
	-0.140152	-136.881	-45.0153	-50.7119	-84.0182	111.069		-50.1233	-56.642	
	-50.1132	-56.59		-84.2111	112.394		-38.6817	-37.5976	-0.193909	156.321	
	-84.7337	100.031		-50.1196	-56.6205	-0.193653	156.326		-42.4225	87.6174
1.41	-46.6394	-149.14		-0.150915	-159.427	-48.7687	-80.6388	-83.3505	80.9738	
	-0.148691	-159.434	-47.0079	-23.7332	-82.2157	93.7138		-48.7761	-80.7176
	-48.7668	-80.6512	-82.3943	92.4917		-38.9863	-45.9695	-0.207666	122.756	
	-83.3486	82.0696		-48.7758	-80.6852	-0.207152	122.761		-39.6667	30.2522
1.61	-46.6116	138.723		-0.158453	178.024		-47.6096	-104.712	-81.653		60.2825	
	-0.156376	178.017		-46.281		3.24303		-80.1505	71.1067		-47.6183	-104.791
	-47.6085	-104.709	-80.2345	70.6044		-39.232		-61.6791	-0.219514	89.1968	
	-81.6939	61.0757		-47.618		-104.75		-0.219042	89.2001		-38.674		8.05685
1.81	-43.3756	69.5577		-0.165556	155.475		-46.5926	-128.774	-79.8281	36.0755	
	-0.163463	155.467		-41.7518	19.2035		-78.1836	45.6594		-46.6021	-128.858
	-46.5911	-128.786	-78.2437	45.7067		-39.6495	-91.4844	-0.23058	55.6359	
	-79.8658	37.3322		-46.5995	-128.826	-0.230055	55.639		-38.6824	3.32713
2.01	-39.1794	39.2411		-0.172113	132.928		-45.6869	-152.848	-78.1272	10.0087	
	-0.169801	132.924		-38.5181	-1.93605	-76.3103	18.3213		-45.6965	-152.926
	-45.6839	-152.859	-76.394		18.7223		-39.4857	-133.296	-0.241485	22.0752	
	-78.1454	10.871		-45.6931	-152.91		-0.240772	22.0831		-37.7518	1.72853
2.21	-38.6556	21.6341		-0.178283	110.38		-44.8695	-176.92		-76.6087	-17.9979
	-0.175393	110.383		-37.9195	-29.7686	-74.7547	-10.5449	-44.8808	-176.998
	-44.8663	-176.921	-74.7899	-10.0579	-38.2583	179.595		-0.252512	-11.4822
	-76.6048	-17.5631	-44.8757	-177.002	-0.251241	-11.4684	-35.7233	-6.36148
2.41	-40.3844	14.198		-0.183796	87.8335		-44.1259	159		-75.2867	-47.6998
	-0.180387	87.8423		-38.6068	-65.7382	-73.4145	-40.6492	-44.1351	158.919	
	-44.122		159.017		-73.527		-40.1382	-35.9557	135.461		-0.263057	-45.0321	
	-75.3041	-47.1078	-44.1319	158.922		-0.261148	-45.0131	-33.4923	-30.7691
2.61	-42.1959	26.8339		-0.189013	65.2873		-43.444		134.931		-74.2134	-77.9003
	-0.185407	65.299		-39.2898	-112.326	-72.3457	-70.9289	-43.4514	134.823	
	-43.4382	134.955		-72.4305	-70.4788	-33.4255	99.3455		-0.273095	-78.5782
	-74.2098	-77.389		-43.4473	134.84		-0.270813	-78.5579	-32.2736	-68.9141
2.81	-41.8594	47.273		-0.19454	42.7411		-42.8127	110.875		-73.3293	-108.419
	-0.190766	42.7541		-38.7758	-164.254	-71.4615	-101.966	-42.8223	110.738	
	-42.8086	110.882		-71.5068	-101.39		-31.4623	68.8525		-0.283065	-112.123
	-73.3391	-108.114	-42.8172	110.766		-0.280482	-112.102	-31.7436	-115.229
3.01	-39.1769	64.7974		-0.200496	20.1973		-42.2264	86.8132		-72.6571	-139.296
	-0.19659	20.2105		-36.7669	145.648		-70.7566	-133.034	-42.2376	86.6736	
	-42.2225	86.8149		-70.8345	-132.386	-30.2303	41.2677		-0.293048	-145.665
	-72.6057	-139.342	-42.2314	86.6938		-0.290226	-145.646	-31.1863	-166.828
3.21	-34.8151	65.8617		-0.206953	-2.34327	-41.6789	62.7564		-72.1864	-170.527
	-0.202935	-2.3295		-33.8251	104.065		-70.251		-164.577	-41.691		62.6183	
	-41.6766	62.7486		-70.2811	-163.773	-29.6926	15.0889		-0.303454	-179.204
	-72.0722	-171.076	-41.6861	62.6248		-0.300631	-179.184	-30.327		140.517
3.41	-31.5188	52.6925		-0.21354	-24.8784	-41.167		38.6828		-71.8071	157.489	
	-0.209645	-24.865		-31.1936	71.0884		-69.9224	164.207		-41.1784	38.5657	
	-41.1642	38.6974		-69.9715	164.911		-29.8838	-10.2774	-0.313708	147.266	
	-71.7312	156.792		-41.1753	38.5669		-0.311051	147.284		-29.3859	90.6559
3.61	-29.4036	36.265		-0.220259	-47.409		-40.6836	14.6239		-71.6492	125.295	
	-0.216454	-47.3949	-29.3513	42.3363		-69.763		132.676		-40.6938	14.5172	
	-40.6816	14.6442		-69.8317	132.844		-30.8711	-35.3016	-0.32329	113.74	
	-71.5463	124.776		-40.6933	14.5144		-0.320639	113.759		-28.9738	45.4188
3.81	-28.1342	19.2287		-0.226702	-69.9343	-40.2277	-9.42873	-71.655		93.2753	
	-0.223085	-69.9215	-28.2392	15.1304		-69.8167	101.466		-40.2378	-9.54043
	-40.2255	-9.40686	-69.8395	101.425		-32.794		-60.2316	-0.331818	80.2159	
	-71.6354	92.8295		-40.2363	-9.53643	-0.329188	80.2343		-29.7208	3.39538
4.01	-27.5236	2.60565		-0.232843	-92.4556	-39.7956	-33.4674	-71.8872	61.2744	
	-0.229114	-92.4451	-27.7342	-11.6922	-70.0262	70.1292		-39.805		-33.6049
	-39.7933	-33.4557	-70.0355	70.1947		-36.1116	-84.946		-0.339822	46.6883	
	-71.8494	61.162		-39.8032	-33.5891	-0.337319	46.7037		-32.337		-37.8837
4.21	-27.4507	-13.0411	-0.238009	-114.976	-39.3863	-57.5139	-72.3641	29.6951	
	-0.234043	-114.966	-27.7124	-38.7954	-70.4132	39.223		-39.3939	-57.6625
	-39.3829	-57.5023	-70.426		39.3177		-42.9314	-96.8912	-0.347745	13.1548	
	-72.3632	29.8452		-39.3913	-57.6486	-0.346571	13.1634		-38.175		-98.208
4.41	-27.7788	-27.2204	-0.242206	-137.497	-38.9968	-81.555		-73.058		-1.40854
	-0.238223	-137.486	-28.1008	-66.4972	-70.9926	8.69191		-39.0017	-81.7159
	-38.9926	-81.5433	-70.9771	8.98439		-47.0443	-73.1202	-0.356132	-20.3796
	-73.0674	-1.44716	-38.9996	-81.7106	-0.356518	-20.3788	-41.0841	175.09
4.61	-28.3432	-39.5711	-0.245987	-160.021	-38.6235	-105.605	-73.9914	-32.2367
	-0.241886	-160.007	-28.8095	-95.1546	-71.7982	-20.6315	-38.6292	-105.776
	-38.62		-105.587	-71.7736	-20.4955	-47.8919	-48.6264	-0.365544	-53.9136
	-74.0611	-32.1398	-38.6271	-105.775	-0.367212	-53.9186	-41.26		87.1644
4.81	-28.9258	-50.4903	-0.249594	177.455		-38.2665	-129.652	-75.4228	-61.8458
	-0.245577	177.471		-29.7301	-124.72		-72.8208	-49.2514	-38.2731	-129.842
	-38.2654	-129.633	-72.7665	-49.039		-45.309		-27.5767	-0.375456	-87.44	
	-75.4162	-61.6884	-38.2719	-129.84		-0.377263	-87.4481	-38.0789	4.567
5.01	-29.3768	-61.3371	-0.253632	154.931		-37.9265	-153.701	-77.0865	-90.4207
	-0.249727	154.946		-30.7083	-154.924	-74.0495	-75.913		-37.9345	-153.91		
	-37.924		-153.693	-74.0504	-75.9946	-40.6803	-48.3499	-0.385434	-120.963
	-77.1543	-89.4684	-37.9327	-153.903	-0.38721	-120.972	-35.0062	-44.6978
5.21	-29.6776	-73.9179	-0.258019	132.408		-37.6002	-177.753	-79.4045	-115.117
	-0.254171	132.425		-31.613		175.404		-75.3025	-99.9162	-37.6101	-177.974
	-37.5975	-177.745	-75.4653	-100.063	-39.2144	-81.1945	-0.395414	-154.482
	-79.4069	-114.436	-37.6085	-177.967	-0.397115	-154.491	-34.5147	-93.4914
5.41	-29.943		-89.8022	-0.262459	109.889		-37.2861	158.192		-81.8984	-132.619
	-0.258848	109.904		-32.3558	147.484		-76.716		-120.657	-37.2994	157.966	
	-37.2834	158.196		-76.869		-120.721	-38.4819	-117.373	-0.405084	172.001	
	-82.0845	-132.551	-37.2971	157.974		-0.407116	171.993		-34.5966	-145.698
5.61	-30.3147	-110.284	-0.266977	87.3716		-36.9857	134.136		-84.1351	-139.888
	-0.263616	87.3829		-32.857		122.887		-77.9151	-138.34		-36.9994	133.913	
	-36.9831	134.143		-78.0626	-137.648	-37.7542	-154.569	-0.41491	138.485	
	-84.028		-140.986	-36.9977	133.919		-0.41726	138.475		-34.513		162.524
5.81	-30.8446	-135.865	-0.271387	64.8565		-36.6968	110.082		-84.5977	-143.029
	-0.268549	64.8625		-33.0415	102.497		-78.6699	-153.244	-36.7112	109.855	
	-36.6952	110.087		-78.7283	-152.288	-36.7946	170.392		-0.424868	104.974	
	-84.4825	-143.227	-36.7095	109.868		-0.427661	104.962		-34.2123	116.547
6.01	-31.3539	-166.729	-0.275904	42.3418		-36.4196	86.0285		-83.5204	-147.359
	-0.273386	42.3415		-32.8101	85.792		-78.6671	-167.291	-36.4329	85.8031	
	-36.4178	86.0333		-78.7291	-166.264	-35.7223	139.811		-0.434693	71.4649	
	-83.2573	-148.4		-36.4316	85.8191		-0.437624	71.4474		-34.0249	79.7132
6.21	-31.5515	158.748		-0.280475	19.8277		-36.1518	61.9791		-81.3829	-160.712
	-0.278043	19.8255		-32.1391	71.0321		-78.1282	177.55		-36.1654	61.7499	
	-36.1509	61.9796		-78.2065	177.915		-34.6959	114.223		-0.444131	37.957	
	-81.296		-161.013	-36.1639	61.7704		-0.44724	37.938		-34.0598	52.012
6.41	-31.2999	123.204		-0.285454	-2.68367	-35.8932	37.9329		-79.3743	178.164		
	-0.282768	-2.68703	-31.1992	56.0035		-77.3624	159.249		-35.9076	37.7031	
	-35.8929	37.9364		-77.3634	159.245		-33.8142	93.0809		-0.453954	4.4512	
	-79.2553	178.181		-35.906		37.7203		-0.456784	4.43154		-34.2322	29.6669
6.61	-30.6966	89.6769		-0.29039	-25.192		-35.6449	13.8867		-77.8171	153.417	
	-0.287173	-25.194		-30.2365	39.2323		-76.5454	138.154		-35.6587	13.6536	
	-35.6435	13.8968		-76.5229	137.869		-33.0194	75.1011		-0.463506	-29.054	
	-77.857		153.485		-35.6562	13.6729		-0.466002	-29.0702	-34.5266	8.38079
6.81	-30.0865	59.9145		-0.295017	-47.6957	-35.4054	-10.1532	-76.6915	126.753	
	-0.291078	-47.6956	-29.5427	20.2886		-75.9118	115.387		-35.4168	-10.3898
	-35.4026	-10.138		-75.835		114.797		-32.2481	59.0705		-0.473041	-62.5587
	-76.7806	127.025		-35.415		-10.373		-0.474861	-62.5717	-35.6289	-16.874
7.01	-29.7927	34.2673		-0.298755	-70.198		-35.1737	-34.1846	-75.9876	98.8472	
	-0.294556	-70.1942	-29.2709	-0.721448	-75.4174	91.3595		-35.1831	-34.4328
	-35.1702	-34.1719	-75.2981	91.4864		-31.5526	43.9515		-0.482682	-96.0667
	-76.1153	99.6653		-35.1817	-34.4167	-0.484299	-96.077		-38.7967	-59.9217
7.21	-30.0005	12.4436		-0.301582	-92.7019	-34.9474	-58.2171	-75.623		72.2155	
	-0.297365	-92.6929	-29.496		-23.7474	-75.0397	67.4324		-34.956		-58.4704
	-34.945		-58.2044	-74.9347	66.9868		-31.0262	28.2489		-0.493235	-129.577
	-75.7022	72.7066		-34.9552	-58.4567	-0.494761	-129.584	-40.4234	-129.819
7.41	-30.7749	-5.20092	-0.303717	-115.208	-34.7282	-82.2457	-75.5021	45.684	
	-0.299787	-115.195	-30.2546	-49.2657	-74.7999	43.1236		-34.7354	-82.5105
	-34.7266	-82.2332	-74.7169	42.9114		-30.7603	11.2976		-0.505085	-163.083
	-75.5546	46.0653		-34.7356	-82.5017	-0.507051	-163.089	-39.6155	153.249
7.61	-31.9736	-17.2576	-0.305953	-137.718	-34.5148	-106.276	-75.5642	20.9347	
	-0.302042	-137.703	-31.5209	-78.438		-74.5348	19.9764		-34.5216	-106.554
	-34.5137	-106.262	-74.5465	19.8868		-30.9478	-6.80574	-0.518238	163.423	
	-75.6054	21.1212		-34.5221	-106.55		-0.520545	163.419		-36.0084	80.1753
7.81	-33.0917	-22.9357	-0.308439	-160.231	-34.3071	-130.305	-75.7396	-2.38689
	-0.304556	-160.213	-33.1056	-113.178	-74.2124	-2.13857	-34.3147	-130.603
	-34.3064	-130.292	-74.3312	-2.10188	-31.8128	-26.1385	-0.531013	129.948	
	-75.8263	-2.50512	-34.3149	-130.6		-0.533572	129.945		-31.9216	31.9083
8.01	-33.54		-24.4838	-0.311663	177.256		-34.1054	-154.337	-75.8939	-24.0037
	-0.307753	177.276		-34.4671	-154.263	-73.8373	-23.8843	-34.1147	-154.655
	-34.1046	-154.326	-73.9189	-23.3665	-33.7462	-46.5346	-0.541756	96.485	
	-75.9981	-24.0677	-34.1141	-154.658	-0.544371	96.4827		-30.2394	-8.5609
8.21	-33.1429	-26.6035	-0.315585	154.747		-33.9096	-178.372	-75.8655	-43.6107
	-0.311697	154.768		-35.0525	160.987		-73.265		-45.6221	-33.9211	-178.71	
	-33.9087	-178.365	-73.3634	-45.2193	-37.9298	-67.8371	-0.550118	63.0247	
	-75.9315	-44.3592	-33.9204	-178.708	-0.552596	63.0225		-30.3141	-51.6542
8.41	-32.2356	-33.4605	-0.319606	132.243		-33.7196	157.587		-75.6039	-63.0186
	-0.315921	132.264		-34.7384	117.285		-72.5345	-68.368		-33.7335	157.243	
	-33.7185	157.596		-72.6471	-68.2708	-44.4413	-48.6037	-0.556383	29.5526	
	-75.6599	-63.7325	-33.7318	157.246		-0.559081	29.5508		-31.3009	-101.707
8.61	-31.4809	-46.3704	-0.323243	109.746		-33.5353	133.545		-75.0172	-82.8452
	-0.319776	109.766		-33.9341	78.9144		-71.7036	-92.4697	-33.5507	133.195	
	-33.5336	133.555		-71.8204	-92.3606	-45.9592	-19.1975	-0.562921	-3.93494
	-75.078		-83.9039	-33.5485	133.204		-0.565646	-3.93791	-32.3188	-157.942
8.81	-31.3993	-63.4735	-0.325613	87.2509		-33.3553	109.505		-74.2732	-104.536	
	-0.322338	87.2715		-33.3291	46.3166		-70.9099	-117.938	-33.3718	109.154	
	-33.354		109.516		-70.9776	-118.035	-44.5913	8.91651		-0.571046	-37.4345
	-74.2689	-105.147	-33.3692	109.166		-0.573945	-37.4365	-32.8992	144.096
9.01	-32.2604	-83.3314	-0.326777	64.7525		-33.1797	85.4642		-73.4647	-128.117
	-0.323509	64.7733		-33.3962	18.0889		-70.1634	-145.12		-33.1969	85.1126	
	-33.1784	85.4738		-70.2167	-145.268	-38.4077	13.6056		-0.58153	-70.9349
	-73.4365	-128.225	-33.1947	85.125		-0.584355	-70.9376	-33.4366	90.3214
9.21	-34.4544	-104.897	-0.327454	42.2442		-33.0088	61.4152		-72.7611	-152.714
	-0.32403	42.2657		-34.4421	-7.56815	-69.6244	-173.875	-33.0264	61.0654	
	-33.0068	61.429		-69.6366	-173.671	-35.6695	-15.0621	-0.593617	-104.427
	-72.7286	-152.635	-33.0241	61.078		-0.596366	-104.43		-35.7952	44.8561
9.41	-39.8835	-133.414	-0.328548	19.7268		-32.8435	37.362		-72.2133	-177.288
	-0.325027	19.7479		-37.0872	-32.1928	-69.2966	157.013		-32.861		37.0171	
	-32.8406	37.3764		-69.3199	157.133		-34.8471	-47.2157	-0.606251	-137.909
	-72.2138	-177.103	-32.8588	37.0238		-0.609042	-137.913	-39.6732	48.7241
9.61	-44.4011	153.588		-0.331101	-2.79729	-32.6831	13.3074		-71.781		159.372	
	-0.327286	-2.77486	-43.1268	-75.1542	-69.2572	128.054		-32.7012	12.9635	
	-32.6797	13.3218		-69.2588	127.988		-34.8028	-85.0662	-0.619432	-171.383
	-71.8052	159.396		-32.6981	12.9662		-0.622146	-171.387	-39.2271	64.0045
9.81	-45.0302	77.0111		-0.334727	-25.3201	-32.5274	-10.7473	-71.2917	137.023	
	-0.33076	-25.2953	-45.5676	-145.343	-69.369		99.9204		-32.5458	-11.0892
	-32.5244	-10.7332	-69.3857	99.8293		-34.5862	-128.296	-0.632931	155.152	
	-71.3241	136.984		-32.543		-11.0868	-0.6358		155.148		-36.1084	81.5901
10.01	-42.503		-0.189115	-0.339118	-47.8359	-32.3761	-34.7983	-70.5843	114.756	
	-0.334745	-47.8107	-45.0919	144.269		-69.5811	72.3859		-32.3948	-35.136	
	-32.374		-34.7816	-69.5915	72.3792		-33.6027	-173.269	-0.646418	121.701	
	-70.6747	114.496		-32.3921	-35.1332	-0.649462	121.697		-28.8174	74.7833
10.21	-36.1112	-44.807		-0.343928	-70.3465	-32.2291	-58.8474	-69.7709	91.4977	
	-0.340705	-70.3591	-40.7034	79.512		-69.8878	45.2426		-32.2481	-59.1827
	-32.2273	-58.8299	-69.9191	45.2984		-31.7948	144.599		-0.659089	88.2704	
	-69.8815	91.6107		-32.2447	-59.1798	-0.662026	88.2642		-25.1077	42.882
10.41	-33.3083	-76.2894	-0.348192	-92.8502	-32.0868	-82.893		-68.8888	67.7204	
	-0.352742	-93.0232	-35.9144	55.9733		-70.2174	18.4118		-32.1038	-83.2229
	-32.0848	-82.8739	-70.3372	18.4647		-29.6502	108.674		-0.668926	54.8507	
	-68.9532	67.6787		-32.1015	-83.22		-0.671918	54.8433		-23.2781	10.8136
10.61	-31.8923	-108.95		-0.352446	-115.35		-31.9482	-106.931	-68.0301	42.7524	
	-0.364775	-115.651	-33.8568	38.7532		-70.7693	-7.60597	-31.963		-107.266
	-31.9452	-106.914	-70.88		-7.84837	-27.7655	78.34		-0.67625	21.4317	
	-68.0463	42.9499		-31.9606	-107.259	-0.678764	21.4225		-22.5418	-21.0585
10.81	-31.4443	-143.388	-0.355478	-137.85		-31.813		-130.969	-67.1739	17.7166	
	-0.378428	-138.177	-32.7921	24.3834		-71.4532	-32.5879	-31.8252	-131.311
	-31.8093	-130.953	-71.5721	-32.9653	-26.3228	51.8306		-0.681272	-11.9975
	-67.1606	17.5852		-31.8235	-131.297	-0.68376	-12.005		-22.5973	-52.8019
11.01	-31.6066	-177.021	-0.357907	-160.348	-31.6802	-154.999	-66.2834	-8.33253
	-0.385052	-160.52		-32.1871	12.5619		-72.279		-55.7401	-31.6903	-155.352
	-31.6762	-154.986	-72.3001	-56.5645	-25.3257	27.9748		-0.6856		-45.435	
	-66.2874	-8.5102		-31.6885	-155.34		-0.687791	-45.444		-23.3335	-85.2028
11.21	-31.4832	149.87		-0.360168	177.151		-31.5493	-179.026	-65.4259	-35.0262
	-0.382551	177.116		-31.6236	2.24304		-72.9886	-77.1242	-31.5578	-179.395
	-31.5454	-179.015	-73.0109	-77.814		-24.7085	6.02212		-0.690014	-78.8793
	-65.4392	-35.241		-31.5558	-179.382	-0.692141	-78.8916	-24.5945	-119.392
11.41	-30.992		116.901		-0.361882	154.647		-31.4207	156.948		-64.5669	-62.4184
	-0.377958	154.663		-30.9483	-7.47523	-73.4334	-96.8833	-31.4282	156.563	
	-31.4173	156.954		-73.4134	-97.3251	-24.3893	-14.419		-0.695103	-112.325
	-64.5672	-62.689		-31.4269	156.571		-0.697383	-112.34		-26.1218	-157.477
11.61	-30.0348	85.7224		-0.363318	132.141		-31.294		132.917		-63.7675	-90.5071
	-0.369577	132.111		-30.1581	-18.288		-73.4844	-115.849	-31.3018	132.513	
	-31.2908	132.926		-73.5146	-115.873	-24.2912	-33.6945	-0.700215	-145.765
	-63.7717	-90.7709	-31.3002	132.523		-0.70267	-145.783	-27.4623	159.397
11.81	-29.5037	56.7114		-0.364325	109.632		-31.1693	108.881		-63.0167	-119.312
	-0.36664	109.588		-29.3494	-31.11		-73.2116	-135.512	-31.1782	108.459	
	-31.1665	108.889		-73.2277	-135.084	-24.333		-52.2742	-0.704605	-179.195
	-63.0254	-119.464	-31.1761	108.47		-0.707246	-179.216	-28.0866	112.347
12.01	-29.3882	30.5337		-0.364948	87.1227		-31.0475	84.8431		-62.337		-148.655
	-0.366579	87.0833		-28.6816	-46.0535	-72.6876	-156.652	-31.0575	84.4049	
	-31.0442	84.8518		-72.7376	-156.368	-24.4496	-70.5822	-0.707659	147.386	
	-62.3723	-148.879	-31.0548	84.4196		-0.710241	147.365		-27.861		64.6773
12.21	-29.6891	7.86611		-0.365085	64.6117		-30.9277	60.8027		-61.7366	-178.727
	-0.367033	64.5812		-28.2658	-62.9418	-72.1439	179.824		-30.9392	60.3532	
	-30.9247	60.8135		-72.1491	179.762		-24.6354	-89.1289	-0.707809	113.974	
	-61.7902	-178.76		-30.9364	60.3682		-0.710036	113.953		-27.0913	19.6117
12.41	-30.3972	-10.9074	-0.365291	42.0999		-30.8107	36.758		-61.2539	150.859	
	-0.367711	42.0762		-28.1759	-81.3915	-71.6078	153.669		-30.8236	36.3038	
	-30.8082	36.7719		-71.7089	153.531		-24.9041	-108.541	-0.704582	80.5569	
	-61.3019	150.732		-30.8207	36.3208		-0.706001	80.5433		-26.3674	-21.7235
12.61	-31.3661	-25.2685	-0.365789	19.5871		-30.6966	12.7102		-60.869		119.729	
	-0.369522	19.5565		-28.4392	-101.155	-71.3717	125.029		-30.7108	12.2571	
	-30.6948	12.7256		-71.4595	124.968		-25.2816	-129.177	-0.69792	47.1322	
	-60.9006	119.652		-30.7084	12.2719		-0.698787	47.121		-26.1736	-60.6681
12.81	-32.3568	-35.0669	-0.366672	-2.92672	-30.5863	-11.3406	-60.5966	88.2558	
