! MARKI MICROWAVE INC.
! Email:             	info@markimicrowave.com   				Phone:   408-778-4200
! Model Number:      	CA-50						Date:    10/12
! Filename:		CA_50.S4P						Version: 1.0
! Description:       	4-port S-parameter data for Directional Coupler CA-50
! Frequency Range: 	10 MHz to 50 GHz		
! Port Configuration:	PORT 1: Input, PORT 2: Output Port 3: Coupled and Port 4: Isolated


! S3P File: Measurements: Mag<S11> Ang<S11> Mag<S12> Ang<S12> Mag<S13> Ang<S13> Mag<S14> Ang<S14>! row 1 
!			  Mag<S21> Ang<S21> Mag<S22> Ang<S22> Mag<S23> Ang<S23> Mag<S24> Ang<S24>! row 2 
!			  Mag<S31> Ang<S31> Mag<S32> Ang<S32> Mag<S33> Ang<S33> Mag<S34> Ang<S34>! row 3 
!			  Mag<S41> Ang<S41> Mag<S42> Ang<S42> Mag<S43> Ang<S43> Mag<S44> Ang<S44>! row 4

# GHz S DB R 50
0.01	-44.0408	-56.7345	-0.0365726	-0.211522	-67.736		-65.262		-54.8786	-24.0344
	-0.0170775	-0.246837	-43.9718	-70.4643	-67.5844	94.6167		-56.8348	-16.7676
	-64.6047	-114.382	-55.8732	-175.53		-48.4984	-50.3045	-0.0403737	-0.916467
	-58.6519	-169.849	-52.4419	-152.481	-0.00685323	-0.973936	-51.9751	-12.0619
0.26	-48.5812	20.517		-0.0285939	-13.1144	-65.4853	52.4577		-81.9877	-120.74	
	-0.0259554	-13.1168	-47.8009	15.607		-87.1793	23.6839		-64.4069	67.2677	
	-64.6666	95.5069		-86.3082	-74.0706	-42.8051	7.71022		-0.0847993	-30.8132
	-88.6676	-52.6374	-63.4031	88.4033		-0.0791671	-30.8177	-38.1434	19.1879
0.51	-45.7844	12.6784		-0.0364243	-25.7344	-59.8943	58.4802		-89.5554	-179.413
	-0.0358976	-25.727		-45.9028	19.8153		-91.0155	-60.6818	-59.957		59.6805	
	-59.9208	59.8653		-90.7138	-170.929	-41.0882	14.271		-0.113492	-60.3286
	-94.3284	-143.489	-59.8647	60.6401		-0.113154	-60.327		-34.2123	2.97986
0.76	-43.3096	-5.00283	-0.0418054	-38.2956	-55.9595	44.658		-88.6111	-172.355
	-0.0411212	-38.2862	-44.7986	8.2724		-89.2107	-148.948	-55.984		44.7996	
	-55.9732	45.1361		-91.2238	-167.16		-40.7032	17.6717		-0.11628	-89.7275
	-92.0726	-157.235	-56.0169	45.246		-0.115798	-89.7273	-34.5192	-22.7947
1.01	-42.0153	-20.1364	-0.0527906	-50.8563	-53.3735	30.7218		-85.9943	-171.915
	-0.05173	-50.8469	-44.8271	0.343442	-86.7443	-152.299	-53.4485	30.5306		
	-53.4194	30.7325		-88.3483	-139.654	-39.7179	23.8677		-0.158684	-119.101
	-87.5395	-158.624	-53.4379	30.4663		-0.158777	-119.101	-37.8949	-54.4079
1.26	-41.4418	-34.4533	-0.0579241	-63.4166	-51.4216	16.4733		-83.5863	173.684	
	-0.0565102	-63.4072	-45.5377	-5.59565	-84.6171	-163.237	-51.478		16.2105	
	-51.453		16.3271		-87.7849	-157.345	-37.8013	25.1771		-0.175622	-148.471
	-83.7883	-175.45		-51.4558	16.1958		-0.175511	-148.475	-42.2523	-119.682
1.51	-41.2182	-48.7353	-0.0584901	-75.9779	-49.844		2.16331		-81.9407	158.453	
	-0.0571524	-75.9696	-46.1489	-7.17014	-83.4438	170.29		-49.9079	1.92422	
	-49.8518	1.98691		-84.4082	174.245		-35.8762	18.606		-0.168416	-177.83	
	-82.8423	166.779		-49.8763	1.92476		-0.16856	-177.832	-42.2573	161.085
1.76	-41.3638	-64.1723	-0.067235	-88.5426	-48.5187	-12.3914	-81.6113	146.072	
	-0.065149	-88.5341	-46.5111	-4.985		-82.3689	148.818		-48.569		-12.3922
	-48.5019	-12.4782	-82.5138	150.704		-34.8938	6.94645		-0.205449	152.823	
	-82.3708	142.367		-48.5798	-12.4838	-0.205097	152.821		-38.2315	93.411
2.01	-41.6084	-77.6423	-0.0714873	-101.107	-47.3606	-26.9154	-80.2194	129.826	
	-0.0694332	-101.1		-46.1621	-2.25497	-81.9602	128.261		-47.4234	-26.8881
	-47.3414	-26.854		-81.2145	133.51		-35.0123	-5.91312	-0.218331	123.473	
	-82.4753	121.208		-47.4424	-27.0561	-0.21813	123.474		-34.701		61.746
2.26	-42.2325	-87.281		-0.071609	-113.673	-46.3278	-41.3573	-82.8715	118.637	
	-0.0693774	-113.663	-45.6104	-4.58642	-81.1886	109.661		-46.3961	-41.2747
	-46.3291	-41.3898	-80.7054	124.584		-36.0797	-16.5559	-0.208558	94.1374	
	-82.0657	106.72		-46.4065	-41.5072	-0.208254	94.1381		-34.0993	40.3483
2.51	-42.9661	-91.1812	-0.0804707	-126.235	-45.39		-55.8405	-85.2876	110.302	
	-0.0775651	-126.223	-44.6613	-10.9764	-79.6421	106.622		-45.4982	-55.8146
	-45.4145	-56.0021	-80.3415	109.429		-37.634		-19.9334	-0.241698	64.8044	
	-83.1537	93.9117		-45.5005	-55.8492	-0.24143	64.8037		-35.7237	28.7695
2.76	-43.7105	-88.7617	-0.0842294	-138.799	-44.5921	-70.3586	-86.2403	111.428	
	-0.0815821	-138.789	-43.9682	-21.6733	-79.2847	101.269		-44.6801	-70.2061
	-44.5981	-70.4977	-80.4914	104.007		-38.5528	-14.9298	-0.251752	35.4606	
	-82.9193	81.7582		-44.6719	-70.1929	-0.251503	35.4568		-37.5957	37.3296
3.01	-43.8054	-80.4838	-0.083941	-151.358	-43.8655	-84.84		-83.5314	106.018	
	-0.0810062	-151.353	-43.3611	-35.2904	-77.6966	90.8391		-43.9238	-84.7209
	-43.8586	-84.8837	-78.4974	93.9714		-38.073		-8.27105	-0.241138	6.12201	
	-82.1624	82.5458		-43.9112	-84.6271	-0.240748	6.11685		-37.0471	55.5847
3.26	-42.9015	-71.1728	-0.0911736	-163.918	-43.2046	-99.3721	-81.0367	90.5509	
	-0.0888632	-163.914	-42.7579	-52.3135	-76.1387	73.1487		-43.2421	-99.1856
	-43.1921	-99.255		-77.017		83.5213		-36.5783	-8.77596	-0.275466	-23.2103
	-80.285		81.8825		-43.215		-99.1497	-0.274732	-23.2129	-33.8823	65.7535
3.51	-41.086		-67.2319	-0.0943839	-176.477	-42.5729	-113.834	-77.4164	66.3567	
	-0.092487	-176.472	-41.866		-71.5299	-74.3605	59.4051		-42.6052	-113.614
	-42.5558	-113.668	-74.6555	65.8078		-35.2694	-18.4988	-0.286861	-52.5417
	-77.4957	68.7028		-42.5847	-113.594	-0.286301	-52.5395	-30.7554	57.0095
3.76	-38.9339	-69.0952	-0.0940144	170.966		-41.984		-128.17		-75.3077	49.1724	
	-0.0927707	170.975		-40.6988	-91.2468	-72.7637	40.9691		-42.0145	-127.993
	-41.9673	-128.105	-73.1512	45.5749		-34.7836	-33.3491	-0.276906	-81.8529
	-75.3831	44.9562		-41.9874	-128.121	-0.276198	-81.852		-29.2955	41.0244
4.01	-36.7946	-76.02		-0.102194	158.411		-41.4458	-142.502	-73.3762	29.7077	
	-0.100774	158.419		-39.2903	-111.038	-71.6		18.4409		-41.477		-142.58	
	-41.4284	-142.515	-71.4616	21.1824		-35.3327	-49.8493	-0.310655	-111.157
	-73.601		25.4511		-41.4539	-142.551	-0.309963	-111.159	-29.3311	24.7109
4.26	-34.8803	-85.5078	-0.106569	145.859		-40.9241	-156.883	-72.6021	2.2806	
	-0.104878	145.866		-37.8752	-129.885	-70.5665	-5.4582		-40.9581	-157.066
	-40.9202	-156.968	-70.6934	-4.94285	-36.91		-65.5939	-0.321046	-140.467
	-72.9905	1.48928		-40.9542	-157.049	-0.320274	-140.471	-30.7263	12.6213
4.51	-33.3		-96.8909	-0.10659	133.312		-40.429		-171.318	-71.915		-19.7973
	-0.10452	133.315		-36.4231	-147.029	-70.2385	-32.9586	-40.4628	-171.471
	-40.4327	-171.36		-70.1313	-27.2323	-39.5765	-76.1422	-0.311165	-169.76	
	-72.629		-24.9271	-40.4776	-171.429	-0.310081	-169.767	-32.8748	11.834
4.76	-32.0726	-109.503	-0.114305	120.762		-39.9497	174.268		-72.1797	-47.062	
	-0.11226	120.768		-35.0975	-161.95		-70.2858	-55.9747	-40.0013	174.148	
	-39.97		174.232		-70.1638	-54.6939	-42.2405	-70.7457	-0.343461	160.962	
	-72.2583	-52.8673	-40.0194	174.102		-0.342281	160.953		-33.8957	22.1714
5.01	-31.1301	-123.28		-0.117442	108.211		-39.5131	159.778		-73.2631	-73.9074
	-0.115584	108.218		-33.8377	-175.304	-71.0678	-79.2125	-39.565		159.711	
	-39.5228	159.762		-70.4091	-79.7108	-42.2822	-56.0676	-0.351104	131.682	
	-72.8131	-80.132		-39.5701	159.672		-0.350249	131.669		-32.8277	32.3832
5.26	-30.4038	-137.912	-0.117816	95.6635		-39.0894	145.22		-74.8742	-95.1394
	-0.115901	95.6722		-32.6772	172.322		-71.6386	-99.6811	-39.1548	145.258	
	-39.0958	145.269		-71.3873	-102.617	-39.5824	-48.2667	-0.336825	102.4	
	-74.7295	-102.456	-39.1507	145.164		-0.336084	102.388		-30.5877	31.3092
5.51	-29.8512	-153.323	-0.126208	83.1198		-38.7228	130.639		-76.5787	-112.29	
	-0.124313	83.1289		-31.683		160.583		-72.786		-119.205	-38.7818	130.731	
	-38.7146	130.67		-72.6825	-121.231	-36.1616	-59.4311	-0.3663		73.1111	
	-77.2969	-117.272	-38.769		130.623		-0.365205	73.0989		-28.9441	18.847
5.76	-29.4303	-169.574	-0.130175	70.579		-38.3499	116.125		-78.2373	-121.865
	-0.12874	70.5838		-30.7937	149.784		-73.7383	-137.799	-38.4118	116.196	
	-38.3494	116.159		-74.4981	-139.413	-33.8618	-79.8894	-0.3733		43.8165	
	-79.7174	-120.213	-38.4054	116.184		-0.372446	43.8054		-28.4458	0.0242819
6.01	-29.1372	173.182		-0.129968	58.0397		-37.9939	101.672		-78.6625	-113.824
	-0.129174	58.0422		-30.0481	139.692		-75.2658	-152.336	-38.0581	101.683	
	-37.9952	101.696		-75.7511	-152.529	-32.3212	-102.176	-0.359393	14.5323	
	-80.0396	-114.827	-38.0488	101.765		-0.35884	14.5221		-29.2782	-24.1221
6.26	-28.9216	155.069		-0.138487	45.5023		-37.6656	87.212		-78.2271	-107.577
	-0.136886	45.5046		-29.4121	130.29		-76.4067	-164.349	-37.7258	87.2232	
	-37.6619	87.2578		-76.7637	-158.411	-31.3361	-124.122	-0.388203	-14.7497
	-79.1497	-105.114	-37.723		87.3261		-0.38773	-14.7634	-31.845		-55.7145
6.51	-28.7397	136.319		-0.142439	32.9693		-37.3473	72.7367		-76.425		-105.549
	-0.140619	32.9713		-28.9013	121.557		-77.2935	-167.47		-37.4043	72.7877	
	-37.3421	72.7786		-76.3463	-161.247	-30.7854	-144.602	-0.394246	-44.0364
	-76.8116	-109.504	-37.3984	72.8219		-0.393373	-44.0506	-35.2128	-109.289
6.76	-28.5628	117.141		-0.142306	20.4391		-37.0439	58.2377		-74.3562	-122.216
	-0.140819	20.4419		-28.4929	113.424		-76.9208	-171.439	-37.089		58.3636	
	-37.032		58.3836		-75.9472	-166.293	-30.6172	-163.521	-0.381562	-73.3092
	-74.449		-117.669	-37.0869	58.3627		-0.380754	-73.3256	-35.6689	-179.12
7.01	-28.4164	97.5775		-0.149243	7.91246		-36.7532	43.8387		-72.0967	-135.646
	-0.148285	7.91457		-28.1561	105.746		-75.9391	-176.357	-36.8005	43.9512	
	-36.7493	43.9598		-75.1986	-174.882	-30.692		179.535		-0.411601	-102.571
	-72.6762	-132.099	-36.7939	43.891		-0.41102	-102.588	-33.0521	115.884
7.26	-28.2513	77.9151		-0.151131	-4.61613	-36.4644	29.4734		-70.6185	-153.846
	-0.150746	-4.61389	-27.8508	98.2604		-74.9796	173.857		-36.5146	29.498	
	-36.4662	29.5732		-74.1677	179.165		-30.9676	165.419		-0.418215	-131.821
	-71.2855	-148.94		-36.5071	29.4672		-0.417569	-131.84		-29.5496	74.3554
7.51	-28.0351	58.2032		-0.149124	-17.1422	-36.1782	15.0816		-69.3757	-171.827
	-0.14887	-17.1411	-27.584		90.6428		-74.0314	159.293		-36.2316	15.0406	
	-36.1896	15.168		-72.8211	171.5		-31.3755	153.741		-0.402116	-161.05	
	-70.2098	-168.524	-36.2272	15.0722		-0.401032	-161.07		-28.0674	44.9763
7.76	-27.8003	38.9224		-0.154543	-29.671		-35.9232	0.631274	-68.1886	168.024	
	-0.154245	-29.6659	-27.3847	82.5082		-73.221		144.985		-35.9705	0.630548
	-35.9204	0.731203	-72.026		154.931		-31.8875	145.262		-0.422979	169.722	
	-68.5826	170.081		-35.964		0.583759	-0.421678	169.704		-28.5783	18.6951
8.01	-27.581		20.488		-0.156089	-42.2021	-35.661		-13.803		-67.1351	150.046	
	-0.155087	-42.1956	-27.287		74.061		-72.1361	131.684		-35.7139	-13.8103
	-35.6605	-13.7428	-71.4849	140.059		-32.4334	140.257		-0.416982	140.47	
	-67.3383	149.062		-35.7091	-13.8588	-0.415864	140.456		-30.9826	-2.81187
8.26	-27.443		2.73808		-0.153522	-54.7325	-35.4067	-28.2331	-66.0337	130.214	
	-0.152266	-54.726		-27.3061	65.2949		-71.0902	120.896		-35.459		-28.2452
	-35.41		-28.2288	-70.6195	125.904		-32.8985	139.342		-0.388928	111.211	
	-66.1657	129.992		-35.4565	-28.3413	-0.388419	111.201		-35.4802	-10.7775
8.51	-27.4601	-14.5447	-0.157919	-67.2671	-35.1706	-42.6978	-65.059		110.115	
	-0.156424	-67.258		-27.5079	56.1315		-69.7296	108.74		-35.2271	-42.7594
	-35.1727	-42.7248	-69.6524	108.517		-33.0229	140.819		-0.398237	81.9196	
	-65.2364	109.7		-35.2203	-42.8084	-0.397769	81.905		-38.4986	5.6646
8.76	-27.6311	-31.3724	-0.158244	-79.8065	-34.94		-57.1583	-64.2666	87.5317	
	-0.15667	-79.7933	-27.9211	46.7217		-68.4185	91.4989		-34.9931	-57.2324
	-34.9358	-57.1588	-68.5452	88.6435		-32.5461	143.023		-0.381937	52.5397	
	-64.2991	88.6603		-34.9882	-57.2899	-0.381413	52.5213		-37.8002	25.6429
9.01	-28.0076	-47.6952	-0.156132	-92.3489	-34.7116	-71.6286	-63.7173	65.2289	
	-0.153844	-92.3323	-28.5873	37.0483		-67.4791	69.8588		-34.7682	-71.7187
	-34.7084	-71.6051	-67.4312	66.9698		-31.5785	143.284		-0.356876	23.0678	
	-63.5678	66.4644		-34.7635	-71.7161	-0.35632	23.0426		-34.1768	24.238
9.26	-28.6905	-63.4296	-0.161556	-104.886	-34.4947	-86.1018	-63.0506	43.0993	
	-0.159743	-104.874	-29.6286	27.2043		-66.7861	48.4074		-34.5612	-86.1418
	-34.4992	-86.1108	-66.8762	46.1574		-30.4028	140.938		-0.396636	-6.40273
	-63.0746	43.1263		-34.5628	-86.1648	-0.396856	-6.43231	-33.6906	-4.4035
9.51	-29.7586	-78.9298	-0.161979	-117.419	-34.2879	-100.542	-62.5519	20.392	
	-0.160074	-117.409	-31.206		16.9973		-66.7249	25.9338		-34.3477	-100.606
	-34.2945	-100.581	-66.6268	26.0668		-29.3602	136.701		-0.426301	-35.7613
	-62.7737	18.9232		-34.3571	-100.609	-0.42717	-35.7921	-34.4882	-52.9411
9.76	-31.382		-94.7316	-0.158266	-129.956	-34.0828	-114.995	-62.2959	-4.17576
	-0.156031	-129.944	-33.6231	6.10638		-66.3522	4.42089		-34.1421	-115.063
	-34.0881	-115.019	-66.5581	6.78028		-28.5413	132.11		-0.432268	-64.9952
	-62.6082	-5.29732	-34.1499	-115.012	-0.434011	-65.026		-34.0136	-117.876
10.01	-33.9099	-111.83		-0.161804	-142.499	-33.891		-129.481	-62.4388	-29.3341
	-0.159864	-142.487	-37.8875	-4.81279	-66.1761	-15.444		-33.9605	-129.531
	-33.8931	-129.449	-66.2045	-13.755		-27.8492	128.131		-0.467147	-94.205	
	-62.4899	-29.0556	-33.9543	-129.498	-0.468894	-94.2347	-31.3736	179.55
10.26	-38.1477	-135.534	-0.161565	-155.051	-33.703		-143.932	-62.6639	-53.2583
	-0.159545	-155.036	-45.0876	20.0875		-66.0518	-34.919		-33.7747	-143.96	
	-33.6999	-143.878	-66.2475	-35.3388	-27.1011	124.961		-0.473528	-123.436
	-62.4206	-51.4274	-33.763		-143.944	-0.475181	-123.466	-27.5849	133.946
10.51	-42.4555	169.969		-0.158552	-167.605	-33.5105	-158.357	-62.9027	-75.6971
	-0.156587	-167.593	-46.1432	73.8852		-66.2472	-54.914		-33.5843	-158.41	
	-33.5097	-158.347	-66.5628	-55.5207	-26.1495	121.766		-0.458847	-152.667
	-62.5811	-74.1675	-33.5749	-158.396	-0.460791	-152.695	-25.0164	99.902
10.76	-42.3619	103.687		-0.163849	179.837		-33.3366	-172.78		-63.163		-98.0353
	-0.1616		179.849		-41.3959	127.106		-66.501		-72.795		-33.4115	-172.89	
	-33.3317	-172.833	-67.0166	-73.9326	-25.0028	117.088		-0.481588	178.098	
	-63.0295	-99.0934	-33.4028	-172.866	-0.484113	178.071		-24.0646	68.9734
11.01	-37.673		48.7719		-0.165201	167.277		-33.1597	172.795		-63.3754	-121.402
	-0.163487	167.289		-34.5134	124.223		-66.6081	-90.147		-33.2383	172.661	
	-33.1505	172.755		-66.9041	-91.0623	-23.7968	109.751		-0.476949	148.843	
	-63.4854	-121.87		-33.2302	172.675		-0.479879	148.817		-24.5025	37.7674
11.26	-32.8352	26.0172		-0.164249	154.721		-32.9845	158.317		-63.9315	-144.155
	-0.162832	154.732		-30.9795	112.12		-66.453		-107.371	-33.0592	158.239	
	-32.9773	158.311		-66.6655	-108.379	-22.7382	99.6437		-0.45227	119.565	
	-63.8008	-143.846	-33.0559	158.209		-0.455587	119.539		-26.4772	1.69466
11.51	-29.9091	10.8273		-0.17199	142.167		-32.8217	143.832		-64.152		-168.388
	-0.170298	142.175		-28.6611	99.7202		-66.0949	-126.879	-32.8989	143.787	
	-32.8238	143.838		-66.2666	-128.501	-22.0128	87.1238		-0.469042	90.2415	
	-64.1078	-166.171	-32.8953	143.726		-0.472325	90.2161		-29.4839	-51.3857
11.76	-27.9199	-2.55786	-0.175556	129.616		-32.6611	129.354		-64.4991	168.474	
	-0.173555	129.62		-26.9912	87.2225		-66.062		-148.754	-32.7349	129.29	
	-32.6645	129.355		-66.0628	-150.324	-21.7097	73.026		-0.468002	60.8857	
	-64.3558	168.685		-32.737		129.275		-0.471279	60.864		-30.1831	-119.471
12.01	-26.5371	-15.158		-0.175614	117.071		-32.504		114.938		-64.3518	144.014	
	-0.173959	117.078		-25.801		74.4345		-65.8165	-173.314	-32.5781	114.797	
	-32.501		114.901		-65.773		-174.03		-21.9115	57.9792		-0.455944	31.5419	
	-64.4329	143.132		-32.5781	114.808		-0.459273	31.5209		-27.7809	176.813
12.26	-25.5627	-27.1602	-0.182971	104.534		-32.3603	100.453		-64.3936	118.167	
	-0.181563	104.541		-24.9844	61.0242		-65.8572	158.716		-32.4341	100.324	
	-32.3534	100.457		-65.8098	158.693		-22.7036	42.5931		-0.488579	2.23184	
	-64.3166	115.773		-32.4349	100.319		-0.492443	2.21347		-24.1889	133.687
12.51	-24.8935	-38.2559	-0.186261	92.002		-32.209		85.9761		-64.4328	90.2775	
	-0.184872	92.0098		-24.4668	46.9476		-65.7879	129.003		-32.287		85.8794	
	-32.202		85.9756		-65.8198	130.041		-24.1465	27.7904		-0.498355	-27.0378
	-64.1634	87.789		-32.2865	85.8647		-0.501719	-27.0539	-21.9536	104.401
12.76	-24.4702	-48.5497	-0.185102	79.4743		-32.0547	71.5006		-64.1772	60.0717	
	-0.183184	79.4769		-24.1899	32.1307		-65.8613	98.6993		-32.135		71.4144	
	-32.0491	71.5069		-65.9148	100.76		-26.4316	14.8116		-0.484869	-56.2592
	-63.9241	58.8339		-32.1424	71.3951		-0.488314	-56.2728	-21.0278	80.6589
13.01	-24.3296	-58.1169	-0.190337	66.9477		-31.9159	57.0432		-63.6856	28.1876	
	-0.188246	66.948		-24.15		16.6002		-65.9264	67.3591		-32.0013	56.9483	
	-31.9103	57.0086		-65.9238	68.7773		-29.8305	7.39032		-0.498696	-85.5037
	-63.4841	28.9431		-32.0056	56.9671		-0.501948	-85.5161	-21.0733	61.3201
13.26	-24.4		-67.0064	-0.190643	54.4189		-31.7818	42.5477		-62.8043	-3.48971
	-0.188723	54.4163		-24.317		0.336307	-65.8199	32.6346		-31.8714	42.5031	
	-31.7738	42.5333		-65.9272	34.4286		-34.0803	14.0449		-0.49162	-114.857
	-62.6118	-2.00808	-31.8745	42.5045		-0.495086	-114.871	-21.7833	46.7929
13.51	-24.6487	-74.9705	-0.187584	41.8874		-31.6493	28.0692		-62.0618	-34.5815
	-0.186291	41.8824		-24.6725	-16.8963	-65.69		-2.56659	-31.7408	28.0827	
	-31.638		28.0292		-65.6978	0.860871	-36.8032	38.5205		-0.479619	-144.218
	-61.7941	-32.5006	-31.7402	28.0704		-0.483386	-144.232	-22.6955	37.6139
13.76	-25.0621	-81.569		-0.19124	29.356		-31.5294	13.5851		-61.1408	-65.4301
	-0.189665	29.3482		-25.2093	-35.3997	-65.3102	-33.907		-31.6233	13.6534	
	-31.5225	13.5247		-65.2453	-32.6319	-36.5071	67.0774		-0.515809	-173.51	
	-61.0358	-63.042		-31.6198	13.6022		-0.519579	-173.522	-23.3454	31.4131
14.01	-25.5979	-86.4994	-0.189443	16.8196		-31.4083	-0.88889	-60.2324	-93.7138
	-0.188448	16.8056		-25.8798	-55.6913	-64.417		-62.9784	-31.4963	-0.776943
	-31.4056	-0.951336	-64.4531	-63.5512	-33.9601	83.839		-0.51824	157.253	
	-60.2803	-92.657		-31.49		-0.800509	-0.522894	157.249		-23.6175	24.3508
14.26	-26.227		-89.5379	-0.184742	4.27514		-31.288		-15.3548	-59.4849	-120.644
	-0.183697	4.26256		-26.6131	-78.1574	-63.3777	-91.9586	-31.3583	-15.2027
	-31.2858	-15.4082	-63.324		-93.2509	-31.421		87.475		-0.496766	127.993	
	-59.636		-120.982	-31.3545	-15.2093	-0.501575	127.993		-23.8959	12.5908
14.51	-26.8447	-90.6327	-0.187041	-8.27951	-31.1787	-29.8196	-59.0101	-144.974
	-0.18675	-8.29031	-27.3604	-102.733	-62.3738	-119.441	-31.2389	-29.677	
	-31.1777	-29.8539	-62.2929	-120.353	-29.3025	84.564		-0.512695	98.6905	
	-58.9895	-145.978	-31.2367	-29.6798	-0.517792	98.6967		-24.8157	-4.96683
14.76	-27.3246	-89.8269	-0.185886	-20.8397	-31.066		-44.3142	-58.4552	-169.168
	-0.185511	-20.8473	-27.9264	-129.606	-61.1436	-145.07		-31.1173	-44.172	
	-31.0634	-44.325		-61.1608	-146.001	-27.4444	77.7262		-0.507424	69.361	
	-58.4089	-169.264	-31.1187	-44.2131	-0.512124	69.3698		-26.9968	-29.7783
15.01	-27.5633	-87.772		-0.182664	-33.4028	-30.9451	-58.7597	-57.7552	167.98	
	-0.182194	-33.4124	-28.1584	-157.795	-59.9297	-168.02		-30.9977	-58.6712
	-30.9527	-58.7373	-60.1567	-168.616	-25.8061	67.4136		-0.489296	40.0194	
	-57.8058	168.111		-30.9982	-58.6988	-0.493299	40.0348		-30.7638	-72.5863
15.26	-27.5366	-85.2021	-0.187444	-45.9675	-30.8426	-73.2002	-57.0843	146.302	
	-0.186908	-45.9749	-28.0006	173.446		-58.9185	168.832		-30.8926	-73.1932
	-30.8502	-73.1808	-58.9639	168.365		-24.4914	53.966		-0.51421	10.6693	
	-57.1802	146.758		-30.8937	-73.1883	-0.517177	10.6852		-32.5433	-139.231
15.51	-27.3105	-82.7028	-0.188418	-58.5362	-30.7373	-87.5985	-56.4582	125.808	
	-0.187739	-58.5418	-27.5217	145.55		-57.7634	146.878		-30.7855	-87.7056
	-30.7412	-87.5887	-57.7597	146.711		-23.6012	37.8811		-0.51918	-18.6795
	-56.5002	126.097		-30.792		-87.6862	-0.521799	-18.6603	-30.6323	152.976
15.76	-26.9399	-80.5097	-0.185998	-71.1003	-30.6326	-102.013	-55.7397	105.599	
	-0.185626	-71.1058	-26.8854	118.862		-56.5834	125.394		-30.6808	-102.195
	-30.6286	-102.011	-56.5342	125.036		-23.1625	19.5042		-0.510258	-47.9955
	-55.8163	105.993		-30.6858	-102.19		-0.512646	-47.974		-26.3278	106.838
16.01	-26.4337	-78.8415	-0.190841	-83.6659	-30.5254	-116.46		-54.9337	86.2093	
