! MARKI MICROWAVE INC.
! Email:             	info@markimicrowave.com   				Phone:   408-778-4200
! Model Number:      	CBR16-0003						Date:    07/12
! Filename:		CBR16-0003.S3P						Version: 1.0
! Description:       	3-port S-parameter data for Bridge Coupler CBR16-0003
! Frequency Range: 	10 MHz to 3 GHz		
! Port Configuration:	PORT 1: INPUT, PORT 2: COUPLED and Port 3: Output


! S3P File: Measurements: Mag<S11> Ang<S11> Mag<S12> Ang<S12> Mag<S13> Ang<S13>! row 1 
!			  Mag<S21> Ang<S21> Mag<S22> Ang<S22> Mag<S23> Ang<S23>! row 2 
!			  Mag<S31> Ang<S31> Mag<S32> Ang<S32> Mag<S33> Ang<S33>! row 3 



# Hz S  dB   R 50
10000000 -52.282864 83.754532 -15.67896 -0.49186572 -1.5670134 -1.301762
-15.748223 -0.10280456 -50.764286 149.86646 -56.900387 -70.843872
-1.5776229 -1.2955924 -71.374367 -141.70441 -48.866203 65.932648
29987500 -60.731289 51.972256 -15.724875 -1.8122723 -1.5746148 -3.2653806
-15.716247 -1.8535374 -52.617325 178.46486 -62.476551 5.2978568
-1.5735339 -3.2886419 -65.686714 36.462376 -61.792774 9.9133005
49975000 -64.386765 2.9596229 -15.755823 -3.1201222 -1.5706615 -5.4831181
-15.738674 -3.0600834 -52.237274 169.75545 -58.964714 27.526367
-1.5741955 -5.4729681 -58.479481 47.793446 -56.108696 63.561378
69962500 -60.896507 -36.51757 -15.757278 -4.3601637 -1.577867 -7.6754441
-15.747104 -4.3896055 -50.548729 177.66254 -57.043007 9.1148758
-1.5749472 -7.6169047 -56.500164 6.8388286 -57.866039 -28.409134
89950000 -55.328976 -45.191593 -15.76739 -5.6117945 -1.5797645 -9.8418713
-15.749889 -5.5769963 -50.809414 173.62177 -57.651119 -0.7305429
-1.5803487 -9.7842817 -56.621773 5.4209571 -66.583694 23.118269
109937500 -60.013988 -42.251778 -15.770485 -6.7288284 -1.5785085 -12.021818
-15.764176 -6.7430348 -51.211327 170.20062 -56.137653 -1.5785257
-1.5805914 -11.985991 -55.860668 0.92532599 -58.335781 15.83968
129925000 -55.2337 -47.264515 -15.773083 -7.9232988 -1.5834771 -14.20496
-15.74941 -7.9423704 -52.448433 166.58505 -57.46785 -5.3259425
-1.5812542 -14.161623 -57.962692 0.68304181 -66.230148 -5.397459
149912500 -52.218529 -63.591721 -15.763268 -9.1296005 -1.5826913 -16.37332
-15.770909 -9.0827551 -51.982231 165.33054 -56.151371 -14.161432
-1.586452 -16.33128 -56.938805 -20.056446 -57.895336 -49.978813
169900000 -48.723946 -68.877541 -15.772202 -10.29782 -1.58857 -18.537006
-15.756567 -10.253307 -53.100327 166.75829 -57.286308 -21.661839
-1.5859301 -18.455862 -58.19286 -23.011927 -56.403473 -61.177219
189887500 -47.055653 -63.976929 -15.761551 -11.486256 -1.5892707 -20.66897
-15.756705 -11.417432 -52.570255 161.31961 -58.11451 -14.260036
-1.589681 -20.645853 -58.313042 -19.368044 -56.06601 -59.461319
209875000 -48.199955 -65.147034 -15.758836 -12.678895 -1.5931528 -22.858885
-15.750708 -12.633892 -54.576355 159.43607 -57.476353 -23.090178
-1.5905892 -22.808754 -57.229259 -22.673452 -53.756973 -77.388786
229862500 -47.620575 -65.079559 -15.761273 -13.856562 -1.5960027 -24.995838
-15.757499 -13.857363 -54.944546 168.24443 -57.51046 -25.383596
-1.5932056 -24.973335 -56.755974 -24.434172 -53.588017 -78.209816
249850000 -45.54829 -72.373695 -15.759305 -15.106434 -1.5959594 -27.192209
-15.754061 -15.04305 -56.757584 167.29137 -57.757648 -35.331924
-1.593374 -27.133352 -57.15892 -38.918037 -52.251003 -78.6092
269837500 -45.209282 -79.048836 -15.762296 -16.186449 -1.595193 -29.34836
-15.761364 -16.268795 -56.31012 155.37877 -58.96965 -36.80077
-1.6012613 -29.305353 -58.892376 -30.59782 -51.139919 -88.653198
289825000 -44.495762 -75.946327 -15.77701 -17.442837 -1.5954289 -31.487225
-15.759547 -17.546104 -57.791164 136.05252 -58.239506 -44.324471
-1.6040369 -31.49972 -58.461231 -38.748329 -50.686073 -102.10234
309812500 -43.302803 -82.000542 -15.766918 -18.634033 -1.5996813 -33.661705
-15.761863 -18.641865 -61.730743 144.8166 -60.559978 -37.826778
-1.6024027 -33.65374 -57.697384 -42.566422 -51.518753 -105.38393
329800000 -43.696449 -78.707024 -15.772308 -19.829834 -1.6114002 -35.827797
-15.758872 -19.892492 -61.704247 131.07913 -60.35778 -39.423588
-1.6023126 -35.767818 -59.314335 -32.67252 -52.212837 -96.09478
349787500 -41.770233 -79.74221 -15.764846 -21.037899 -1.6063002 -37.965122
-15.761175 -21.141983 -67.287781 106.3756 -59.302685 -45.419971
-1.6093071 -37.931061 -58.065773 -47.054985 -50.113159 -100.45293
369775000 -41.834766 -85.074005 -15.755595 -22.26008 -1.6062098 -40.106232
-15.755444 -22.253096 -67.486336 95.830017 -60.84161 -46.56329
-1.6086895 -40.089161 -59.786545 -45.948189 -49.895309 -123.41199
389762500 -40.628685 -85.450836 -15.762123 -23.489182 -1.6093255 -42.268429
-15.763054 -23.396936 -68.248146 81.470787 -60.379967 -55.129562
-1.608591 -42.201767 -61.377071 -50.809517 -50.866241 -127.41563
409750000 -40.523582 -86.431625 -15.7611 -24.674004 -1.6127316 -44.40868
-15.759981 -24.647635 -75.545479 166.72386 -58.76609 -50.209095
-1.6096529 -44.381767 -58.312939 -53.500042 -50.608158 -125.55299
429737500 -39.49865 -87.925888 -15.768126 -25.870119 -1.6137398 -46.560898
-15.756283 -25.906502 -74.112823 -93.561935 -59.226101 -58.54623
-1.6217877 -46.567924 -59.321663 -53.369888 -48.844105 -125.06399
449725000 -39.532829 -88.854347 -15.768828 -27.117416 -1.6213353 -48.711197
-15.758855 -27.042803 -65.192726 -56.512383 -59.055622 -57.520412
-1.6196609 -48.690884 -59.647102 -61.007271 -47.641388 -148.37506
469712500 -39.178688 -91.414902 -15.781106 -28.213642 -1.6224047 -50.883976
-15.758272 -28.288713 -63.199959 -46.984032 -60.482643 -68.370949
-1.6180624 -50.826294 -59.57391 -61.281216 -47.243977 -151.74583
489700000 -38.325924 -95.674942 -15.768947 -29.422455 -1.6214375 -53.041298
-15.761336 -29.455475 -59.743111 -38.696152 -59.233017 -57.896721
-1.6213756 -53.008129 -60.300644 -61.769733 -46.410923 -147.51376
509687500 -38.006737 -94.736084 -15.765345 -30.627245 -1.6230594 -55.200554
-15.767064 -30.630312 -57.993614 -44.018665 -60.179611 -63.514702
-1.62428 -55.136517 -60.808636 -71.870399 -45.483135 -160.08023
529675000 -37.593113 -97.763824 -15.762568 -31.79575 -1.6237836 -57.347019
-15.761 -31.792591 -57.348232 -47.399609 -59.055618 -79.291679
-1.6277008 -57.286209 -59.507568 -76.333679 -44.626915 -162.39417
549662500 -37.278656 -97.146019 -15.762467 -33.021252 -1.6265098 -59.47327
-15.761191 -33.021057 -55.784695 -40.191872 -59.618958 -72.803139
-1.628098 -59.444969 -59.478653 -70.002197 -44.124729 -163.23131
569650000 -37.043072 -99.095779 -15.765526 -34.218502 -1.6228079 -61.637306
-15.77102 -34.221165 -54.23597 -38.862862 -60.031483 -79.60553
-1.6322498 -61.626831 -60.565594 -78.690163 -44.159229 -166.85791
589637500 -36.630974 -101.31055 -15.777081 -35.428566 -1.6308767 -63.791794
-15.755335 -35.311779 -53.301239 -50.803562 -59.117146 -82.722733
-1.6264343 -63.732544 -59.217823 -92.706055 -42.519848 -175.06987
609625000 -36.00095 -103.37326 -15.763677 -36.56102 -1.6328707 -65.947815
-15.766277 -36.560966 -52.723061 -50.637676 -58.967125 -81.33989
-1.6329665 -65.886154 -58.951317 -84.887039 -42.050251 -179.86386
629612500 -35.835354 -105.38017 -15.768515 -37.674694 -1.6292431 -68.121323
-15.768114 -37.812767 -51.779285 -47.886063 -60.020538 -85.696724
-1.6344669 -68.081619 -59.554447 -79.628525 -41.696815 178.0737
649600000 -35.498783 -108.50352 -15.762196 -38.924995 -1.6352499 -70.300354
-15.771656 -38.975105 -52.74353 -42.045246 -58.531853 -82.180595
-1.6352335 -70.233391 -59.810356 -83.508713 -41.588551 171.49025
669587500 -35.296421 -110.43339 -15.779783 -40.129002 -1.6377364 -72.438042
-15.769097 -40.172966 -51.142902 -53.142761 -62.022781 -84.622742
-1.6383868 -72.386871 -60.657669 -81.151016 -41.311565 167.94539
689575000 -34.866596 -111.6158 -15.777347 -41.400501 -1.6359588 -74.546059
-15.777587 -41.345634 -51.800365 -54.159904 -59.827908 -87.753143
-1.6418667 -74.523628 -60.820187 -88.925011 -40.804035 165.6723
709562500 -34.542301 -112.85969 -15.781011 -42.566204 -1.6382556 -76.696899
-15.774354 -42.557728 -51.089611 -59.490353 -58.722843 -92.203651
-1.651363 -76.663803 -61.092148 -102.9344 -40.459278 161.29282
729550000 -34.342419 -113.918 -15.784377 -43.758774 -1.6407541 -78.859627
-15.776486 -43.749928 -50.646599 -59.99189 -59.50491 -83.921021
-1.6424607 -78.845337 -58.800533 -87.862953 -40.225857 157.82304
749537500 -34.299236 -116.22256 -15.770938 -44.902653 -1.639295 -81.029121
-15.77965 -44.947433 -50.022621 -64.087883 -59.051476 -93.074905
-1.6424779 -80.988815 -58.927528 -94.643623 -39.502834 156.98689
769525000 -33.84911 -118.27893 -15.784323 -46.177135 -1.6495401 -83.202217
-15.769701 -46.199577 -49.451054 -63.64608 -58.408463 -90.490196
-1.6429245 -83.154732 -59.954048 -97.589684 -39.687866 153.62672
789512500 -33.566357 -119.22121 -15.783529 -47.312836 -1.6458312 -85.297585
-15.773333 -47.333305 -49.240685 -70.215164 -59.347282 -100.23634
-1.6468784 -85.303406 -58.322987 -93.012688 -38.910748 150.15514
809500000 -33.437462 -120.472 -15.777514 -48.536873 -1.6482285 -87.473412
-15.783922 -48.548061 -48.987354 -77.279762 -59.814377 -100.206
-1.6531326 -87.417091 -60.141144 -97.299469 -38.275345 145.40279
829487500 -33.227016 -122.83132 -15.780554 -49.816917 -1.6511016 -89.628197
-15.772203 -49.701591 -48.467052 -76.120956 -61.547348 -102.55762
-1.6487327 -89.557281 -59.671883 -102.34513 -38.049168 141.39941
849475000 -32.811447 -123.92345 -15.769727 -50.895454 -1.654456 -91.7724
-15.777775 -50.886211 -47.715733 -74.14138 -60.42992 -102.62881
-1.6572896 -91.724831 -59.847984 -101.3843 -37.872086 138.1675
869462500 -32.557064 -126.47248 -15.780191 -52.138046 -1.6542377 -93.937546
-15.772476 -52.047054 -47.47958 -80.285728 -61.356392 -101.19947
-1.6523036 -93.868134 -61.152409 -106.88396 -37.395473 133.15273
889450000 -32.469975 -128.99754 -15.79098 -53.310883 -1.6539468 -96.084572
-15.776778 -53.328072 -46.814125 -77.662971 -60.001484 -120.16494
-1.6561488 -96.073814 -60.793659 -108.26123 -37.030884 131.03311
909437500 -32.298157 -130.49892 -15.779325 -54.531048 -1.6580079 -98.227516
-15.773437 -54.488026 -46.806965 -80.725723 -60.146126 -117.13743
-1.6575384 -98.203613 -59.736301 -115.66596 -36.579693 128.31306
929425000 -31.985277 -131.4769 -15.789106 -55.71666 -1.6538798 -100.39255
-15.774395 -55.694847 -46.270321 -82.707314 -60.964817 -117.0975
-1.6622843 -100.37813 -61.13797 -124.97855 -36.168037 124.87366
949412500 -32.107079 -133.68173 -15.784744 -56.868973 -1.6611608 -102.57667
-15.768809 -56.87302 -46.658825 -83.138069 -60.800972 -121.36959
-1.6589791 -102.48905 -63.281288 -116.98383 -36.006142 119.94118
969400000 -31.802746 -134.23199 -15.782117 -58.076279 -1.6643684 -104.66494
-15.775706 -58.033653 -45.874893 -84.327667 -59.494293 -121.679
-1.6668108 -104.60934 -62.089584 -128.95802 -35.562824 118.00375
989387500 -31.802269 -137.21565 -15.787251 -59.324799 -1.6636891 -106.85374
-15.774252 -59.235477 -45.504215 -85.911346 -60.9338 -130.94101
-1.6663059 -106.7985 -61.420601 -120.5779 -35.346355 114.80653
1009375000 -31.479979 -138.94154 -15.780485 -60.49461 -1.6627619 -108.97689
-15.778259 -60.482048 -45.509594 -90.594055 -62.782852 -132.95499
-1.6652001 -108.94055 -61.397243 -130.0946 -34.811031 110.87191
1029362500 -31.312723 -141.46243 -15.787071 -61.655491 -1.6658342 -111.16416
-15.781239 -61.674343 -45.455654 -88.544754 -62.89357 -132.34741
-1.6734626 -111.10578 -61.391361 -134.64854 -34.554188 107.02139
1049350000 -31.22665 -142.13821 -15.786604 -62.88728 -1.667178 -113.26856
-15.778432 -62.867432 -45.087219 -91.880447 -61.860588 -120.97655
-1.6671995 -113.2787 -61.408134 -123.62868 -34.466564 104.98351
1069337500 -30.968987 -143.50533 -15.791458 -64.118034 -1.6732247 -115.45792
-15.778705 -64.141853 -44.594677 -95.626099 -60.314339 -121.44391
-1.6685925 -115.39704 -63.15971 -129.63492 -34.068439 101.01647
1089325000 -31.021793 -144.88748 -15.788124 -65.299278 -1.6734415 -117.55463
-15.775043 -65.2286 -44.116032 -95.996986 -60.988171 -138.94263
-1.6684607 -117.57154 -60.890892 -137.08185 -33.995338 100.03503
1109312500 -30.86307 -146.87952 -15.781064 -66.482368 -1.6724917 -119.71925
-15.781051 -66.408333 -43.766541 -98.242424 -64.410416 -125.81525
-1.6762751 -119.69621 -62.597637 -149.39194 -33.644199 95.188438
1129300000 -30.715803 -148.42555 -15.792847 -67.681915 -1.6722878 -121.88582
-15.785606 -67.660721 -43.562389 -98.604431 -62.695927 -148.47566
-1.6746401 -121.83118 -61.204784 -142.51491 -33.391781 93.318008
1149287500 -30.552776 -150.42648 -15.791262 -68.899223 -1.6758308 -124.03886
-15.793924 -68.833305 -43.322731 -100.99664 -62.183071 -147.34589
-1.6834168 -123.96793 -62.35297 -145.42705 -32.995483 90.108292
1169275000 -30.485657 -151.09013 -15.791411 -70.033142 -1.6776969 -126.15441
-15.775292 -70.077766 -42.770248 -102.93682 -62.675446 -137.87695
-1.6770713 -126.17741 -64.679268 -140.2709 -32.999046 86.797821
1189262500 -30.310713 -152.5607 -15.786487 -71.232292 -1.6786091 -128.28024
-15.789001 -71.230919 -42.689812 -103.68327 -61.872219 -147.79707
-1.6834859 -128.27003 -62.837204 -144.28596 -32.690479 84.785713
1209250000 -30.271212 -153.76285 -15.788544 -72.446068 -1.6780603 -130.4686
-15.77919 -72.426636 -42.402058 -106.21922 -62.006283 -143.69321
-1.6842608 -130.4377 -62.182793 -146.56517 -32.507584 81.655609
1229237500 -30.228292 -155.59561 -15.789001 -73.604431 -1.6853176 -132.62758
-15.78141 -73.644379 -42.102669 -108.37822 -63.713482 -160.1465
-1.6777042 -132.60736 -63.431091 -150.92224 -32.196396 77.814331
1249225000 -29.930969 -156.61632 -15.786305 -74.847275 -1.6839052 -134.76962
-15.780171 -74.831757 -41.631969 -109.30213 -64.585381 -148.8954
-1.6881387 -134.72861 -64.062492 -143.7041 -32.1436 74.937981
1269212500 -29.845377 -159.1452 -15.782032 -76.004471 -1.6851053 -136.92937
-15.790672 -76.00943 -41.506809 -110.65752 -63.499306 -147.2532
-1.6901926 -136.88055 -64.476997 -152.1395 -31.842789 73.002655
1289200000 -29.859968 -160.03108 -15.795315 -77.267014 -1.6912061 -139.06375
-15.797812 -77.235176 -41.26466 -111.2803 -63.594521 -163.59804
-1.6866866 -139.03151 -64.21077 -169.38376 -31.608568 69.130516
1309187500 -29.650133 -160.54706 -15.799342 -78.370438 -1.6860335 -141.18985
-15.789205 -78.421989 -40.754021 -114.09488 -64.171959 -153.31679
-1.6902131 -141.14351 -63.155437 -158.93137 -31.51339 67.576996
1329175000 -29.78487 -162.68483 -15.794782 -79.612228 -1.691582 -143.35947
-15.791776 -79.646851 -40.702312 -116.05665 -64.464874 -151.14429
-1.6906747 -143.29587 -66.41349 -146.34322 -31.520191 63.944286
1349162500 -29.638638 -164.19185 -15.795482 -80.838913 -1.6900024 -145.50165
-15.795586 -80.857628 -40.477066 -118.99586 -64.855072 -139.8654
-1.6959677 -145.45784 -66.710854 -161.48891 -31.272537 60.536861
1369150000 -29.472504 -165.68362 -15.800611 -82.021065 -1.6922295 -147.65695
-15.792855 -81.952736 -40.24995 -119.63257 -64.881783 -162.28438
-1.6948649 -147.59821 -63.392925 -154.83344 -31.186314 57.538853
1389137500 -29.330074 -166.83093 -15.788535 -83.222786 -1.6947554 -149.77458
-15.791225 -83.226463 -40.169815 -121.80767 -64.317528 -149.70432
-1.6963598 -149.7646 -66.324448 -144.76779 -30.961163 55.003708
1409125000 -29.267807 -168.07675 -15.799499 -84.446991 -1.7011942 -151.93581
-15.7943 -84.383774 -39.836163 -124.52763 -66.054276 -165.72209
-1.6988072 -151.91136 -65.071228 -168.51314 -30.657602 52.087666
1429112500 -29.24448 -169.7832 -15.806458 -85.597427 -1.6989588 -154.11205
-15.790965 -85.588203 -39.533966 -125.02982 -68.652969 -161.18562
-1.6990392 -154.04517 -66.282654 -132.64912 -30.707916 49.273067
1449100000 -29.068911 -170.71962 -15.798591 -86.80323 -1.6991435 -156.21391
-15.798933 -86.827919 -39.213837 -126.28445 -64.39856 -155.24976
-1.7041286 -156.22771 -65.931885 -136.68842 -30.567081 46.477085
1469087500 -29.042746 -171.76646 -15.800543 -88.033722 -1.7017491 -158.42352
-15.798306 -88.005577 -38.942509 -129.11917 -63.479904 -156.80328
-1.7085675 -158.33919 -65.123253 -156.06938 -30.454987 43.532837
1489075000 -29.051319 -174.16077 -15.803242 -89.226906 -1.6997238 -160.52492
-15.804236 -89.1157 -38.734673 -129.52997 -64.111794 -148.59979
-1.7044234 -160.4841 -63.663589 -159.56538 -30.320602 41.794186
1509062500 -28.887796 -174.74072 -15.805018 -90.357613 -1.7025586 -162.68037
-15.805548 -90.368782 -38.564762 -130.31984 -64.455551 -154.4059
-1.7055787 -162.60147 -65.809814 -153.72664 -30.181524 37.543892
1529050000 -28.887972 -176.03244 -15.804239 -91.613655 -1.7041651 -164.8103
-15.794263 -91.545876 -38.248184 -133.67737 -64.889023 -154.23625
-1.7061012 -164.76523 -64.560852 -147.54414 -30.060741 34.264263
1549037500 -28.823355 -177.48462 -15.807061 -92.784889 -1.7019008 -166.96571
-15.805905 -92.828766 -38.105907 -134.89378 -66.353737 -173.47153
-1.7068347 -166.90622 -65.868027 -169.07269 -29.997974 31.645325
1569025000 -28.828156 -178.13287 -15.809197 -93.948097 -1.7046231 -169.1165
-15.810171 -93.966125 -37.808384 -136.50574 -66.282967 -157.39063
-1.7081755 -169.07109 -65.469872 -167.19939 -29.762379 28.619843
1589012500 -28.830963 -179.43752 -15.815681 -95.173782 -1.7058232 -171.28459
-15.79941 -95.159203 -37.76302 -137.96349 -66.48362 -152.05624
-1.7086455 -171.22462 -64.477753 -156.0199 -29.607763 26.076225
1609000000 -28.676798 178.43823 -15.811121 -96.322151 -1.7157564 -173.42784
-15.802397 -96.309715 -37.513519 -140.09486 -64.624046 -168.61897
-1.7089148 -173.35117 -65.842484 -147.13315 -29.521456 22.733545
1628987500 -28.687321 177.43117 -15.817775 -97.53817 -1.7117854 -175.58319
-15.801626 -97.482071 -37.258091 -141.85887 -66.282722 -155.75459
-1.7070539 -175.47173 -64.057983 -148.35226 -29.436096 20.188976
1648975000 -28.559423 176.23709 -15.82204 -98.748665 -1.7160009 -177.66803
-15.810328 -98.749443 -37.002209 -142.61223 -65.233696 -157.13164
-1.7117492 -177.64029 -65.869484 -163.38196 -29.532267 16.652832
1668962500 -28.562046 174.92805 -15.82566 -99.932152 -1.7106905 -179.82484
-15.80549 -99.941437 -36.961632 -144.57214 -65.023087 -155.89529
-1.7138692 -179.81334 -66.449417 -165.28133 -29.359072 13.91155
1688950000 -28.515779 174.05013 -15.81912 -101.10724 -1.7143087 178.03543
-15.808054 -101.11508 -36.686722 -144.75909 -64.121979 -148.35735
-1.715449 178.07437 -63.152519 -155.66591 -29.328583 11.317294
1708937500 -28.413242 172.89987 -15.811519 -102.36879 -1.719256 175.87701
-15.812445 -102.33622 -36.548737 -147.91232 -64.11985 -164.75383
-1.7152064 175.91222 -63.662441 -177.52652 -29.210045 8.9480896
1728925000 -28.38755 171.52443 -15.810594 -103.55137 -1.7142859 173.7
-15.815839 -103.50156 -36.361801 -148.56876 -64.729233 -153.46527
-1.7196205 173.79092 -63.380634 -172.5036 -28.925589 4.6905866
1748912500 -28.366983 170.03185 -15.828726 -104.72054 -1.7120636 171.57298
-15.808147 -104.70953 -36.065262 -150.32559 -63.476219 -154.58778
-1.7162334 171.58664 -64.089256 -164.58868 -28.927946 2.223093
1768900000 -28.39076 169.9489 -15.821317 -105.91721 -1.7185667 169.4156
-15.811078 -105.90734 -35.950214 -151.0135 -63.621788 -167.55612
-1.7190257 169.47612 -62.186134 -160.25435 -28.990437 0.19150622
1788887500 -28.364628 168.51067 -15.828308 -107.13438 -1.7262917 167.28604
-15.808162 -107.18183 -35.679447 -153.76668 -63.3493 -169.5471
-1.7173781 167.30298 -62.538513 -159.08347 -28.970467 -3.6135886
1808875000 -28.351252 167.13782 -15.824528 -108.2795 -1.7250575 165.15233
-15.824404 -108.27209 -35.633408 -154.55745 -61.116486 -158.81093
-1.7255913 165.1833 -62.092495 -163.71103 -28.962088 -7.3098779
1828862500 -28.27754 165.75307 -15.827355 -109.38654 -1.7185982 163.01266
-15.826752 -109.53988 -35.497349 -155.40602 -63.557014 -163.76878
-1.7222782 163.01669 -63.026688 -164.07657 -28.941582 -9.3460941
1848850000 -28.315445 165.6353 -15.837118 -110.64104 -1.7244287 160.86194
-15.821087 -110.69316 -35.245262 -156.83704 -62.121754 -159.18983
-1.7220826 160.90659 -63.894398 -168.77219 -28.826042 -13.461205
1868837500 -28.193859 163.58891 -15.836618 -111.79848 -1.72356 158.6965
-15.820091 -111.83752 -35.246277 -158.89827 -63.57732 -168.51477
-1.7189949 158.7511 -63.84597 -167.93655 -28.762402 -15.879391
1888825000 -28.263012 163.32375 -15.827245 -113.0209 -1.7222915 156.55017
