!Keysight Technologies,N5245A,MY52451697,A.10.60.06
!Date: Wednesday, November 28, 2018 16:10:37
!Correction: S11(Full 3 Port(1,2,4)) 
!S12(Full 3 Port(1,2,4)) 
!S14(Full 3 Port(1,2,4)) 
!S21(Full 3 Port(1,2,4)) 
!S22(Full 3 Port(1,2,4)) 
!S24(Full 3 Port(1,2,4)) 
!S41(Full 3 Port(1,2,4)) 
!S42(Full 3 Port(1,2,4)) 
!S44(Full 3 Port(1,2,4)) 
! Description:       	4-port S-parameter data for Directional Coupler CBR17-0026
!Port Configuration: Port 1 = Input ; Port 2 = Coupled ; Port 3 = Output
!S3P File: Measurements: <S11,S12,S14>,
!<S21,S22,S24>,
!<S41,S42,S44>:
# Hz S  RI   R 50
10000000 0.0067897094 0.0010445754 0.14639688 -0.0017821382 0.8506915 -0.01690237
0.14626491 -0.0021195242 0.0062196786 0.00030928443 -0.0036851615 0.00017515819
0.84972984 -0.016668534 -0.0040475708 0.00061664841 0.0062984452 0.00086180319
42487500 0.0070141801 0.0016784568 0.14491759 -0.0088587776 0.84680998 -0.068261482
0.14453694 -0.0088212993 0.00405765 0.0002618662 -0.0026717333 0.0021031024
0.84676123 -0.068096131 -0.0026340941 0.0021905478 0.0068283924 0.0010643526
74975000 0.0067082918 0.0030947535 0.14333557 -0.014397211 0.84130663 -0.12162904
0.14313087 -0.014465466 0.0041174409 0.0013133262 -0.0014959224 0.0023383286
0.84129286 -0.12176283 -0.0015560392 0.0023658457 0.0074940105 0.0018158865
107462500 0.007406502 0.0042539346 0.14201751 -0.019650878 0.83181983 -0.17392161
0.14184056 -0.019680772 0.0036776236 0.0023926115 -0.00071693893 0.0024168196
0.83207315 -0.17380475 -0.00071376847 0.0023477792 0.0087939706 0.0030510742
139950000 0.0081981327 0.0055960915 0.14074773 -0.024863793 0.81921721 -0.22543861
0.1406222 -0.0248954 0.0040310686 0.0034892326 -9.760286e-005 0.0022726515
0.81915325 -0.22554004 -0.00010429315 0.0022050142 0.009414454 0.0038158682
172437500 0.0091718687 0.0065883361 0.1394054 -0.029850449 0.80337036 -0.27587077
0.13930798 -0.029803284 0.0044583157 0.0045065437 0.00030840532 0.0021405432
0.80329639 -0.27576607 0.00031872536 0.0020910478 0.010402336 0.0044429302
204925000 0.010149802 0.0075824223 0.13798638 -0.034936439 0.78409958 -0.32512042
0.13809559 -0.034918986 0.0048004184 0.0055959164 0.00068477861 0.0019761859
0.78417331 -0.3251746 0.00062937988 0.0019598959 0.011935277 0.004966985
237412500 0.010695138 0.008244358 0.13653359 -0.03984933 0.76260471 -0.37315693
0.13624418 -0.040016484 0.0055557499 0.0064162277 0.00081672735 0.0018919007
0.76229173 -0.37299916 0.00088035146 0.0018994238 0.012852026 0.0052551902
269900000 0.011965996 0.0095455432 0.13453327 -0.044590645 0.7372548 -0.41986135
0.1345876 -0.044781413 0.0058041713 0.0077954177 0.001168268 0.0016450152
0.73777127 -0.41968545 0.0011803705 0.0015681587 0.014246265 0.0050611347
302387500 0.013196841 0.0093911774 0.13278994 -0.049643461 0.70959169 -0.46419272
0.13261905 -0.049610212 0.0067162011 0.0086467154 0.0014808697 0.0014191753
0.70989579 -0.46432301 0.0013903574 0.0013961872 0.015609439 0.0044935639
334875000 0.013922878 0.0095831817 0.13062567 -0.054359477 0.67961919 -0.5068332
0.13046668 -0.054494653 0.007529845 0.0094422493 0.0014375863 0.0011476538
0.6792981 -0.50666469 0.0014031797 0.001265147 0.016252941 0.0040661902
367362500 0.01520542 0.0099595152 0.12850273 -0.058998514 0.64693284 -0.54764181
0.12836325 -0.058956292 0.0084343506 0.010278175 0.0015784121 0.0010189785
0.64694297 -0.54750317 0.0015882347 0.0010032952 0.017351858 0.0034681552
399850000 0.016525786 0.01069257 0.12613805 -0.06365788 0.61131847 -0.58600932
0.12596783 -0.063602723 0.009463734 0.011019219 0.0017546671 0.00083433278
0.61139697 -0.58606106 0.0018423757 0.00081287703 0.018877979 0.0024859344
432337500 0.017380167 0.011037684 0.12361187 -0.068119153 0.57396847 -0.62258267
0.12339664 -0.068051785 0.010392141 0.01168122 0.0019020435 0.0005517567
0.57374805 -0.62265003 0.0019873653 0.00058158231 0.02000287 0.0018755957
464825000 0.01850017 0.01127125 0.12085301 -0.072474286 0.53393805 -0.65658021
0.12080955 -0.072331905 0.011339186 0.012266533 0.0020588015 0.00035949831
0.53432071 -0.65708154 0.0021409367 0.00031815114 0.02108448 0.00078943191
497312500 0.019227972 0.011835448 0.11791433 -0.076759048 0.49221587 -0.68824726
0.11795602 -0.076734096 0.01244356 0.012742902 0.002133884 3.330889e-005
0.4924157 -0.6886667 0.0020864983 0.00010460724 0.022259213 -0.00055224285
529800000 0.019956801 0.01181568 0.11500965 -0.08087799 0.44883966 -0.71740925
0.11496591 -0.08091218 0.013583605 0.013359839 0.0020574746 -0.00029593566
0.44866222 -0.71727324 0.0020343398 -0.00022741557 0.022981124 -0.0021429549
562287500 0.021293812 0.011381939 0.11193073 -0.084898941 0.40354347 -0.74367261
0.11185259 -0.08495716 0.014967822 0.013707984 0.0020215488 -0.00057169836
0.40346864 -0.74325913 0.0020137145 -0.00046369855 0.023377113 -0.0038688073
594775000 0.022891436 0.011161312 0.10870102 -0.088931024 0.356278 -0.76685518
0.10861056 -0.088870518 0.01621056 0.013977132 0.0019852358 -0.00070072163
0.35628179 -0.76669401 0.0019109009 -0.00064682198 0.024342082 -0.0054663774
627262500 0.02370197 0.011190684 0.10530842 -0.092677809 0.30829871 -0.78736514
0.10531236 -0.092708811 0.017570965 0.014213085 0.0017085077 -0.00083346007
0.30815694 -0.78741276 0.0017910026 -0.0008923182 0.024596501 -0.0072081573
659750000 0.024826251 0.010978483 0.10184304 -0.096367754 0.25896522 -0.80452651
0.10184317 -0.096285298 0.019026823 0.014395414 0.0015872541 -0.0010714852
0.25899708 -0.8046754 0.0015832074 -0.0011120645 0.024540316 -0.0093693994
692237500 0.025944019 0.010522978 0.098303325 -0.099823669 0.20889223 -0.81834865
0.098290369 -0.099791899 0.020352857 0.014476891 0.0014333894 -0.0013287329
0.20900291 -0.81835651 0.0013872707 -0.0013268086 0.024715113 -0.011835463
724725000 0.026974827 0.010244561 0.094653517 -0.10327034 0.15798266 -0.82953501
0.094666533 -0.1033203 0.021846835 0.014379734 0.0012792032 -0.001364546
0.15823811 -0.82965952 0.0012375471 -0.0014109869 0.024514947 -0.013761136
757212500 0.027729342 0.0099816648 0.090880036 -0.10669194 0.10627507 -0.83734357
0.090860903 -0.10663385 0.023333663 0.014111619 0.00094440067 -0.0014777668
0.10630985 -0.83771348 0.0009873868 -0.001452782 0.023841228 -0.015888656
789700000 0.028600477 0.0092490586 0.086972624 -0.10988079 0.054508179 -0.84244442
0.086901516 -0.10985176 0.024874661 0.013964674 0.00077885267 -0.0015244333
0.054506905 -0.84234923 0.00078185066 -0.0015291524 0.022740871 -0.018070966
822187500 0.029766763 0.0087116379 0.083026513 -0.11288922 0.0024325068 -0.84351486
0.082910538 -0.11282681 0.026164114 0.013635067 0.00056961959 -0.0015307465
0.0023943598 -0.84359968 0.00061098579 -0.0015437176 0.021990605 -0.020391595
854675000 0.031004278 0.0081476215 0.078812346 -0.11580017 -0.049776234 -0.84130949
0.078712605 -0.11583579 0.027642809 0.013078925 0.00037987009 -0.0015401435
-0.049628582 -0.84181881 0.0004746491 -0.0015532611 0.021014869 -0.022755712
887162500 0.031837177 0.0078492314 0.074598119 -0.11864307 -0.10171247 -0.83686858
0.074609287 -0.11860166 0.029071236 0.012670915 0.0002411114 -0.0014291087
-0.10174955 -0.83725977 0.00024795163 -0.0013951827 0.019470928 -0.024723673
919650000 0.032538433 0.0071593816 0.070326403 -0.12135139 -0.15292874 -0.82871884
0.070359431 -0.12127481 0.030401912 0.012066308 6.8360801e-005 -0.0013909776
-0.15302259 -0.82912791 1.8737432e-005 -0.0013831913 0.017521011 -0.026530972
952137500 0.03323983 0.0064890436 0.065936536 -0.12382026 -0.2035569 -0.81709349
0.065889739 -0.12381918 0.031729329 0.011400403 -6.5814544e-005 -0.0013245281
-0.20348383 -0.8174324 -4.2564305e-005 -0.0012829852 0.015512886 -0.028417377
984625000 0.034301274 0.0058085071 0.061364476 -0.12624088 -0.25357744 -0.8025502
0.061392993 -0.12622125 0.033112951 0.010699432 -0.00013172498 -0.0011909392
-0.25387862 -0.8032766 -0.00014375687 -0.0011813424 0.013205148 -0.030190723
1017112500 0.035183627 0.0047499076 0.056769565 -0.12837079 -0.30269971 -0.7855379
0.056756243 -0.12849823 0.034430668 0.00975757 -0.00025936682 -0.0010712954
-0.30283895 -0.7856012 -0.00018664512 -0.0011613679 0.010823799 -0.031671461
1049600000 0.036274843 0.0040807538 0.052106209 -0.1304588 -0.35018164 -0.76506639
0.052072708 -0.13055103 0.035685595 0.0089964923 -0.00025134237 -0.00098642311
-0.35047424 -0.7652005 -0.00030011733 -0.00098827144 0.0081211077 -0.032679737
1082087500 0.037304211 0.0033545138 0.047319837 -0.13244089 -0.39668828 -0.74163806
0.047308132 -0.13240385 0.036925513 0.0079933982 -0.00029115734 -0.0008859947
-0.39680776 -0.74170625 -0.0002010821 -0.00085686485 0.00522837 -0.033721566
1114575000 0.037972204 0.0024865423 0.042410929 -0.13410097 -0.44131538 -0.71538597
0.042471323 -0.13415144 0.038153961 0.0067608859 -0.00028398097 -0.00081323116
-0.44148967 -0.71572459 -0.00025985102 -0.00076894998 0.0019023219 -0.034537561
1147062500 0.038667522 0.0018500679 0.037505303 -0.13567644 -0.48427689 -0.68646514
0.037519585 -0.13564304 0.039321192 0.0055706645 -0.00030281302 -0.00073413615
-0.48468432 -0.68689001 -0.00026112952 -0.00071015605 -0.0012971471 -0.034852348
1179550000 0.03919106 0.00099166611 0.032513607 -0.13716684 -0.52580452 -0.65508163
0.032526918 -0.13711616 0.040345773 0.0042175394 -0.00028800941 -0.00054884289
-0.52607006 -0.65535367 -0.00031168244 -0.00052967516 -0.0042920639 -0.034338865
1212037500 0.039818998 -8.2908344e-005 0.027448956 -0.13833205 -0.5650543 -0.62146282
0.027348286 -0.13832965 0.041380096 0.0029137286 -0.00020836068 -0.00047369453
-0.56507295 -0.62144864 -0.00022267747 -0.00041545159 -0.0073757879 -0.033912212
1244525000 0.040573895 -0.00099571876 0.022319652 -0.13924097 -0.60211271 -0.58528739
0.022345159 -0.1392785 0.042237274 0.0014179597 -0.0001359758 -0.00038056655
-0.60189509 -0.58494461 -8.7724235e-005 -0.00038292902 -0.010548775 -0.03339491
1277012500 0.041302327 -0.0021820385 0.017142028 -0.14010884 -0.63650846 -0.54660237
0.017136626 -0.14005129 0.04320943 -4.2869262e-005 -1.3443461e-005 -0.00034946704
-0.63671964 -0.54679751 1.9005825e-005 -0.00038980728 -0.014136694 -0.03265034
1309500000 0.041824307 -0.003403303 0.011944052 -0.14064425 -0.66843414 -0.50624084
0.011904774 -0.14070667 0.044017877 -0.0017072049 3.8399136e-005 -0.00045743861
-0.66886204 -0.50631768 7.7519071e-005 -0.00044474186 -0.01754565 -0.031212023
1341987500 0.04260917 -0.0040924954 0.0067071519 -0.14118706 -0.6982612 -0.46372727
0.0066098785 -0.14113228 0.044782892 -0.0033274509 0.00013071268 -0.00045387729
-0.69849437 -0.46391398 0.00014830299 -0.00038474647 -0.02055279 -0.029256651
1374475000 0.043123845 -0.0055254442 0.0014817212 -0.14132789 -0.72488874 -0.41952586
0.0014416247 -0.14133608 0.045556277 -0.0049966821 0.0001891237 -0.00046648519
-0.72531426 -0.41981548 0.00018848275 -0.00049138546 -0.023859339 -0.02706763
1406962500 0.043688748 -0.0061059291 -0.0038087028 -0.14133699 -0.7493301 -0.37391323
-0.0038507497 -0.14126183 0.046154458 -0.0067056441 0.00027017295 -0.00047035102
-0.74909598 -0.37391955 0.00030102042 -0.00046488055 -0.02691308 -0.024801737
1439450000 0.044084743 -0.0075518736 -0.0091022598 -0.14116609 -0.77067405 -0.32711834
-0.0091350731 -0.14111747 0.046584409 -0.0084431376 0.00034294708 -0.00052342523
-0.77071428 -0.32726589 0.0003229467 -0.00047680704 -0.029253079 -0.021943819
1471937500 0.044293422 -0.0087860115 -0.014362208 -0.14077821 -0.78879952 -0.27879634
-0.014401709 -0.14078896 0.04715668 -0.010322649 0.00045019313 -0.00056238024
-0.78908598 -0.27892238 0.00040809618 -0.0005848048 -0.031547356 -0.018927701
1504425000 0.045382153 -0.010247289 -0.019681638 -0.14018518 -0.80428958 -0.22959925
-0.019648835 -0.14014611 0.04742479 -0.012077432 0.00048942998 -0.00065244443
-0.80418789 -0.22964403 0.00048272545 -0.00068112178 -0.033819739 -0.015395115
1536912500 0.046056446 -0.011413831 -0.024877835 -0.13937853 -0.81646776 -0.17964403
-0.024912518 -0.1392975 0.047750235 -0.013947995 0.00053286768 -0.00073859002
-0.81649244 -0.17974994 0.00049878523 -0.00074181746 -0.035674118 -0.01161501
1569400000 0.046449482 -0.012509748 -0.030084914 -0.13840802 -0.8254295 -0.12911369
-0.030107046 -0.13841791 0.048100434 -0.01575545 0.00045131633 -0.00091999257
-0.82577205 -0.12920102 0.00048145576 -0.00096076971 -0.037488066 -0.0076767658
1601887500 0.046732299 -0.013447586 -0.035224639 -0.13718155 -0.83154589 -0.078278601
-0.035217501 -0.13711609 0.048286941 -0.01757599 0.00046898841 -0.0010363675
-0.83139396 -0.078170508 0.00048590451 -0.0010750107 -0.038798925 -0.003652096
1634375000 0.047158848 -0.014732689 -0.040348768 -0.13583411 -0.83433443 -0.026782233
-0.040358368 -0.13574463 0.04827087 -0.019278655 0.00046902988 -0.0011205483
-0.83407873 -0.02679307 0.00042018091 -0.0010763104 -0.039084494 0.0009555826
1666862500 0.047463242 -0.01601732 -0.045410074 -0.13421562 -0.83393592 0.024468116
-0.045423575 -0.13411008 0.048187364 -0.02107556 0.00036147769 -0.0012281161
-0.83414203 0.024695715 0.00034916381 -0.0012025876 -0.039603654 0.00511635
1699350000 0.047911536 -0.01781287 -0.050419234 -0.13238105 -0.8306374 0.075463593
-0.050406214 -0.13244689 0.048125573 -0.022907889 0.00039269123 -0.0013173567
-0.83080339 0.07578823 0.00038674616 -0.001397884 -0.03948155 0.009140661
1731837500 0.048219047 -0.019273318 -0.055331994 -0.13050322 -0.82426769 0.12658998
-0.055371225 -0.13045308 0.04796569 -0.024686536 0.00031105225 -0.0015111149
-0.82402122 0.12640546 0.00031725827 -0.0015093278 -0.038773585 0.013392727
1764325000 0.048600316 -0.020580284 -0.060186893 -0.12824096 -0.81424272 0.17699863
-0.060198318 -0.12832898 0.047786076 -0.026429147 0.00019236933 -0.0016760512
-0.81430137 0.17680141 0.00022194543 -0.0016512028 -0.038017318 0.017879004
1796812500 0.04916643 -0.021713933 -0.064911589 -0.12590346 -0.80106151 0.22647516
-0.064933755 -0.12590052 0.047408283 -0.028142666 0.00011686066 -0.0017234207
-0.80173892 0.22650491 0.00016887124 -0.0016899648 -0.036288343 0.022521425
1829300000 0.049112186 -0.023121847 -0.069637708 -0.12337468 -0.78536284 0.27503717
-0.069656603 -0.12333353 0.047066811 -0.029805582 -2.9864697e-005 -0.0017535893
-0.78616607 0.27524242 -2.135736e-005 -0.0018105252 -0.034185618 0.026650555
1861787500 0.049302697 -0.024402451 -0.07422401 -0.1207341 -0.76723093 0.32288855
-0.074213915 -0.1206978 0.046484724 -0.031438079 -0.00016528515 -0.0019508192
-0.76708889 0.32269898 -0.00012703757 -0.0018666148 -0.031930014 0.030664669
1894275000 0.049286306 -0.026239095 -0.078678988 -0.11785066 -0.74562144 0.36908531
-0.078664511 -0.11774729 0.04582642 -0.033179741 -0.00033918957 -0.0019655463
-0.74560755 0.36936542 -0.00029223066 -0.0020219695 -0.029684706 0.034394111
1926762500 0.049992286 -0.027958663 -0.083077855 -0.11476818 -0.7211206 0.41413328
-0.083032586 -0.11472136 0.045311164 -0.034765728 -0.00043805936 -0.0020785057
-0.72133297 0.41413426 -0.00050316012 -0.0021655054 -0.026838034 0.038390379
1959250000 0.050055053 -0.029993583 -0.08730866 -0.11162917 -0.69423878 0.45753771
-0.087302998 -0.11150894 0.044646792 -0.036546417 -0.00066630787 -0.0021005594
-0.69441605 0.45769292 -0.00066595385 -0.0021160378 -0.023339739 0.041855011
1991737500 0.050135311 -0.03154771 -0.091405861 -0.10823185 -0.66473985 0.49906296
-0.091379993 -0.10822532 0.04377808 -0.038144793 -0.00088266254 -0.0021589783
-0.66460103 0.49916053 -0.00092874892 -0.0021634214 -0.019452615 0.045204498
2024225000 0.050300118 -0.033209398 -0.095406443 -0.10475612 -0.6324805 0.53886658
-0.095308721 -0.10458862 0.043020338 -0.039848197 -0.0010405016 -0.0021726566
-0.63228714 0.53856277 -0.0011350397 -0.002201627 -0.015600928 0.048095834
2056712500 0.050343994 -0.034968659 -0.099241197 -0.1010425 -0.5978986 0.57630306
-0.09927237 -0.10101573 0.042206366 -0.041529756 -0.0013054042 -0.0021959627
-0.59789437 0.5761779 -0.0012286957 -0.00220959 -0.011025362 0.050609477
2089200000 0.050082915 -0.036890302 -0.10289794 -0.097226724 -0.56126201 0.61180639
-0.10292286 -0.097155698 0.041337956 -0.042879134 -0.0013414823 -0.0021267289
-0.56107545 0.61168855 -0.001419339 -0.0021607392 -0.0060828985 0.052419003
2121687500 0.049570803 -0.038987979 -0.10652051 -0.093246974 -0.52266502 0.64476913
-0.1066023 -0.093321264 0.040408041 -0.044674449 -0.0016397848 -0.0021020253
-0.52245736 0.64509416 -0.0016308923 -0.0021022891 -0.0015380003 0.054366395
2154175000 0.049657613 -0.041355863 -0.10991737 -0.089190587 -0.48185822 0.67534155
-0.10983624 -0.08914391 0.039294679 -0.046275795 -0.0019575739 -0.0020614706
-0.48180816 0.67531061 -0.001914941 -0.0020783311 0.0033010277 0.056432839
2186662500 0.049281526 -0.043741792 -0.11309776 -0.084962651 -0.43934739 0.70345443
-0.11306296 -0.084912218 0.038308535 -0.047914017 -0.0021069851 -0.0020245572
-0.43904132 0.70337141 -0.0021721853 -0.0019887139 0.0086292941 0.057277322
2219150000 0.049041409 -0.045771781 -0.1161947 -0.080672614 -0.39513865 0.72878867
-0.11617892 -0.080604538 0.037287284 -0.049374472 -0.0024036006 -0.0018626445
-0.3950986 0.72905678 -0.0023942522 -0.0018697234 0.013923035 0.05810716
2251637500 0.048615143 -0.047851011 -0.11905753 -0.076209396 -0.34930891 0.75138742
-0.11903712 -0.076143757 0.036131926 -0.050931025 -0.0026119093 -0.0016449101
-0.3495988 0.75148821 -0.0025274893 -0.0016297468 0.019877277 0.057893973
2284125000 0.047874816 -0.049833313 -0.12177654 -0.071657866 -0.30269372 0.77113551
-0.12174926 -0.07159204 0.034965523 -0.052237876 -0.0027971114 -0.0014987526
-0.30275014 0.77134168 -0.0027803103 -0.0015022928 0.025261935 0.057591267
2316612500 0.046783805 -0.052229885 -0.12437562 -0.067073286 -0.25458547 0.78799206
-0.12432098 -0.066996738 0.033845931 -0.053700197 -0.0030055949 -0.0013782958
-0.25461265 0.78835261 -0.0029959893 -0.0013246783 0.03033457 0.056667157
2349100000 0.04585759 -0.054750372 -0.12665276 -0.062256418 -0.20574452 0.80203974
-0.12666042 -0.062213827 0.032660898 -0.055156194 -0.0031880827 -0.0011301413
-0.20557746 0.80182445 -0.0031569451 -0.0010884599 0.036101796 0.055152714
2381587500 0.044950642 -0.05708015 -0.12885936 -0.05749559 -0.15605961 0.81271547
-0.12884411 -0.057422251 0.031417161 -0.056691486 -0.0033049078 -0.00087481702
-0.15624517 0.81269914 -0.0033444038 -0.00099102443 0.04180995 0.053658292
2414075000 0.043768089 -0.059826944 -0.13079728 -0.052574862 -0.10576244 0.82050723
-0.1308039 -0.052591763 0.030076291 -0.057926551 -0.0034408565 -0.00068554963
-0.1059615 0.82051623 -0.0034836638 -0.00061421702 0.047163695 0.051625844
2446562500 0.042881507 -0.062039528 -0.13262847 -0.047636092 -0.05533994 0.82503015
-0.13256292 -0.047637481 0.028694464 -0.059302129 -0.003637492 -0.00041204994
-0.055309713 0.82488579 -0.0036481435 -0.00039116642 0.052195013 0.048937701
2479050000 0.041250981 -0.064000644 -0.13426088 -0.042645168 -0.0046665967 0.82704556
-0.13422175 -0.042565379 0.027220553 -0.060654741 -0.0036796762 -5.6773581e-005
-0.0046932278 0.82678449 -0.0036602383 -1.4889854e-005 0.057269156 0.045095235
2511537500 0.039852455 -0.066328384 -0.13571586 -0.037543274 0.046138119 0.82525116
-0.13568665 -0.037556771 0.02571073 -0.061884176 -0.003715131 0.00025579013
0.046029169 0.82537192 -0.003713337 0.00026206058 0.06190018 0.041236378
2544025000 0.037899178 -0.068548925 -0.13692106 -0.03242879 0.096781626 0.82054877
-0.1368843 -0.032394242 0.024157029 -0.063006774 -0.0037652992 0.00053471781
0.096942216 0.82066381 -0.0038258682 0.00052498782 0.066247329 0.037358437
2576512500 0.035939775 -0.07084965 -0.13790375 -0.027309211 0.14687714 0.81293118
-0.13792455 -0.027243063 0.022687934 -0.064097583 -0.0038311107 0.00085068156
0.14682569 0.81265759 -0.0038386551 0.00082776166 0.070291027 0.03301667
2609000000 0.03408128 -0.073089719 -0.13876621 -0.022132387 0.19636585 0.80184817
-0.13875294 -0.022158688 0.021061676 -0.065078437 -0.0038305118 0.0011656618
0.19629686 0.80220932 -0.0038432856 0.0011740073 0.07411325 0.027950158
2641487500 0.032122966 -0.075274512 -0.13937481 -0.016903069 0.24504375 0.78801376
-0.13935804 -0.016870575 0.019312138 -0.066161953 -0.0037502744 0.0014966215
0.24512058 0.7881586 -0.0037524817 0.0015490672 0.07778462 0.022134203
