! MARKI MICROWAVE INC.
! Email:             	info@markimicrowave.com   				Phone:   408-778-4200
! Model Number:      	CBR16-0006						Date:    07/12
! Filename:		CBR16-0006.S3P						Version: 1.0
! Description:       	3-port S-parameter data for Bridge Coupler CBR16-0006
! Frequency Range: 	10 MHz to 6 GHz		
! Port Configuration:	PORT 1: INPUT, PORT 2: COUPLED and Port 3: Output


! S3P File: Measurements: Mag<S11> Ang<S11> Mag<S12> Ang<S12> Mag<S13> Ang<S13>! row 1 
!			  Mag<S21> Ang<S21> Mag<S22> Ang<S22> Mag<S23> Ang<S23>! row 2 
!			  Mag<S31> Ang<S31> Mag<S32> Ang<S32> Mag<S33> Ang<S33>! row 3 



# Hz S  dB   R 50
10000000 -48.37487 16.667334 -15.616502 -1.9656811 -1.6053509 -3.6329567
-15.611156 -1.8545915 -60.919991 41.152737 -62.337868 -161.9968
-1.6101239 -3.6016719 -60.258091 134.4951 -46.669117 17.120848
29987500 -48.496017 10.861898 -15.623206 -2.6390891 -1.6060965 -4.8280082
-15.617537 -2.551105 -61.561287 23.00918 -62.886406 -170.5928
-1.6097784 -4.7950459 -61.050571 140.46182 -46.913151 13.14135
49975000 -48.490833 3.9077485 -15.628975 -3.4437435 -1.6071646 -6.2670412
-15.622955 -3.3754225 -61.479324 4.9829068 -63.196171 -175.79829
-1.6094266 -6.2296557 -61.891094 149.22078 -47.226219 7.9553561
69962500 -48.392292 -4.6059399 -15.63521 -4.3786788 -1.6080608 -7.9456267
-15.629184 -4.3285275 -61.532356 -14.298185 -63.540134 -179.25743
-1.6093138 -7.9039726 -62.471054 157.61969 -47.4021 1.4679224
89950000 -48.099312 -13.988018 -15.641026 -5.4425964 -1.6098095 -9.8628511
-15.6343 -5.4164624 -61.296909 -32.894196 -63.55241 175.58762
-1.6094891 -9.8192062 -63.006786 165.63588 -47.554852 -5.9693031
109937500 -47.675999 -23.255201 -15.646452 -6.6392298 -1.6117131 -12.019215
-15.640385 -6.6328487 -61.077789 -51.467049 -63.612751 170.22731
-1.610413 -11.974931 -63.447407 173.59518 -47.647156 -13.317743
129925000 -47.160267 -29.743473 -15.649296 -7.8348947 -1.613553 -14.198149
-15.641848 -7.8194609 -59.410851 -58.451557 -63.715813 173.00351
-1.6129565 -14.144892 -63.748055 176.38847 -47.10099 -18.116116
149912500 -46.617046 -34.551243 -15.648224 -9.0231085 -1.616789 -16.368887
-15.64139 -9.0005503 -57.908375 -64.078743 -63.829426 176.37386
-1.615618 -16.312479 -63.515572 -179.77582 -46.828732 -25.136961
169900000 -45.946106 -39.903999 -15.64771 -10.197845 -1.6188827 -18.533157
-15.640974 -10.171819 -56.475548 -63.19186 -63.017143 176.20659
-1.618163 -18.478207 -63.09782 -179.87985 -46.544449 -29.549932
189887500 -45.397797 -44.558281 -15.646146 -11.384142 -1.6210709 -20.696873
-15.641047 -11.350886 -55.126617 -63.362995 -62.307755 179.33553
-1.6213155 -20.643215 -62.407578 -179.57491 -46.086765 -35.185226
209875000 -44.689926 -50.156109 -15.644728 -12.565515 -1.6225992 -22.862793
-15.63937 -12.538217 -53.59293 -63.049278 -61.577038 -177.98628
-1.6238619 -22.810808 -61.741009 -178.20061 -45.748413 -41.424873
229862500 -44.009117 -55.22464 -15.643191 -13.75219 -1.6248839 -25.021996
-15.638526 -13.723981 -52.703514 -64.026123 -60.967579 -178.46584
-1.6264466 -24.974062 -61.133511 -179.62921 -45.335983 -46.501419
249850000 -43.486935 -58.693577 -15.641637 -14.942737 -1.6277826 -27.181196
-15.637231 -14.911137 -51.596085 -63.088585 -60.290607 177.45625
-1.6292319 -27.138021 -60.524883 179.04967 -45.01366 -50.129803
269837500 -42.999496 -61.211617 -15.640496 -16.130966 -1.6295654 -29.342916
-15.637321 -16.099728 -50.732845 -62.937176 -60.007622 175.90193
-1.6320137 -29.298159 -60.044395 176.65363 -44.662777 -53.481449
289825000 -42.667667 -64.588936 -15.639599 -17.311579 -1.6316457 -31.501926
-15.63511 -17.293203 -49.79784 -63.15514 -59.518993 173.65254
-1.63401 -31.456652 -59.521931 176.12912 -44.443245 -57.705399
309812500 -42.121574 -68.020622 -15.638948 -18.506899 -1.6343313 -33.6563
-15.634489 -18.48741 -49.116962 -64.03334 -59.449509 171.53307
-1.6361639 -33.610863 -59.308743 172.34134 -44.327747 -60.817883
329800000 -41.651325 -71.522774 -15.638494 -19.703568 -1.6361209 -35.811699
-15.633119 -19.68462 -48.431801 -64.820702 -59.045681 168.46353
-1.6385725 -35.76823 -59.077732 168.26172 -44.142353 -63.804459
349787500 -41.212486 -73.969177 -15.638736 -20.896908 -1.6378925 -37.962833
-15.632524 -20.882259 -47.776939 -66.479675 -58.724628 166.14429
-1.6416386 -37.92532 -58.723602 164.50887 -43.90588 -66.974968
369775000 -40.813995 -75.831375 -15.638585 -22.090355 -1.6402744 -40.118176
-15.631962 -22.079908 -47.122395 -67.488831 -58.371258 163.59361
-1.6430914 -40.083031 -58.563053 161.73561 -43.833012 -70.639488
389762500 -40.432693 -78.189674 -15.638319 -23.283165 -1.6431543 -42.272503
-15.63167 -23.274498 -46.496174 -69.430901 -58.128525 160.44833
-1.6446478 -42.232265 -58.205185 160.09566 -43.732685 -74.200951
409750000 -40.078815 -80.483131 -15.638674 -24.472332 -1.6454297 -44.423332
-15.63063 -24.470316 -45.882584 -70.162117 -57.983429 156.48445
-1.6460049 -44.384918 -57.920551 157.36586 -43.561794 -77.996544
429737500 -39.633362 -82.841858 -15.637456 -25.657606 -1.6472256 -46.576168
-15.6293 -25.673904 -45.312748 -71.790276 -57.813469 155.28847
-1.647639 -46.536236 -57.736031 154.50389 -43.435898 -82.820496
449725000 -39.302952 -85.582283 -15.635997 -26.860174 -1.6492387 -48.728966
-15.627943 -26.860538 -44.731476 -73.21196 -57.451523 153.20493
-1.6496537 -48.683582 -57.459129 152.93945 -43.348385 -87.450798
469712500 -38.940422 -87.649231 -15.634861 -28.056423 -1.650768 -50.881824
-15.627274 -28.057871 -44.176624 -74.445938 -57.450836 151.75325
-1.6510792 -50.833023 -57.404831 150.05354 -43.126545 -91.606422
489700000 -38.677036 -89.746361 -15.635364 -29.246386 -1.6524693 -53.035694
-15.625983 -29.25589 -43.655083 -75.526405 -57.225044 149.7666
-1.6528705 -52.987591 -57.411175 147.85042 -42.888451 -96.008026
509687500 -38.380009 -91.748383 -15.634237 -30.438404 -1.6539909 -55.192017
-15.625723 -30.44838 -43.171585 -76.64476 -57.106304 148.45995
-1.6546032 -55.135887 -57.29863 147.57965 -42.692856 -101.25444
529675000 -38.115147 -93.93396 -15.632568 -31.63022 -1.6563082 -57.349651
-15.625097 -31.642542 -42.790634 -77.485352 -56.957115 146.89098
-1.6555064 -57.289425 -57.07465 147.43343 -42.568321 -106.37845
549662500 -37.865685 -96.2798 -15.632316 -32.812538 -1.6574266 -59.503433
-15.623648 -32.837753 -42.407196 -78.315895 -57.087387 144.53152
-1.6572469 -59.443806 -57.087414 145.78146 -42.336292 -110.47916
569650000 -37.583584 -98.540955 -15.630394 -34.004288 -1.6587853 -61.658421
-15.623688 -34.019741 -42.086632 -79.115845 -56.915684 142.14342
-1.6594367 -61.595959 -57.056389 142.99471 -42.163029 -115.0156
589637500 -37.372509 -100.54061 -15.629313 -35.201359 -1.6600746 -63.815311
-15.62501 -35.20932 -41.802017 -80.105782 -56.870705 140.77156
-1.6620113 -63.747337 -56.946827 140.40823 -42.095154 -119.1716
609625000 -37.1329 -102.5902 -15.630773 -36.392345 -1.6614212 -65.96505
-15.624952 -36.400921 -41.54496 -81.247841 -56.837925 138.15315
-1.6639203 -65.90004 -56.972885 138.67688 -42.008934 -122.92822
629612500 -36.920525 -104.55831 -15.631037 -37.575962 -1.6628976 -68.115517
-15.626075 -37.607414 -41.305622 -82.778732 -56.846439 135.0934
-1.6658847 -68.06144 -56.874329 136.93005 -41.968124 -126.7423
649600000 -36.715099 -106.5163 -15.631349 -38.782146 -1.6649867 -70.270004
-15.627035 -38.797832 -41.057522 -84.268883 -56.736835 131.57256
-1.6675432 -70.217979 -56.773617 133.78239 -41.96413 -130.65881
669587500 -36.5168 -108.37458 -15.63123 -39.983624 -1.6662712 -72.421547
-15.62724 -39.982933 -40.801022 -85.911095 -56.740887 129.1113
-1.6687123 -72.372192 -56.557735 130.2341 -41.913342 -134.51256
689575000 -36.329514 -110.26311 -15.631813 -41.171852 -1.6680374 -74.57209
-15.627872 -41.179089 -40.582554 -87.386024 -56.733356 125.76951
-1.669692 -74.524712 -56.574562 127.05324 -41.900589 -137.72839
709562500 -36.201019 -112.1245 -15.631854 -42.364262 -1.6689937 -76.723869
-15.628481 -42.372356 -40.342312 -88.9627 -56.808819 122.60464
-1.6715515 -76.674164 -56.588322 123.52116 -41.882053 -141.20013
729550000 -36.010067 -113.72119 -15.630056 -43.558292 -1.671104 -78.875549
-15.628681 -43.560535 -40.107433 -90.835983 -56.688206 120.7186
-1.6722885 -78.825768 -56.574837 120.89353 -41.83712 -145.07938
749537500 -35.858688 -115.29855 -15.630761 -44.75592 -1.6728133 -81.024506
-15.628633 -44.757446 -39.846195 -92.725624 -56.828697 119.86453
-1.6737698 -80.975334 -56.749332 118.47762 -41.826031 -148.79465
769525000 -35.668495 -116.68323 -15.630244 -45.946201 -1.674227 -83.175217
-15.628153 -45.953499 -39.603073 -94.451752 -56.841312 118.12859
-1.6752679 -83.125351 -56.666569 116.6673 -41.8414 -152.98329
789512500 -35.522095 -118.20118 -15.628922 -47.146343 -1.6762295 -85.329681
-15.627789 -47.137589 -39.342567 -96.043129 -56.805973 115.37103
-1.6758317 -85.275879 -56.639423 113.45886 -41.879147 -157.48303
809500000 -35.409794 -119.78114 -15.629729 -48.341698 -1.6784022 -87.481812
-15.627572 -48.330208 -39.090027 -97.401283 -56.889462 113.24704
-1.6766919 -87.425934 -56.68766 111.12428 -41.845467 -161.77339
829487500 -35.270416 -121.48388 -15.62948 -49.53138 -1.6795057 -89.63356
-15.627916 -49.518074 -38.865616 -98.698875 -56.800949 111.62604
-1.678634 -89.578384 -56.723469 109.66313 -41.835476 -166.36998
849475000 -35.097542 -122.98355 -15.628153 -50.726372 -1.6809219 -91.786598
-15.627984 -50.710365 -38.643871 -100.0155 -56.669575 109.28527
-1.6811874 -91.730743 -56.682945 108.34167 -41.858376 -171.45227
869462500 -34.976204 -124.51548 -15.627388 -51.927444 -1.6825184 -93.939308
-15.62819 -51.90218 -38.437981 -101.29667 -56.636856 107.52278
-1.6830399 -93.879929 -56.521324 106.23393 -41.928478 -176.94655
889450000 -34.840565 -125.90293 -15.627509 -53.126144 -1.6845578 -96.090012
-15.627682 -53.085648 -38.244316 -102.38474 -56.579697 105.47459
-1.6848391 -96.030983 -56.474045 104.45964 -41.942009 177.69287
909437500 -34.764091 -127.5028 -15.629065 -54.32753 -1.6855607 -98.242317
-15.62707 -54.28529 -38.069172 -103.52299 -56.524529 102.438
-1.6872762 -98.183311 -56.367661 102.44234 -42.034203 172.45261
929425000 -34.656158 -128.99332 -15.628514 -55.522728 -1.6869214 -100.39074
-15.626186 -55.482712 -37.884453 -104.70924 -56.398865 99.982071
-1.6881758 -100.33491 -56.159985 100.19833 -42.022369 166.93979
949412500 -34.574387 -130.64247 -15.62977 -56.718834 -1.6882597 -102.54452
-15.625854 -56.672787 -37.72678 -105.91941 -56.183617 97.191116
-1.689376 -102.4886 -56.13092 98.149124 -41.980774 161.00963
969400000 -34.511948 -132.09697 -15.629524 -57.921967 -1.6895829 -104.69669
-15.62712 -57.868027 -37.557835 -107.04331 -56.163071 94.801094
-1.6914949 -104.64079 -56.01115 95.826401 -41.944561 155.6037
989387500 -34.403427 -133.35889 -15.629719 -59.120499 -1.6906718 -106.84791
-15.62616 -59.059055 -37.400814 -108.30659 -56.10149 93.065651
-1.6924659 -106.78601 -55.95145 93.120781 -41.915413 149.58408
1009375000 -34.323097 -134.51579 -15.629914 -60.313496 -1.6927967 -108.99454
-15.625322 -60.263885 -37.240803 -109.631 -56.11393 90.789734
-1.6938227 -108.93517 -55.90456 90.106087 -41.863277 144.26674
1029362500 -34.269627 -135.86852 -15.629856 -61.508743 -1.694435 -111.14242
-15.625127 -61.455269 -37.081196 -110.93373 -56.105942 88.378441
-1.6947756 -111.0853 -55.797844 88.194038 -41.845329 138.39766
1049350000 -34.184101 -137.02399 -15.630388 -62.706841 -1.6958841 -113.29368
-15.623841 -62.644855 -36.906227 -112.08456 -56.053959 86.84964
-1.6961963 -113.23782 -55.842075 85.738159 -41.734905 132.77199
1069337500 -34.096691 -138.35686 -15.630105 -63.902348 -1.6969522 -115.44378
-15.623805 -63.851677 -36.755077 -113.49449 -55.962162 85.050774
-1.6974277 -115.39082 -55.768055 83.577545 -41.652969 127.07881
1089325000 -33.987125 -139.40126 -15.630342 -65.097656 -1.6981221 -117.58944
-15.623488 -65.048798 -36.590363 -114.72813 -55.898567 82.667389
-1.69841 -117.54066 -55.668182 80.664597 -41.516819 121.29161
1109312500 -33.898407 -140.3699 -15.630687 -66.284012 -1.6992546 -119.7357
-15.623838 -66.236214 -36.454041 -115.83533 -55.866817 79.794411
-1.7002035 -119.69038 -55.669659 78.266884 -41.434216 115.78729
1129300000 -33.821053 -141.15918 -15.629683 -67.475761 -1.7004139 -121.88098
-15.622681 -67.437492 -36.269783 -117.12398 -55.94183 77.427223
-1.7015477 -121.83855 -55.582588 75.915375 -41.26334 110.44431
1149287500 -33.741116 -141.95827 -15.629637 -68.659042 -1.7016889 -124.02928
-15.621367 -68.636459 -36.113445 -118.34504 -55.850517 75.769218
-1.7025895 -123.98784 -55.552563 74.247559 -41.027317 104.53237
1169275000 -33.64872 -142.76994 -15.62816 -69.847649 -1.7029399 -126.17926
-15.621759 -69.824379 -35.95649 -119.4121 -55.795498 72.58886
-1.7045243 -126.13823 -55.505501 72.189728 -40.82843 99.125702
1189262500 -33.545555 -143.7303 -15.626966 -71.049728 -1.7037596 -128.33304
-15.621937 -71.012085 -35.80764 -120.4593 -55.869492 71.158737
-1.7064477 -128.28853 -55.474125 69.486427 -40.598797 93.408089
1209250000 -33.470535 -144.49583 -15.627503 -72.235199 -1.7055386 -130.48058
-15.621891 -72.209969 -35.656796 -121.52534 -55.718239 69.274414
-1.707427 -130.43753 -55.516785 67.329292 -40.317936 87.956963
1229237500 -33.352547 -145.08943 -15.627391 -73.425301 -1.7067111 -132.62804
-15.622039 -73.408867 -35.505363 -122.72883 -55.779823 66.606857
-1.7093405 -132.58394 -55.515987 65.329224 -40.056419 82.829964
1249225000 -33.283955 -145.6075 -15.627724 -74.616661 -1.7081485 -134.78204
-15.622206 -74.597992 -35.353577 -123.74992 -55.784618 63.09774
-1.7107421 -134.72896 -55.53709 62.359451 -39.831017 77.587364
1269212500 -33.196129 -146.34753 -15.626541 -75.810646 -1.7097639 -136.92944
-15.622345 -75.789063 -35.200375 -124.96466 -55.630913 60.405041
-1.7125753 -136.87648 -55.543472 60.123711 -39.554153 72.333961
1289200000 -33.105728 -147.01595 -15.626714 -77.014915 -1.7119173 -139.08749
-15.622114 -76.991692 -35.051739 -126.11298 -55.569126 57.187977
-1.7142936 -139.02965 -55.493492 57.310036 -39.258469 67.103439
1309187500 -32.980171 -147.69615 -15.62627 -78.21666 -1.7140993 -141.23679
-15.622248 -78.192879 -34.919449 -127.2713 -55.442436 54.750175
-1.7159045 -141.18005 -55.458553 54.203762 -38.965233 62.029346
1329175000 -32.838531 -148.36623 -15.625645 -79.414558 -1.715881 -143.38591
-15.621107 -79.38517 -34.791576 -128.42949 -55.395393 52.653767
-1.717307 -143.32901 -55.501106 51.887714 -38.660515 57.358295
1349162500 -32.743977 -149.06425 -15.625315 -80.611916 -1.718159 -145.53691
-15.620586 -80.581551 -34.658737 -129.68361 -55.373859 50.275726
-1.7183473 -145.48126 -55.476131 48.987827 -38.352581 52.544926
1369150000 -32.618469 -149.53302 -15.625817 -81.795242 -1.7199192 -147.68384
-15.620166 -81.778389 -34.516098 -130.92715 -55.219341 46.715302
-1.7193358 -147.63289 -55.42345 46.776726 -38.04491 47.649387
1389137500 -32.460476 -150.07256 -15.624521 -82.993912 -1.7209823 -149.84023
-15.619751 -82.980309 -34.387901 -132.17699 -55.2491 43.818394
-1.7211732 -149.78172 -55.436775 43.665863 -37.733715 43.146381
1409125000 -32.35236 -150.93927 -15.624158 -84.185913 -1.722645 -151.98537
-15.620405 -84.178909 -34.2682 -133.34265 -55.245113 40.567646
-1.7226068 -151.93655 -55.489235 40.379795 -37.405571 38.576706
1429112500 -32.19434 -151.72987 -15.624375 -85.371254 -1.724113 -154.13051
-15.618918 -85.378647 -34.150261 -134.56189 -55.208496 37.557175
-1.7241114 -154.08719 -55.454903 37.794716 -37.024708 34.183323
1449100000 -32.037273 -152.40167 -15.624231 -86.567993 -1.726197 -156.28519
-15.617846 -86.57122 -34.043983 -135.71867 -55.345734 35.065449
-1.7252183 -156.23233 -55.360378 34.624905 -36.660107 29.950943
1469087500 -31.887236 -153.23309 -15.624262 -87.763275 -1.7273399 -158.43027
-15.617306 -87.768837 -33.926521 -136.93727 -55.327797 32.628258
-1.7264544 -158.37961 -55.349663 31.750511 -36.278854 25.901358
1489075000 -31.760962 -153.85672 -15.624578 -88.951279 -1.7286482 -160.58337
-15.617972 -88.95887 -33.803066 -138.12073 -55.46386 29.882519
-1.7277634 -160.52594 -55.327328 29.267649 -35.905266 21.935181
1509062500 -31.642149 -154.55862 -15.625242 -90.15226 -1.7292684 -162.73354
-15.619988 -90.148224 -33.681744 -139.33788 -55.576267 26.259626
-1.7296823 -162.6701 -55.300613 26.396051 -35.559479 18.161997
1529050000 -31.498756 -155.36668 -15.626802 -91.341568 -1.7305758 -164.88136
-15.62006 -91.34613 -33.575497 -140.57236 -55.692928 22.810785
-1.7313436 -164.81769 -55.282234 23.857286 -35.179619 14.40679
1549037500 -31.374907 -156.20111 -15.627456 -92.54364 -1.7319537 -167.0314
-15.619802 -92.530647 -33.465305 -141.83138 -55.748913 20.326054
-1.7327236 -166.95979 -55.264202 21.774008 -34.824425 10.844696
1569025000 -31.232849 -157.09454 -15.628441 -93.740143 -1.7338303 -169.17802
-15.620269 -93.712669 -33.350689 -143.02441 -55.843349 17.695419
-1.7346032 -169.10718 -55.200336 18.603188 -34.483498 7.3191395
1589012500 -31.081274 -157.90771 -15.62883 -94.943146 -1.7356184 -171.3282
-15.619621 -94.911957 -33.240139 -144.2496 -55.694633 14.824473
-1.7357889 -171.2552 -55.071781 15.439939 -34.128513 3.6549227
1609000000 -30.935089 -158.76321 -15.627428 -96.149414 -1.7372887 -173.47849
-15.620454 -96.10302 -33.12159 -145.38268 -55.680519 12.618994
-1.7368801 -173.40292 -55.125019 11.684278 -33.821617 0.24352421
1628987500 -30.787209 -159.67012 -15.627067 -97.344513 -1.7387335 -175.62454
-15.621478 -97.306816 -33.021431 -146.51765 -55.675072 9.4793301
-1.7380393 -175.55273 -55.232704 8.5055704 -33.519474 -2.9642065
1648975000 -30.636524 -160.53362 -15.627797 -98.534569 -1.7403494 -177.77594
-15.622318 -98.504776 -32.90958 -147.68878 -55.656498 7.1813192
-1.7395649 -177.70018 -55.205265 6.6204872 -33.173904 -6.2249961
1668962500 -30.479866 -161.6451 -15.627851 -99.733627 -1.7410887 -179.92249
-15.622901 -99.69986 -32.824337 -148.84247 -55.702122 4.0299277
-1.7414163 -179.84912 -55.206306 3.5502307 -32.860741 -9.392808
1688950000 -30.309782 -162.66734 -15.629066 -100.92635 -1.7426984 177.92754
-15.623023 -100.90621 -32.722233 -149.91972 -55.759682 0.70562255
-1.7431802 177.9982 -55.198414 0.23715007 -32.584869 -12.580993
1708937500 -30.14271 -163.62752 -15.628255 -102.1258 -1.7439414 175.78308
-15.623608 -102.10381 -32.624542 -151.02042 -55.634846 -2.3356352
-1.7447588 175.84935 -55.248707 -3.8601458 -32.307568 -15.643488
1728925000 -29.983568 -164.6539 -15.628813 -103.32426 -1.7452302 173.63544
-15.624936 -103.30976 -32.534046 -152.16553 -55.669998 -6.1014776
-1.746456 173.69891 -55.216679 -8.1272058 -32.026371 -18.870966
1748912500 -29.837345 -165.71817 -15.629658 -104.52071 -1.7461859 171.48958
-15.626037 -104.51142 -32.452446 -153.25197 -55.651394 -10.07402
-1.7469161 171.55055 -55.365761 -11.816009 -31.758738 -21.830685
1768900000 -29.679089 -166.65912 -15.63047 -105.71131 -1.7473351 169.34125
-15.627891 -105.70278 -32.368484 -154.45561 -55.813908 -13.171057
-1.7483628 169.40565 -55.380028 -14.559127 -31.494486 -24.867413
1788887500 -29.538 -167.81311 -15.631827 -106.90949 -1.7488148 167.19373
-15.628587 -106.89966 -32.295994 -155.69881 -55.923683 -16.54175
-1.75012 167.25694 -55.306587 -17.572475 -31.217222 -27.789135
1808875000 -29.395018 -168.88544 -15.633718 -108.10011 -1.7499052 165.0457
-15.629786 -108.09248 -32.214806 -156.82961 -56.056461 -19.051313
-1.7518042 165.10782 -55.396305 -19.978554 -30.960329 -30.660276
1828862500 -29.242691 -169.98434 -15.634517 -109.2968 -1.7508916 162.89972
-15.630185 -109.2854 -32.140629 -157.91956 -56.127331 -22.776995
-1.7529458 162.96007 -55.524448 -24.022678 -30.746004 -33.532913
1848850000 -29.095573 -171.11104 -15.636377 -110.49153 -1.7527725 160.75153
-15.630454 -110.47888 -32.061272 -158.98978 -56.159523 -26.040201
-1.7541277 160.81129 -55.678009 -26.118181 -30.523335 -36.363834
1868837500 -28.953463 -172.40831 -15.635442 -111.67716 -1.7545384 158.60597
-15.631722 -111.67043 -31.99341 -160.09807 -56.188038 -28.74729
-1.7550991 158.66695 -55.892796 -29.046558 -30.293768 -39.258209
1888825000 -28.821638 -173.5782 -15.637066 -112.8724 -1.7558599 156.45772
-15.631449 -112.86071 -31.918312 -161.22432 -56.347321 -30.867268
