! MARKI MICROWAVE INC.
! Email:             	info@markimicrowave.com   				Phone:   408-778-4200
! Model Number:      	CBR16-0012						Date:    07/12
! Filename:		CBR16-0012.S3P						Version: 1.0
! Description:       	3-port S-parameter data for Bridge Coupler CBR16-0012
! Frequency Range: 	10 MHz to 12 GHz		
! Port Configuration:	PORT 1: INPUT, PORT 2: COUPLED and Port 3: Output


! S3P File: Measurements: Mag<S11> Ang<S11> Mag<S12> Ang<S12> Mag<S13> Ang<S13>! row 1 
!			  Mag<S21> Ang<S21> Mag<S22> Ang<S22> Mag<S23> Ang<S23>! row 2 
!			  Mag<S31> Ang<S31> Mag<S32> Ang<S32> Mag<S33> Ang<S33>! row 3 



# Hz S  dB   R 50
10000000 -38.510769 -92.293167 -15.558049 -7.8031478 -1.5896738 0.033832729
-15.666929 -7.92625 -34.546864 -87.960831 -33.793198 89.355209
-1.5790081 -0.20863862 -33.012074 89.334023 -38.896004 -65.921165
28737500 -42.660954 -83.794891 -15.79107 -4.4356542 -1.563114 -2.9452379
-15.802135 -4.4607964 -43.194176 -104.51936 -42.679501 75.700882
-1.5725882 -2.6436453 -42.844563 74.031952 -41.531624 -89.55014
47475000 -49.507381 -83.28463 -15.8235 -4.55796 -1.563017 -5.1175976
-15.835322 -4.6320715 -46.439072 -116.60517 -45.097698 65.817757
-1.5695767 -4.901474 -45.018219 66.359825 -55.224255 -72.095276
66212500 -46.630749 -80.666794 -15.84532 -5.2811236 -1.5646335 -7.0754066
-15.838759 -5.2618952 -48.672199 -131.28581 -47.471134 51.939342
-1.5757651 -7.0138831 -47.423748 48.14463 -48.735119 -76.891106
84950000 -48.373272 -86.865822 -15.835185 -6.1594334 -1.5698394 -9.1202927
-15.848564 -6.141283 -49.327583 -146.80563 -48.861439 43.109425
-1.5796306 -9.1038961 -48.822296 41.617695 -52.716976 -93.282417
103687500 -48.481731 -68.394249 -15.851764 -7.1016283 -1.5717528 -11.199023
-15.849789 -7.0376143 -50.460865 -151.74435 -48.781868 31.977362
-1.5788238 -11.208138 -48.83836 31.725636 -53.125549 -19.321827
122425000 -47.100014 -67.047539 -15.848312 -8.0740566 -1.5753523 -13.246425
-15.850369 -8.0537815 -50.16729 -151.64429 -49.86002 22.156757
-1.5820823 -13.253676 -49.760185 23.792723 -52.60717 -57.532692
141162500 -47.60643 -68.399094 -15.850157 -9.0864515 -1.5746746 -15.283971
-15.857498 -9.0878744 -51.356022 -159.13309 -50.888245 19.755507
-1.5832825 -15.307033 -50.738571 17.304716 -56.377659 -46.401489
159900000 -46.359539 -65.358765 -15.843426 -10.109905 -1.5761287 -17.378595
-15.851763 -10.060056 -52.0606 -153.1239 -51.165115 9.4902563
-1.5852047 -17.334204 -51.430866 10.982541 -51.608162 -67.990036
178637500 -45.798042 -76.090935 -15.84759 -11.207793 -1.5835767 -19.430943
-15.868813 -11.159088 -54.982269 -161.69102 -51.385677 7.1371627
-1.5871445 -19.347193 -51.360207 7.0711479 -53.671032 -62.824219
197375000 -44.846169 -76.283401 -15.855254 -12.278413 -1.579263 -21.454912
-15.852983 -12.232355 -56.126114 -166.28226 -51.504768 0.88697517
-1.58841 -21.395466 -51.97805 0.15668057 -50.98106 -56.638065
216112500 -43.07478 -77.309227 -15.847029 -13.349826 -1.5791925 -23.426596
-15.847349 -13.303538 -56.141624 -170.55261 -52.000927 -5.8121138
-1.5921857 -23.461739 -52.204178 -0.22436142 -52.174358 -65.178284
234850000 -43.33305 -75.507446 -15.843308 -14.450376 -1.5846744 -25.464136
-15.857716 -14.393917 -57.022537 174.19075 -52.44371 -2.4572399
-1.59264 -25.507673 -52.001038 -3.5224175 -51.654938 -43.230072
253587500 -41.58065 -73.363052 -15.856207 -15.476587 -1.5872687 -27.45116
-15.859913 -15.403915 -58.861759 -171.927 -52.194912 -9.9124784
-1.6029067 -27.51543 -52.118599 -1.4758059 -50.077408 -45.273914
272325000 -42.350578 -90.069656 -15.84045 -16.651266 -1.5906494 -29.524918
-15.866197 -16.550808 -58.088253 -171.69516 -54.195187 -13.887692
-1.5944917 -29.541689 -52.904781 -14.916181 -51.298531 -79.360931
291062500 -42.001236 -85.27459 -15.837739 -17.755739 -1.5814785 -31.60236
-15.848658 -17.691608 -65.613815 -174.34752 -53.511871 -17.92099
-1.602478 -31.545433 -52.502583 -18.287766 -48.739037 -65.417404
309800000 -41.533291 -79.129211 -15.850404 -18.86167 -1.5899899 -33.657532
-15.857898 -18.897148 -63.454132 -164.03241 -53.422256 -20.651747
-1.6070958 -33.600834 -53.103523 -18.651152 -48.871738 -69.405098
328537500 -40.602165 -83.240623 -15.850663 -19.89925 -1.5959591 -35.640179
-15.843613 -19.926689 -63.577 -97.7248 -53.004841 -19.75248
-1.6036327 -35.551826 -52.918236 -19.586571 -49.724766 -68.84668
347275000 -40.926727 -90.437248 -15.842792 -21.133102 -1.5983225 -37.70023
-15.853262 -21.050774 -60.302647 -66.76017 -53.238026 -18.253933
-1.6107498 -37.635117 -53.836155 -24.905794 -49.651413 -70.467056
366012500 -39.216461 -87.088013 -15.844336 -22.228691 -1.6022555 -39.691841
-15.862703 -22.118629 -64.933571 -80.868797 -53.648552 -18.514071
-1.6112194 -39.654781 -54.387329 -26.869102 -50.692638 -76.024574
384750000 -39.594143 -89.707428 -15.855302 -23.328468 -1.5988508 -41.74345
-15.849361 -23.232655 -58.367382 -40.572121 -53.395138 -32.703476
-1.6065871 -41.604206 -54.157585 -28.281059 -48.667843 -79.325874
403487500 -38.264153 -92.270416 -15.844042 -24.475058 -1.6061083 -43.749649
-15.853436 -24.360397 -55.404469 -24.264059 -53.0014 -35.040817
-1.6184494 -43.71722 -54.619907 -27.278774 -48.404888 -84.641647
422225000 -39.070747 -94.235504 -15.853556 -25.500921 -1.6067381 -45.784592
-15.858895 -25.524261 -57.566463 -30.79092 -54.784931 -42.992817
-1.6121371 -45.757542 -55.04467 -34.607445 -48.393112 -109.73256
440962500 -38.429642 -95.486664 -15.842203 -26.695831 -1.6075184 -47.805531
-15.846357 -26.608221 -56.697701 -23.437862 -54.056431 -37.28801
-1.6215377 -47.710052 -53.454632 -37.457272 -47.698055 -92.425949
459700000 -37.828182 -96.189957 -15.857925 -27.720188 -1.6139375 -49.827271
-15.856113 -27.70713 -55.025143 -33.244644 -54.26749 -38.345398
-1.6170874 -49.764339 -54.506023 -44.874485 -48.771435 -109.88508
478437500 -37.905312 -97.338661 -15.843863 -28.891287 -1.6110004 -51.824436
-15.853589 -28.841652 -54.557266 -30.120178 -54.390003 -36.288742
-1.6255231 -51.793915 -53.789272 -42.8969 -49.419003 -105.62556
497175000 -37.273449 -100.43488 -15.853329 -29.988329 -1.6087984 -53.867382
-15.845473 -29.96764 -52.442848 -29.700197 -53.873253 -46.643814
-1.6192617 -53.824978 -54.752392 -45.078144 -48.167122 -105.92614
515912500 -37.608818 -98.289864 -15.85579 -31.030659 -1.6074792 -55.912899
-15.850009 -31.110586 -52.388569 -32.151287 -53.782944 -48.766079
-1.6218903 -55.852867 -53.677929 -47.939758 -48.85453 -117.95667
534650000 -36.957283 -102.15154 -15.840133 -32.224884 -1.6200578 -57.915123
-15.854423 -32.240349 -51.486439 -32.913734 -53.550194 -56.079559
-1.6252036 -57.845474 -53.542347 -53.493961 -47.052914 -121.87581
553387500 -36.495495 -105.71893 -15.854718 -33.362637 -1.6195108 -59.945717
-15.852666 -33.353558 -51.149132 -27.411015 -54.530632 -49.040627
-1.6327888 -59.84877 -54.211536 -52.978607 -47.731579 -131.97298
572125000 -36.506912 -103.26244 -15.852227 -34.453648 -1.6303303 -61.970688
-15.866684 -34.456066 -50.829407 -31.622738 -55.404858 -38.935852
-1.6357843 -61.901218 -54.1483 -45.331261 -49.216038 -137.75554
590862500 -35.686691 -104.66062 -15.85256 -35.563541 -1.6298416 -63.999706
-15.840187 -35.554817 -50.433632 -26.004805 -54.599201 -49.441257
-1.6301588 -63.928501 -54.950642 -51.307346 -49.668255 -146.40549
609600000 -35.716377 -106.7198 -15.860341 -36.631256 -1.6222882 -66.030548
-15.854826 -36.629585 -51.226761 -34.263931 -54.459846 -54.557365
-1.6375288 -65.924683 -54.5383 -55.875652 -47.554638 -144.55945
628337500 -35.53278 -108.62681 -15.867152 -37.788315 -1.637995 -67.985252
-15.874061 -37.801113 -50.746006 -35.442745 -54.107529 -58.299496
-1.6398386 -68.026558 -53.394711 -56.324677 -46.795403 -139.2002
647075000 -35.680405 -112.94157 -15.854459 -38.891827 -1.6307842 -69.978783
-15.86105 -38.803349 -50.545937 -43.544216 -54.26936 -56.84898
-1.6450759 -69.99575 -54.644566 -58.173603 -47.370228 -148.4568
665812500 -35.428944 -113.13934 -15.848991 -40.027874 -1.6322962 -72.00563
-15.8625 -39.928482 -49.909542 -54.062149 -54.896679 -60.803341
-1.6431237 -71.966316 -53.778645 -62.463432 -46.197384 -160.81631
684550000 -34.848495 -115.76823 -15.851949 -41.229347 -1.6287643 -74.047852
-15.865013 -41.139561 -48.767334 -54.055412 -54.195126 -63.650459
-1.6452692 -74.035828 -54.062439 -64.941757 -46.120758 -159.66
703287500 -35.190483 -119.22359 -15.861848 -42.315815 -1.6334363 -76.106575
-15.876592 -42.307491 -48.320202 -54.119358 -54.2701 -67.898277
-1.6530356 -76.044296 -54.500187 -67.84082 -46.265545 -164.66655
722025000 -34.045444 -120.4891 -15.864943 -43.393318 -1.6315567 -78.129036
-15.862802 -43.396973 -48.011826 -55.131943 -54.589676 -69.548134
-1.6518621 -78.086739 -54.594959 -63.842915 -46.835011 -176.00366
740762500 -34.553936 -120.59746 -15.867576 -44.493034 -1.632514 -80.12133
-15.863698 -44.495514 -47.356609 -57.733212 -53.945118 -68.151215
-1.6442144 -80.071022 -54.619652 -70.554695 -46.512131 -174.81535
759500000 -34.393192 -121.31579 -15.855303 -45.707405 -1.6340189 -82.175026
-15.869155 -45.624905 -47.028839 -55.636692 -54.395626 -64.495186
-1.6476918 -82.125008 -54.679688 -65.580704 -48.19976 173.93819
778237500 -33.735916 -123.49052 -15.868312 -46.668243 -1.6352509 -84.199158
-15.871856 -46.758541 -47.369389 -53.029289 -54.870102 -72.966187
-1.6474239 -84.092163 -55.57391 -66.32383 -46.762619 151.68782
796975000 -34.050591 -124.433 -15.868987 -47.947151 -1.6433159 -86.198158
-15.87349 -47.784939 -47.143917 -57.430798 -54.680153 -72.003494
-1.6517705 -86.130508 -54.499756 -73.966103 -45.539169 158.36693
815712500 -33.842331 -124.52209 -15.869587 -49.039368 -1.6376619 -88.198692
-15.876222 -48.964672 -47.068855 -56.966915 -55.135399 -73.070702
-1.6614823 -88.199478 -55.045593 -68.089478 -46.163532 151.8903
834450000 -33.272648 -130.276 -15.858863 -50.149212 -1.641807 -90.228157
-15.869018 -50.115467 -46.997078 -63.045094 -54.292759 -77.669937
-1.6505644 -90.198189 -55.3274 -75.29129 -44.536438 153.75775
853187500 -33.230854 -128.14084 -15.870662 -51.218887 -1.6436729 -92.243202
-15.861785 -51.254169 -46.610043 -66.94976 -54.212425 -84.719055
-1.6540786 -92.212135 -54.2034 -83.833855 -43.786652 153.79602
871925000 -33.114239 -129.85312 -15.874824 -52.396152 -1.642897 -94.266594
-15.868203 -52.308674 -46.09663 -70.301476 -54.910763 -71.819672
-1.6605185 -94.226532 -55.119122 -82.758217 -44.786037 142.82869
890662500 -33.287289 -130.36523 -15.88448 -53.508717 -1.6533003 -96.250244
-15.86864 -53.442406 -46.380653 -72.376923 -54.432995 -88.225616
-1.6573001 -96.238754 -54.802952 -82.467552 -43.092594 135.97849
909400000 -33.009926 -133.08878 -15.876753 -54.606529 -1.6482702 -98.304649
-15.873763 -54.5425 -45.723877 -72.430466 -55.875038 -86.351425
-1.6623077 -98.251274 -55.324856 -83.947067 -42.660919 126.64938
928137500 -32.631741 -133.12537 -15.864563 -55.752487 -1.6558781 -100.29691
-15.877677 -55.649376 -45.516491 -75.564827 -55.660793 -88.621941
-1.6627439 -100.28104 -54.975372 -81.109444 -42.660595 117.70614
946875000 -32.78157 -135.3364 -15.876442 -56.827003 -1.6509061 -102.33932
-15.89369 -56.882153 -45.013977 -75.819298 -55.667213 -82.594597
-1.6649115 -102.31161 -54.954666 -81.798698 -42.978222 119.90215
965612500 -32.800629 -136.62114 -15.877855 -57.978874 -1.6544422 -104.37078
-15.896201 -57.988258 -44.569614 -75.827377 -55.502628 -87.869736
-1.6647958 -104.35687 -55.180729 -80.793137 -43.035549 111.86656
984350000 -32.453568 -136.76656 -15.875235 -59.163353 -1.6523029 -106.36384
-15.883631 -59.073399 -44.838573 -76.775452 -54.711075 -87.531929
-1.6677657 -106.32887 -54.067001 -87.577316 -42.934853 111.98699
1003087500 -32.56369 -138.35788 -15.88653 -60.267582 -1.6606584 -108.3884
-15.892066 -60.144619 -44.568565 -80.327599 -54.931732 -93.512459
-1.6697167 -108.29211 -55.621918 -89.54882 -41.610909 101.8699
1021825000 -32.493786 -138.43497 -15.884922 -61.322948 -1.662447 -110.37642
-15.894577 -61.286652 -43.633202 -82.276756 -55.045658 -90.517097
-1.6690507 -110.37665 -55.59721 -87.834404 -41.635887 93.271019
1040562500 -32.420799 -140.26515 -15.89322 -62.440155 -1.6602044 -112.36969
-15.891758 -62.465515 -43.72831 -84.142334 -54.781067 -86.883247
-1.6731615 -112.43293 -54.707096 -91.935104 -41.084232 91.73613
1059300000 -32.166267 -142.42331 -15.887992 -63.660873 -1.6545292 -114.43393
-15.887531 -63.566353 -43.501186 -86.292625 -54.695942 -94.249443
-1.6730231 -114.38439 -55.07951 -94.801918 -40.414303 87.864616
1078037500 -32.084839 -142.21469 -15.896494 -64.750534 -1.6625626 -116.48495
-15.888336 -64.683228 -42.975731 -86.860107 -54.833508 -92.000839
-1.6685696 -116.39666 -54.865273 -94.451843 -39.847218 85.344246
1096775000 -32.035637 -142.06099 -15.893332 -65.811768 -1.6652701 -118.50992
-15.897642 -65.801552 -42.798264 -87.326256 -56.211937 -97.29039
-1.6738822 -118.42892 -56.214485 -99.03421 -39.149624 77.470985
1115512500 -32.031967 -144.81787 -15.899281 -66.936844 -1.6658579 -120.44026
-15.899952 -66.915482 -42.490623 -88.8489 -54.9939 -97.379532
-1.6773007 -120.47047 -55.206078 -93.210602 -40.001541 76.500946
1134250000 -31.817619 -144.77513 -15.89626 -68.003021 -1.6621667 -122.44614
-15.905173 -67.985733 -42.013447 -90.29715 -54.966007 -99.462639
-1.6754419 -122.43905 -55.16618 -102.96325 -38.886349 74.656006
1152987500 -31.892458 -143.34467 -15.892897 -69.155334 -1.6675079 -124.49837
-15.903269 -69.116486 -41.973225 -91.05545 -55.247303 -98.637253
-1.6812385 -124.48563 -55.726814 -103.20777 -38.483841 65.918953
1171725000 -31.651743 -146.7865 -15.893661 -70.244629 -1.6686602 -126.48423
-15.911202 -70.23864 -41.873806 -90.139893 -54.324856 -98.339088
-1.6806427 -126.50279 -54.444275 -100.42014 -38.461647 62.138916
1190462500 -31.765507 -147.15723 -15.905387 -71.370605 -1.6698318 -128.48438
-15.911962 -71.307846 -41.485348 -93.445274 -54.366772 -105.40285
-1.6817849 -128.47801 -54.560116 -103.728 -38.00177 61.785557
1209200000 -31.533525 -147.56851 -15.896787 -72.52861 -1.6663804 -130.56741
-15.906682 -72.552376 -41.121052 -94.255707 -55.277084 -105.70103
-1.6861945 -130.51674 -54.191357 -106.05192 -37.627541 57.976273
1227937500 -31.748634 -148.82602 -15.913392 -73.598633 -1.6700863 -132.59198
-15.912425 -73.565651 -41.381004 -97.122543 -55.559563 -103.85623
-1.6825219 -132.51697 -55.169544 -105.00648 -37.220108 51.411606
1246675000 -31.230848 -147.86186 -15.909162 -74.805801 -1.6734693 -134.64139
-15.918237 -74.748604 -41.124004 -97.117233 -55.100773 -107.52091
-1.6884949 -134.55469 -55.270966 -108.18926 -36.619518 49.190594
1265412500 -31.544138 -149.52594 -15.918939 -75.95446 -1.6752605 -136.61517
-15.918612 -75.758514 -40.997669 -98.047981 -54.805408 -109.18816
-1.6832699 -136.54282 -54.660324 -112.38094 -36.745674 44.916237
1284150000 -31.277788 -151.34001 -15.91032 -76.944756 -1.677997 -138.55376
-15.924468 -76.930077 -40.705929 -99.191765 -54.458168 -111.09603
-1.6862766 -138.55954 -54.862263 -111.37115 -36.300541 41.314796
1302887500 -31.181353 -150.88374 -15.923584 -78.104576 -1.6777592 -140.61765
-15.92512 -78.065742 -40.418617 -100.20717 -54.51268 -114.84854
-1.6902449 -140.58133 -54.40469 -113.31253 -35.762512 39.529053
1321625000 -31.04026 -151.80652 -15.9096 -79.209145 -1.6748137 -142.61298
-15.928244 -79.163467 -40.603039 -101.72774 -54.744625 -119.76353
-1.6858011 -142.63165 -54.007637 -116.33466 -35.152996 37.13559
1340362500 -31.231573 -155.79504 -15.919749 -80.383446 -1.676634 -144.6657
-15.922613 -80.260048 -40.291519 -104.60475 -54.902805 -112.46377
-1.6910293 -144.6134 -55.443947 -111.66623 -35.05751 28.372646
1359100000 -30.928278 -152.46503 -15.923862 -81.415718 -1.6829937 -146.67004
-15.930726 -81.426804 -40.165295 -105.44879 -54.414539 -120.18777
-1.6893934 -146.60144 -54.354366 -117.27737 -35.024132 29.036081
1377837500 -30.806944 -154.59251 -15.928741 -82.498665 -1.6764474 -148.67987
-15.935957 -82.546547 -39.938904 -109.16154 -54.035553 -121.8298
-1.6941512 -148.65727 -54.527313 -112.20831 -34.346519 24.865788
1396575000 -30.696022 -155.37881 -15.933661 -83.678185 -1.6825827 -150.70602
-15.942085 -83.668434 -39.54557 -109.80276 -54.839977 -119.89661
-1.6907597 -150.61873 -54.445004 -123.38425 -34.234898 21.535482
1415312500 -30.519814 -155.73109 -15.928045 -84.773087 -1.677147 -152.73404
-15.928137 -84.77858 -39.455273 -112.13387 -52.983707 -121.22295
-1.6900636 -152.66199 -53.597019 -127.99706 -34.09745 21.229189
1434050000 -30.64868 -156.27045 -15.935054 -85.965561 -1.680927 -154.7545
-15.934625 -85.857285 -39.052223 -113.5158 -53.665745 -121.71005
-1.688701 -154.69232 -53.276863 -123.67006 -33.861301 15.391251
1452787500 -30.348852 -156.86485 -15.932985 -87.041252 -1.6872865 -156.77133
-15.940426 -87.008636 -39.035973 -113.88364 -53.272495 -121.8438
-1.6939858 -156.69359 -53.342419 -127.1774 -33.941902 11.63634
1471525000 -30.356165 -157.41907 -15.934623 -88.165649 -1.6691408 -158.76273
-15.947602 -88.037598 -38.934189 -114.64429 -53.429401 -124.99391
-1.6998391 -158.73534 -54.100964 -127.20216 -33.066463 8.6356449
1490262500 -30.247629 -156.4341 -15.936015 -89.25238 -1.6775199 -160.77177
-15.95575 -89.200211 -39.084358 -114.99301 -53.536087 -132.72096
-1.6983711 -160.75223 -53.260571 -131.291 -32.78371 6.3973885
1509000000 -30.057951 -157.46231 -15.945588 -90.347916 -1.6844661 -162.80389
-15.949068 -90.321358 -38.827393 -115.62024 -52.50732 -127.32732
-1.6951101 -162.74098 -53.070774 -125.46036 -32.930599 1.1959709
1527737500 -30.088572 -160.46486 -15.937472 -91.463699 -1.6834831 -164.77826
-15.951079 -91.483139 -38.818466 -116.64828 -53.137638 -132.75897
-1.6941754 -164.76743 -53.257175 -138.70255 -32.481712 0.4054459
1546475000 -29.913481 -159.11382 -15.961349 -92.542686 -1.6789058 -166.82352
-15.950312 -92.520866 -38.739792 -120.81174 -53.243164 -130.8141
-1.6991578 -166.76649 -53.443531 -131.76372 -32.185505 -5.3025241
1565212500 -29.841154 -161.03761 -15.953108 -93.783226 -1.6801412 -168.84444
-15.957448 -93.603035 -38.795769 -120.99997 -53.344357 -135.29675
-1.6987946 -168.7822 -53.197174 -134.41107 -31.899691 -5.4713545
1583950000 -29.733824 -162.23714 -15.959365 -94.782608 -1.6836567 -170.85251
-15.968641 -94.733887 -38.720066 -125.31779 -53.233566 -137.04822
-1.7003577 -170.74895 -52.820919 -136.85547 -31.669952 -9.176136
1602687500 -29.501217 -162.22232 -15.966899 -95.850929 -1.6842822 -172.8568
-15.952127 -95.858154 -38.590347 -125.50681 -53.094799 -138.92703
-1.7025521 -172.81937 -53.207478 -140.25214 -31.47575 -12.507328
1621425000 -29.510334 -162.99922 -15.960223 -97.051804 -1.6882238 -174.89912
-15.968355 -96.939552 -38.599445 -129.85127 -53.720791 -140.91031
-1.7006081 -174.8427 -53.440556 -135.04036 -31.107824 -16.816959
1640162500 -29.393461 -163.60847 -15.973175 -98.118874 -1.6879358 -176.90511
-15.972359 -98.018623 -38.143154 -129.03867 -51.991901 -140.25148
-1.700251 -176.88644 -52.520668 -143.37698 -31.087599 -18.4837
1658900000 -29.216494 -164.76933 -15.990771 -99.249207 -1.6884577 -178.90814
-15.968018 -99.196625 -37.979782 -130.8383 -52.923759 -143.31953
-1.7056195 -178.83647 -51.838486 -146.43323 -30.960632 -20.64913
1677637500 -29.134958 -165.24768 -15.978933 -100.35363 -1.6832017 179.06114
-15.970127 -100.30526 -37.758617 -132.62163 -52.69276 -147.04318
-1.7039198 179.09277 -53.218964 -149.87308 -30.324301 -23.510359
1696375000 -29.010609 -165.47038 -15.977836 -101.45634 -1.6875707 177.03737
-15.981788 -101.38156 -37.821632 -133.05548 -51.347664 -148.33922
-1.700158 177.09758 -51.867485 -151.03996 -30.779387 -26.811434
1715112500 -29.071831 -166.89445 -15.97158 -102.57198 -1.6902057 175.01828
-15.995738 -102.48854 -37.754288 -133.68886 -52.381149 -151.67961
-1.6980374 175.05899 -51.565079 -150.75316 -30.231819 -29.35281
1733850000 -28.780581 -167.09647 -15.988172 -103.61899 -1.6937504 173.00241
-15.976113 -103.72389 -37.630684 -136.58812 -51.862511 -156.00546
-1.6987134 173.02473 -51.866646 -153.71201 -30.031929 -32.723278
1752587500 -28.669153 -168.61343 -15.990202 -104.741 -1.6886057 170.98184
-15.996183 -104.75975 -37.672478 -136.60629 -52.736645 -157.57248
-1.7032031 171.0455 -52.588341 -158.43523 -29.593031 -35.310593
