!Marki	Microwave	Inc.						
!Sales	Email:	info@markimicrowave.com						
!Support	Email:	support@markimicrowave.com						
!Phone:	408-778-4200							
!Model	Number:	MC16-0222SM						
!Filename:	MC16-0222SM.s3p							
!Description:	MMIC 2-22GHz Coupler							
!Port	configuration:	PORT 	1:	Coupled			
!			PORT 	2:	Output		
!			PORT 	3:	Input		
				
!S3P File:  

!Freq DBS11 AngS11 DBS12 AngS12 DBS13 AngS13 
!	DBS21 AngS21 DBS22 AngS22 DBS23 AngS23 
!	DBS31 AngS31 DBS32 AngS32 DBS33 AngS33

# Hz S  dB   R 50
 
0 -12.105468 0 -54.698724 180 -43.62239 -0 
	-55.910742 -0 -24.012865 -0 -0.57760272 -0 
	-61.881036 180 -0.57113063 0 -24.973689 -0 
0.1 -15.0966 6.4813022 -52.50714 85.541702 -42.343513 -64.675904 
	-54.413043 10.013454 -23.520396 39.826111 -0.31554616 -4.901591 
	-47.15924 -107.07943 -0.31329634 -4.7460016 -24.108236 41.35772 
0.2 -20.051879 10.639314 -52.565764 47.187657 -39.184429 -102.10386 
	-53.559649 29.108444 -24.728276 38.695339 -0.30190476 -7.3239412 
	-39.400872 -104.82307 -0.297409 -7.3136029 -25.205482 39.139668 
0.3 -24.151136 9.2540175 -52.484637 30.673526 -35.38167 -104.3022 
	-53.267095 27.859873 -25.818781 23.580325 -0.33878399 -10.66304 
	-35.508858 -104.12356 -0.3345388 -10.656633 -26.495217 23.119553 
0.4 -23.76424 11.304022 -50.955507 29.286038 -32.925268 -106.80127 
	-52.370551 27.537742 -24.894997 24.842113 -0.34645411 -14.057992 
	-32.94715 -106.56128 -0.33659636 -14.085081 -25.589089 25.039102 
0.5 -23.382571 12.060366 -50.027748 24.971356 -31.100938 -109.74061 
	-51.237212 26.9785 -24.135888 24.147299 -0.43090922 -17.424467 
	-31.101575 -109.20388 -0.41834229 -17.451222 -24.865582 24.965326 
0.6 -22.952334 12.163703 -49.024684 17.210135 -29.514665 -112.53926 
	-49.389247 19.589888 -23.419475 23.080336 -0.39660629 -20.835192 
	-29.534665 -112.12436 -0.38502057 -20.84777 -24.208607 24.215554 
0.7 -22.595079 11.404431 -48.505255 13.191431 -28.257945 -115.11674 
	-48.471546 8.9408942 -22.8489 21.217925 -0.43909988 -24.185063 
	-28.28946 -115.11728 -0.43149646 -24.172913 -23.663848 22.104036 
0.8 -22.312214 10.496558 -48.008238 4.1162096 -27.143563 -118.05189 
	-47.781501 -0.47900021 -22.418167 19.122197 -0.46422695 -27.558757 
	-27.193237 -118.00275 -0.45582854 -27.539358 -23.268942 20.309367 
0.9 -22.103019 9.1212103 -47.401663 0.085520571 -26.167521 -120.99818 
	-47.51099 -3.5370974 -22.110657 16.907057 -0.46757451 -30.881797 
	-26.163167 -120.9024 -0.4590263 -30.862314 -22.940789 18.153032 
1 -21.919623 7.2414963 -47.063549 -5.2174685 -25.381702 -123.9884 
	-47.279202 -8.74179 -21.833338 14.117377 -0.55014712 -34.205923 
	-25.372296 -123.81884 -0.54195558 -34.173343 -22.70375 15.437422 
1.1 -21.709388 5.1402489 -46.583887 -12.211363 -24.586384 -126.86617 
	-46.97025 -13.137765 -21.623874 11.690364 -0.51560283 -37.50893 
	-24.558591 -126.7574 -0.50777414 -37.479729 -22.546605 12.800275 
1.2 -21.523853 2.6032882 -46.421155 -19.572051 -23.928285 -129.93186 
	-46.540147 -20.629449 -21.407272 8.904506 -0.56213744 -40.774765 
	-23.90888 -129.57282 -0.55310851 -40.75237 -22.448528 9.9084697 
1.3 -21.327936 -0.11845689 -46.019543 -26.316971 -23.317791 -132.81431 
	-46.046194 -24.364477 -21.277161 6.4048124 -0.59120348 -44.069889 
	-23.300556 -132.46974 -0.57795222 -44.055809 -22.368881 6.9836792 
1.4 -21.126637 -3.0805025 -45.739365 -29.76234 -22.743436 -135.74699 
	-45.753761 -28.97503 -21.167085 3.9806044 -0.59793687 -47.34974 
	-22.741777 -135.45622 -0.58567839 -47.311239 -22.256236 4.2907753 
1.5 -20.912701 -6.3731276 -45.472443 -33.016179 -22.290112 -138.61368 
	-45.70407 -33.721461 -21.081272 1.4934468 -0.68259973 -50.60451 
	-22.311809 -138.40611 -0.67352951 -50.574243 -22.147096 1.4204055 
1.6 -20.648233 -9.673095 -45.429241 -37.388127 -21.764578 -141.44059 
	-45.462802 -36.023102 -20.940867 -0.17968703 -0.64999752 -53.878703 
	-21.788624 -141.38324 -0.64534099 -53.833263 -21.985885 -0.50463509 
1.7 -20.377199 -12.984722 -45.189439 -39.861251 -21.357676 -144.29916 
	-45.341971 -37.924023 -20.756627 -1.7055157 -0.70351217 -57.076148 
	-21.371957 -144.14156 -0.69538995 -57.047587 -21.776334 -2.5144443 
1.8 -20.101223 -16.327931 -44.790099 -43.443733 -20.975891 -147.26126 
	-45.199586 -39.878455 -20.492776 -2.8100388 -0.73232794 -60.314969 
	-20.973166 -147.04669 -0.72519881 -60.283595 -21.481366 -4.3469894 
1.9 -19.797844 -19.560957 -44.330574 -46.124908 -20.594795 -150.08961 
	-44.893512 -43.028225 -20.161459 -3.6070696 -0.7443994 -63.499182 
	-20.597713 -149.91431 -0.73420421 -63.485698 -21.149041 -5.5233219 
2 -19.514452 -22.679084 -44.185604 -49.250391 -20.322739 -152.93176 
	-44.345567 -47.283993 -19.801713 -4.6100554 -0.82993101 -66.695493 
	-20.316415 -152.89329 -0.82364743 -66.690005 -20.758668 -6.9351094 
2.1 -19.178169 -25.591412 -43.862865 -51.576192 -19.958018 -155.70883 
	-43.798545 -49.280033 -19.3437 -5.0759448 -0.80156699 -69.900971 
	-19.959925 -155.76501 -0.79394718 -69.881271 -20.284336 -7.4768616 
2.2 -18.857468 -28.25286 -43.372788 -53.83995 -19.694957 -158.58445 
	-43.33337 -53.546835 -18.828828 -5.7302203 -0.84974781 -73.060694 
	-19.69393 -158.53574 -0.84233024 -73.038785 -19.747958 -8.6014974 
2.3 -18.532571 -30.68092 -42.775117 -58.642486 -19.429391 -161.39135 
	-42.746948 -57.785905 -18.22716 -6.33616 -0.87865035 -76.269038 
	-19.441924 -161.32639 -0.86933497 -76.236805 -19.145425 -9.5288482 
2.4 -18.214397 -32.826081 -42.001034 -63.762048 -19.171715 -164.16884 
	-41.938933 -62.682038 -17.5789 -7.1581419 -0.88980136 -79.424793 
	-19.173616 -164.03101 -0.87964503 -79.403597 -18.462291 -10.524991 
2.5 -17.964721 -34.661446 -41.532181 -68.601672 -18.999595 -166.94608 
	-41.351911 -67.54647 -16.974921 -8.3679103 -0.97827811 -82.595795 
	-19.01124 -166.80699 -0.97105352 -82.57756 -17.830287 -11.690742 
2.6 -17.698103 -36.311204 -40.932023 -72.117295 -18.740917 -169.66568 
	-40.820282 -72.457134 -16.298243 -9.6741724 -0.9514863 -85.758209 
	-18.747652 -169.57733 -0.94405199 -85.747044 -17.138859 -12.850619 
2.7 -17.480015 -37.6526 -40.477197 -77.55814 -18.572467 -172.33788 
	-40.347369 -78.228092 -15.703815 -11.168085 -1.0017392 -88.881327 
	-18.565761 -172.36392 -0.99386052 -88.889723 -16.545088 -14.251679 
2.8 -17.283822 -38.793722 -39.830612 -84.308703 -18.403431 -174.97365 
	-39.907479 -83.181403 -15.129478 -12.883203 -1.0346729 -92.026981 
	-18.395528 -175.02966 -1.0230629 -92.050744 -15.953071 -15.787046 
2.9 -17.106933 -39.739542 -39.187764 -91.065332 -18.225937 -177.6407 
	-39.225096 -88.853588 -14.595921 -14.610545 -1.0429756 -95.118001 
	-18.227855 -177.67705 -1.0345477 -95.170336 -15.388508 -17.486494 
3 -17.019482 -40.274677 -38.800955 -96.481357 -18.134503 179.66337 
	-38.889249 -95.150063 -14.162524 -16.532486 -1.1306618 -98.231599 
	-18.14791 179.68878 -1.123078 -98.263603 -14.931908 -19.247376 
3.1 -16.903462 -40.784152 -38.32492 -102.02745 -17.941144 177.00072 
	-38.300206 -102.24774 -13.689236 -18.547171 -1.1004595 -101.34435 
	-17.953863 177.0606 -1.0941732 -101.34833 -14.443128 -21.160977 
3.2 -16.864877 -41.012865 -37.89592 -108.34151 -17.835964 174.37063 
	-37.972671 -108.52297 -13.312974 -20.70198 -1.147959 -104.45068 
	-17.838848 174.56453 -1.139362 -104.39572 -14.075644 -23.022274 
3.3 -16.85705 -41.088902 -37.453588 -115.01187 -17.717166 171.80765 
	-37.48236 -114.85635 -12.983512 -22.943936 -1.1760884 -107.54624 
	-17.739944 171.99089 -1.1651533 -107.47357 -13.745749 -25.048664 
3.4 -16.872316 -40.904432 -37.068248 -122.1299 -17.591432 169.21476 
	-37.087514 -121.32065 -12.703323 -25.227218 -1.1789981 -110.57582 
	-17.621482 169.37198 -1.1670753 -110.49912 -13.468714 -27.010008 
3.5 -16.957444 -40.344538 -36.817185 -128.61307 -17.555203 166.72282 
	-36.74634 -128.1113 -12.557722 -27.42622 -1.2590024 -113.60258 
	-17.589681 166.77828 -1.2452598 -113.52271 -13.335246 -28.916727 
3.6 -17.013418 -39.798319 -36.376252 -135.34487 -17.403579 164.18157 
	-36.378651 -134.76337 -12.388514 -29.804683 -1.2136948 -116.64242 
	-17.428488 164.29351 -1.2007785 -116.54809 -13.175418 -31.013301 
3.7 -17.154104 -38.865821 -36.033552 -141.92193 -17.329755 161.74285 
	-36.129962 -141.69248 -12.350255 -32.052591 -1.2460281 -119.66116 
	-17.354538 161.91435 -1.2324829 -119.55571 -13.166517 -33.01811 
3.8 -17.318821 -37.648458 -35.740778 -148.91901 -17.247143 159.23208 
	-35.819475 -148.95646 -12.37807 -34.287963 -1.2518806 -122.69775 
	-17.270074 159.42838 -1.2398033 -122.60212 -13.221962 -35.125471 
3.9 -17.523974 -36.120975 -35.392727 -155.78452 -17.154571 156.72803 
	-35.431766 -156.61058 -12.475232 -36.60849 -1.2348566 -125.70828 
	-17.172143 157.00952 -1.2234021 -125.60966 -13.357207 -37.281592 
4 -17.801899 -34.177546 -35.147541 -163.24716 -17.156167 154.21859 
	-35.125982 -163.78479 -12.715171 -38.751011 -1.2910347 -128.75275 
	-17.155798 154.44795 -1.2803167 -128.65586 -13.641403 -39.259694 
4.1 -18.080137 -32.185058 -34.821409 -171.09853 -17.037275 151.67464 
	-34.883095 -171.23169 -12.960701 -41.223764 -1.2277218 -131.82587 
	-17.033444 151.9014 -1.2156931 -131.71072 -13.953023 -41.507932 
4.2 -18.39921 -29.774371 -34.707419 -178.66119 -17.002441 149.19718 
	-34.720424 -178.72371 -13.362672 -43.339534 -1.2393076 -134.9009 
	-16.995748 149.33017 -1.223917 -134.77946 -14.44506 -43.630734 
4.3 -18.729374 -27.155782 -34.506026 173.74507 -16.950524 146.64659 
	-34.547563 174.0278 -13.866647 -45.529562 -1.2258267 -138.03464 
	-16.948266 146.76346 -1.2089758 -137.89756 -15.061968 -45.781355 
4.4 -19.060303 -24.149326 -34.351247 166.44864 -16.888026 144.1097 
	-34.32768 166.57832 -14.486428 -47.675589 -1.1896031 -141.15429 
	-16.879082 144.19722 -1.1727321 -141.0456 -15.821857 -48.077111 
4.5 -19.434016 -20.591134 -34.158409 158.9508 -16.90424 141.53068 
	-34.330309 158.90269 -15.308142 -49.427976 -1.2302867 -144.32683 
	-16.905407 141.56145 -1.2149475 -144.23414 -16.82771 -49.854134 
4.6 -19.777178 -16.802534 -34.022569 151.61715 -16.814538 138.91065 
	-34.162169 151.02485 -16.226513 -51.322078 -1.1532698 -147.53968 
	-16.824561 138.98874 -1.1364906 -147.46639 -18.00197 -52.272161 
4.7 -20.110347 -12.628151 -33.933191 143.99349 -16.820493 136.35115 
	-34.103768 143.36046 -17.406996 -52.608108 -1.1560341 -150.76803 
	-16.830087 136.43555 -1.1376242 -150.68568 -19.518653 -54.177955 
4.8 -20.422966 -8.1774454 -33.992636 136.20811 -16.826031 133.78601 
	-34.033928 135.68367 -18.821417 -53.413083 -1.1413976 -154.06866 
	-16.837654 133.85851 -1.1234957 -153.97683 -21.467621 -55.950346 
4.9 -20.708357 -3.3744325 -33.929491 128.26274 -16.81877 131.23829 
	-33.973995 127.75073 -20.550453 -53.642239 -1.1098845 -157.36439 
	-16.829824 131.31445 -1.0907904 -157.2598 -24.025766 -57.188501 
5 -20.958342 1.6141233 -34.036834 120.5177 -16.903318 128.74454 
	-33.994185 120.06652 -22.750456 -51.451582 -1.1585737 -160.68155 
	-16.917037 128.81043 -1.1415708 -160.57452 -27.75217 -55.641687 
5.1 -21.148004 6.6590612 -34.005789 112.56487 -16.875395 126.1861 
	-33.972118 112.92053 -25.588214 -47.096539 -1.0936099 -164.00352 
	-16.890943 126.30613 -1.07664 -163.90452 -34.30974 -49.301276 
5.2 -21.274601 11.488034 -34.122578 105.06799 -16.949821 123.71006 
	-34.124391 105.42278 -29.155058 -33.274751 -1.1126099 -167.30008 
	-16.96154 123.84431 -1.0981898 -167.22222 -42.740112 51.017299 
5.3 -21.326661 16.220765 -34.203263 97.393563 -17.012544 121.15874 
	-34.286105 97.864732 -32.382991 -0.15627401 -1.115091 -170.64031 
	-17.027592 121.40624 -1.1009283 -170.55746 -31.730695 93.979939 
5.4 -21.338831 20.647569 -34.277562 90.400813 -17.062381 118.76814 
	-34.425885 89.840087 -31.236454 41.603808 -1.0980116 -173.94334 
	-17.076044 119.02645 -1.0861655 -173.86992 -26.736638 98.51614 
5.5 -21.307183 24.653128 -34.455849 83.13908 -17.198128 116.54115 
	-34.688534 82.15594 -27.80048 61.146168 -1.1622527 -177.25658 
	-17.209481 116.72893 -1.1518272 -177.14489 -23.815991 97.868102 
5.6 -21.241235 28.549585 -34.628563 75.96581 -17.216936 114.37872 
	-34.777653 75.068696 -25.130825 70.156901 -1.1116378 179.45141 
	-17.224908 114.45591 -1.1021359 179.55159 -21.717405 97.346875 
5.7 -21.172679 31.801665 -34.975675 68.447959 -17.346647 112.39967 
	-34.969389 68.065232 -23.146651 72.881444 -1.1445779 176.20561 
	-17.335425 112.33405 -1.1333863 176.30227 -20.254004 95.379496 
5.8 -21.105712 33.897744 -35.296615 61.754377 -17.440968 110.29094 
	-35.111654 61.412245 -21.701345 73.987537 -1.158012 172.95584 
	-17.43418 110.23118 -1.1458409 173.01513 -19.133857 93.345169 
5.9 -21.131215 36.079426 -35.49682 55.157156 -17.531964 108.32949 
	-35.44143 54.761929 -20.571378 74.042599 -1.1507341 169.73248 
	-17.52632 108.33067 -1.138993 169.80499 -18.263787 91.278695 
6 -21.113811 38.613355 -35.712079 48.891067 -17.682664 106.28993 
	-35.779771 47.84785 -19.781312 72.960349 -1.2197293 166.50689 
	-17.687979 106.46754 -1.2106593 166.59634 -17.693897 88.5932 
6.1 -20.980026 40.833061 -35.856152 41.654588 -17.74281 104.41131 
	-36.010979 40.979723 -19.105366 72.250467 -1.1732071 163.28467 
	-17.727501 104.63551 -1.1650364 163.37859 -17.182351 86.532044 
6.2 -20.937438 41.584019 -36.180825 34.487128 -17.879492 102.70276 
	-36.317687 34.263172 -18.709447 70.870715 -1.2066281 160.11143 
	-17.858826 102.83533 -1.1953787 160.20545 -16.909263 84.040774 
6.3 -20.940563 42.078364 -36.541994 27.522109 -18.005231 101.05704 
	-36.624067 27.849985 -18.423554 69.563759 -1.2210386 156.9294 
	-17.974781 101.06561 -1.208488 157.01109 -16.729938 81.572837 
6.4 -20.943982 41.863031 -36.931937 21.142113 -18.091492 99.545706 
	-36.979279 21.258079 -18.249394 68.287402 -1.2116613 153.78479 
	-18.079144 99.460619 -1.1977261 153.86149 -16.660141 78.968784 
6.5 -20.991799 41.146066 -37.413613 15.085039 -18.243798 97.961594 
	-37.369715 14.326829 -18.207946 67.263748 -1.2806133 150.62724 
	-18.245765 97.926284 -1.2675214 150.69611 -16.749536 75.845489 
6.6 -21.015198 40.083082 -37.754921 8.7198275 -18.283091 96.479472 
	-37.655128 8.2186427 -18.218336 66.467265 -1.2294111 147.46244 
	-18.291877 96.408048 -1.2143216 147.52906 -16.83158 72.927783 
6.7 -21.083488 38.442291 -38.109446 3.0419306 -18.412442 95.006094 
	-38.098992 3.0485781 -18.378251 64.838162 -1.2556852 144.34005 
	-18.418618 94.983448 -1.2425294 144.39729 -17.081153 69.426824 
6.8 -21.132637 36.413913 -38.543479 -3.0598278 -18.520716 93.593002 
	-38.504636 -2.6286441 -18.570285 63.473041 -1.2605047 141.17137 
	-18.507094 93.623337 -1.2499391 141.22733 -17.393916 65.693558 
6.9 -21.152128 33.950848 -38.98832 -8.4889679 -18.595673 92.273532 
	-38.967535 -8.8762021 -18.78544 62.276625 -1.2474846 138.02565 
	-18.590364 92.388499 -1.2368594 138.09491 -17.75694 61.750975 
7 -21.146338 31.006707 -39.58287 -14.639105 -18.743888 91.047248 
	-39.49105 -15.254527 -19.079007 60.720295 -1.3126598 134.8522 
	-18.739867 91.111993 -1.3012762 134.955 -18.239266 57.13825 
7.1 -21.088299 27.958695 -39.871647 -20.124613 -18.780304 89.840117 
	-39.872288 -20.883122 -19.30043 59.654679 -1.2612093 131.69719 
	-18.784628 89.955448 -1.2464688 131.79566 -18.67648 52.288032 
7.2 -20.998566 24.703127 -40.318923 -25.825255 -18.891918 88.750926 
	-40.310618 -26.031416 -19.605322 58.343239 -1.2873853 128.56424 
	-18.882549 88.838963 -1.2722421 128.66321 -19.226907 46.481775 
7.3 -20.869256 21.506066 -40.760883 -30.284971 -18.975869 87.510167 
	-40.892133 -31.391121 -19.925018 57.109029 -1.2947201 125.38778 
	-18.961402 87.722282 -1.2783344 125.49287 -19.751919 39.971256 
7.4 -20.681576 18.483045 -41.240721 -35.29048 -19.024421 86.372594 
	-41.33066 -36.430597 -20.222193 55.767526 -1.282769 122.23777 
	-19.012915 86.584312 -1.2678358 122.36542 -20.211993 32.7886 
7.5 -20.509743 15.590372 -41.814623 -39.38934 -19.143483 85.236765 
	-41.995702 -40.976274 -20.572273 54.177672 -1.3497671 119.07872 
	-19.15167 85.544441 -1.3359468 119.20774 -20.630714 24.771235 
7.6 -20.26657 12.896946 -42.23641 -43.013554 -19.161536 84.31087 
	-42.543829 -44.827204 -20.808836 52.354708 -1.2995921 115.91287 
	-19.15817 84.523193 -1.2872111 116.06548 -20.808993 16.214484 
7.7 -20.071268 10.412923 -42.952521 -46.158368 -19.26848 83.50789 
	-43.03008 -48.883667 -21.071927 50.064478 -1.3285192 112.77837 
	-19.237787 83.623397 -1.3136625 112.92339 -20.919838 7.62824 
7.8 -19.848989 8.2932425 -43.454223 -50.685903 -19.327813 82.533989 
	-43.416828 -52.917551 -21.318111 47.395563 -1.335926 109.60801 
	-19.287312 82.650774 -1.3173875 109.76729 -20.908724 -0.56830583 
7.9 -19.652669 6.4163672 -43.91598 -55.265446 -19.342991 81.593559 
	-43.756941 -57.812013 -21.504906 44.56929 -1.3245644 106.49675 
	-19.32045 81.834541 -1.3059914 106.61564 -20.787985 -8.534145 
8 -19.474853 4.8990355 -44.496015 -60.442139 -19.410357 80.57886 
	-44.793969 -61.550931 -21.769723 41.664507 -1.3932211 103.3461 
	-19.428013 80.88643 -1.3791953 103.4758 -20.639897 -16.210941 
8.1 -19.290151 3.6013216 -44.942479 -64.634891 -19.391244 79.771301 
	-45.16228 -66.627029 -21.950279 38.476347 -1.3469263 100.19414 
	-19.397718 80.02006 -1.3380021 100.32187 -20.316805 -23.447565 
8.2 -19.157666 2.6761997 -45.670217 -68.469828 -19.429352 78.932143 
	-45.727468 -69.338273 -22.16522 35.072586 -1.3788033 97.077886 
	-19.443507 79.145793 -1.3701719 97.179471 -20.04285 -29.600736 
8.3 -19.062093 2.0570309 -46.124212 -69.547199 -19.447723 78.068426 
	-46.169715 -72.873566 -22.379727 31.547469 -1.3875177 93.919911 
	-19.438585 78.275895 -1.378739 94.012059 -19.790114 -34.965469 
8.4 -18.96541 1.6544118 -46.68253 -70.667811 -19.404042 77.140296 
	-47.11922 -73.810024 -22.578646 27.817926 -1.3767955 90.800933 
	-19.410107 77.384669 -1.367946 90.901917 -19.567053 -39.969199 
8.5 -18.9377 1.5730164 -47.159779 -72.50763 -19.453046 76.242749 
	-47.785887 -75.899674 -22.835097 24.281355 -1.4445514 87.640279 
	-19.434849 76.424873 -1.4341781 87.786828 -19.47644 -44.342696 
8.6 -18.884684 1.58918 -47.593434 -75.956003 -19.373859 75.390657 
	-47.942329 -76.430735 -23.074342 20.273275 -1.3955064 84.486216 
	-19.359511 75.539677 -1.381962 84.655298 -19.312944 -48.550285 
8.7 -18.934079 2.0313859 -48.083121 -78.088957 -19.379753 74.535323 
	-48.263742 -76.27767 -23.378437 16.59943 -1.4212253 81.352552 
	-19.368186 74.68168 -1.4094514 81.527746 -19.311738 -52.145364 
8.8 -19.029813 2.6623238 -48.625767 -78.501464 -19.342488 73.603066 
	-48.529677 -77.183655 -23.738318 12.896367 -1.4270436 78.180021 
	-19.344107 73.747614 -1.4183756 78.367977 -19.384521 -55.592777 
8.9 -19.155365 3.745127 -48.985843 -79.344871 -19.282133 72.639967 
	-49.143414 -82.059083 -24.188454 9.2533598 -1.4118213 75.046313 
	-19.300178 72.7025 -1.4077971 75.223963 -19.523417 -59.022625 
9 -19.359574 5.096513 -49.578289 -80.859233 -19.289637 71.586467 
	-49.396585 -84.305258 -24.693553 5.783405 -1.4769554 71.888204 
	-19.30221 71.615772 -1.4723609 72.046763 -19.828503 -61.939404 
9.1 -19.567452 6.865973 -49.753118 -82.695594 -19.190571 70.484845 
	-49.441465 -85.434018 -25.309344 2.1318045 -1.4258981 68.710154 
	-19.194271 70.524678 -1.4181065 68.865085 -20.098011 -65.106224 
9.2 -19.877954 8.9074144 -50.272073 -83.145594 -19.158696 69.378581 
	-49.847302 -83.600695 -26.019412 -1.0036861 -1.4546794 65.553584 
	-19.150949 69.444486 -1.4432205 65.703695 -20.55221 -67.933165 
9.3 -20.21096 11.365944 -50.564512 -82.273277 -19.099486 68.132907 
	-50.490124 -85.244875 -26.88606 -3.9026724 -1.461921 62.337811 
	-19.083748 68.301174 -1.4520903 62.516306 -21.087948 -70.761787 
9.4 -20.556645 14.267317 -50.866119 -83.074697 -19.00221 66.89236 
	-51.247869 -86.393232 -27.824238 -6.7899689 -1.4491181 59.181869 
	-18.991138 67.056796 -1.4412933 59.366695 -21.766074 -73.395361 
9.5 -20.980565 17.60969 -51.491108 -83.509639 -18.992495 65.548682 
	-51.659796 -88.212626 -28.83192 -8.4292343 -1.5147279 55.97681 
	-18.982526 65.662103 -1.5093284 56.171617 -22.62369 -75.546294 
9.6 -21.345834 21.639799 -51.513735 -83.823787 -18.856836 64.235831 
	-51.838035 -89.129758 -30.133137 -9.9012532 -1.465916 52.798095 
	-18.862257 64.294 -1.4583804 52.975468 -23.543898 -78.109815 
9.7 -21.785741 26.180079 -52.064236 -85.825831 -18.802912 62.825206 
