! MARKI MICROWAVE INC.
! Email:             	info@markimicrowave.com   				Phone:   408-778-4200
! Model Number:      	BAL-0026						Date:    02/14
! Filename:		BAL-0026.S3P						Version: 1.0
! Description:       	3-port S-parameter data for Balun BAL-0026
! Frequency Range: 	10 MHz to 26.5 GHz		
! Port Configuration:	PORT 1: OUTPUT (0 DEGREE), PORT 2: OUTPUT (180 DEGREE), PORT 3: COMMON


! S3P File: Measurements: Mag<S11> Ang<S11> Mag<S12> Ang<S12> Mag<S13> Ang<S13>! row 1 
!			  Mag<S21> Ang<S21> Mag<S22> Ang<S22> Mag<S23> Ang<S23>! row 2 
!			  Mag<S31> Ang<S31> Mag<S32> Ang<S32> Mag<S33> Ang<S33>! row 3 
# Hz S  dB   R 50
10000000 -27.618547 41.118252 -9.552269 161.79637 -5.3108392 -12.922678
-9.5564327 161.5948 -20.448978 157.99954 -5.94593 168.37192
-5.3006868 -12.955036 -5.951848 168.67737 -14.033206 175.95782
59987500 -25.807085 37.074825 -9.6734085 153.70816 -5.3565331 -18.148212
-9.683651 153.53795 -20.641897 157.48035 -5.9644299 163.23552
-5.3500199 -18.205971 -5.964891 163.46648 -13.711025 175.37842
109975000 -23.861094 31.611467 -9.8342953 144.12114 -5.4118376 -24.359488
-9.8496761 143.97859 -20.893896 156.83327 -5.9844441 157.07033
-5.4097433 -24.445717 -5.9791594 157.2198 -13.329302 174.1658
159962500 -21.81884 24.766327 -10.038975 133.07751 -5.4744139 -31.54315
-10.059459 132.94934 -21.153835 156.39209 -6.0064297 149.87633
-5.4762206 -31.659754 -5.9955454 149.94304 -12.890267 172.23647
209950000 -19.697201 16.525299 -10.291752 120.5939 -5.54109 -39.687687
-10.318571 120.49284 -21.39583 156.14037 -6.0328536 141.65857
-5.5460529 -39.826218 -6.0160146 141.63844 -12.404753 169.53055
259937500 -17.514023 6.950932 -10.59432 106.72496 -5.6111822 -48.797535
-10.624166 106.65259 -21.58251 155.90434 -6.0642524 132.42587
-5.6186738 -48.965858 -6.0416689 132.32866 -11.882031 165.99948
309925000 -15.928771 -4.3117352 -10.92967 93.326088 -5.6710386 -57.791496
-10.957386 93.26355 -21.725529 153.62347 -6.0764456 123.26797
-5.6779022 -57.949177 -6.0546641 123.18375 -11.381601 161.0215
359912500 -14.778468 -16.470865 -11.298072 80.181831 -5.7225728 -66.680672
-11.326565 80.115654 -21.753183 151.9342 -6.0925536 114.10828
-5.7310238 -66.816307 -6.0722303 114.04726 -10.921537 155.23807
409900000 -13.911279 -28.605566 -11.697361 67.310547 -5.762814 -75.48761
-11.725984 67.247696 -21.65386 150.41702 -6.1176462 104.97507
-5.7711973 -75.638107 -6.0952287 104.91601 -10.51019 148.77486
459887500 -13.258831 -40.668232 -12.120367 54.715179 -5.78932 -84.250656
-12.148406 54.660355 -21.420603 148.64894 -6.1474819 95.890884
-5.7977576 -84.410934 -6.1265779 95.828064 -10.165126 141.84492
509875000 -12.760854 -52.463108 -12.560471 42.417225 -5.8018074 -92.998436
-12.589071 42.366341 -21.02668 146.38147 -6.1820331 86.866325
-5.8098192 -93.16349 -6.1614141 86.796928 -9.8925762 134.505
559862500 -12.393265 -64.001579 -13.011853 30.37752 -5.8001657 -101.74884
-13.03957 30.316626 -20.52154 143.5419 -6.217135 77.913071
-5.807344 -101.91456 -6.1965322 77.837456 -9.6834202 126.93104
609850000 -12.121624 -75.232697 -13.469309 18.579199 -5.7865167 -110.52275
-13.498265 18.535398 -19.974056 139.71957 -6.2496767 69.025192
-5.7926006 -110.68555 -6.2277389 68.956207 -9.5416613 119.13792
659837500 -11.937209 -86.173515 -13.925316 7.0027108 -5.7642708 -119.33912
-13.953513 6.9493747 -19.405039 134.86969 -6.2762284 60.197517
-5.7692237 -119.51183 -6.2530718 60.127556 -9.4575844 111.22012
709825000 -11.818583 -96.799995 -14.383894 -4.3896422 -5.7332044 -128.19345
-14.412052 -4.4596109 -18.857098 129.17476 -6.2934709 51.419807
-5.7384129 -128.38045 -6.2699499 51.337982 -9.4289589 103.23022
759812500 -11.762916 -107.05788 -14.842354 -15.641439 -5.6985521 -137.09982
-14.869596 -15.7088 -18.376703 122.94774 -6.3001537 42.681221
-5.704577 -137.30176 -6.2774119 42.596603 -9.4487734 95.135223
809800000 -11.754197 -117.03268 -15.295024 -26.760702 -5.6613097 -146.06152
-15.323969 -26.822466 -17.968515 116.1806 -6.2975082 33.953941
-5.6672349 -146.27486 -6.2739582 33.860477 -9.5157785 87.019981
859787500 -11.783849 -126.66322 -15.74662 -37.782337 -5.6214757 -155.0675
-15.777012 -37.834156 -17.609938 109.03307 -6.283422 25.233181
-5.6278172 -155.28761 -6.26122 25.120144 -9.6297035 78.808907
909775000 -11.856373 -136.01245 -16.197304 -48.740273 -5.5829988 -164.11288
-16.226374 -48.782799 -17.290775 101.76414 -6.2587914 16.498783
-5.5891023 -164.34564 -6.237041 16.373701 -9.7762547 70.545441
959762500 -11.949016 -145.08656 -16.651632 -59.623817 -5.545424 -173.1991
-16.678459 -59.681969 -17.024307 94.336945 -6.2263713 7.734684
-5.5507135 -173.44177 -6.2026916 7.5938239 -9.9660358 62.253616
1009750000 -12.071286 -153.84697 -17.113083 -70.47773 -5.5092697 177.67522
-17.13941 -70.54007 -16.789619 86.669861 -6.1847749 -1.0734135
-5.5121503 177.42177 -6.1582241 -1.2215329 -10.188844 53.842232
1059737500 -12.211235 -162.3923 -17.578592 -81.335808 -5.4750476 168.52487
-17.602236 -81.393707 -16.566399 78.925659 -6.1371365 -9.9233246
-5.476532 168.25284 -6.1102233 -10.095613 -10.449974 45.431335
1109725000 -12.367509 -170.62709 -18.061089 -92.130211 -5.4422851 159.35321
-18.08267 -92.19677 -16.371172 71.146912 -6.0833478 -18.821014
-5.4442239 159.06056 -6.056879 -19.011095 -10.750887 36.870537
1159712500 -12.537115 -178.6785 -18.558752 -102.92407 -5.4117708 150.15004
-18.581114 -102.9773 -16.201376 63.274284 -6.0265737 -27.774279
-5.4128437 149.85263 -6.0003862 -27.973389 -11.08354 28.217709
1209700000 -12.706296 173.50462 -19.075756 -113.69017 -5.3828888 140.93358
-19.095478 -113.76289 -16.034441 55.294117 -5.9669061 -36.777863
-5.3836389 140.62048 -5.9417377 -36.988968 -11.463018 19.439577
1259687500 -12.885034 165.87874 -19.616133 -124.38475 -5.3553786 131.69493
-19.632753 -124.45345 -15.880886 47.348068 -5.9054375 -45.84388
-5.3570333 131.37178 -5.8813629 -46.049564 -11.87394 10.479214
1309675000 -13.055702 158.43623 -20.18709 -135.05481 -5.3314595 122.43414
-20.20237 -135.13028 -15.755249 39.372437 -5.8448706 -54.962997
-5.3336673 122.10928 -5.8202629 -55.160667 -12.329098 1.3670051
1359662500 -13.221074 151.18904 -20.796602 -145.63428 -5.3092628 113.16263
-20.805145 -145.73386 -15.641784 31.288359 -5.7860403 -64.129883
-5.3117895 112.83658 -5.7603331 -64.323242 -12.830347 -7.9831047
1409650000 -13.382638 144.03854 -21.42766 -156.14214 -5.2904887 103.87888
-21.438919 -156.20473 -15.529909 23.21525 -5.7294669 -73.343422
-5.292697 103.55846 -5.7040329 -73.519501 -13.368317 -17.558037
1459637500 -13.526803 137.02939 -22.115339 -166.45992 -5.274363 94.582985
-22.124929 -166.53317 -15.439664 15.213493 -5.6747346 -82.602478
-5.2779098 94.266891 -5.6522245 -82.763985 -13.952061 -27.445351
1509625000 -13.668384 130.09763 -22.849201 -176.61649 -5.260047 85.278946
-22.857506 -176.73859 -15.365875 7.1373482 -5.6229644 -91.899391
-5.2655687 84.969002 -5.6017823 -92.044136 -14.573729 -37.672169
1559612500 -13.790851 123.20512 -23.627371 173.44284 -5.2496657 75.961792
-23.640388 173.32443 -15.293589 -0.94483066 -5.5768752 -101.22922
-5.2556481 75.669464 -5.5563998 -101.3549 -15.232677 -48.274391
1609600000 -13.90769 116.38381 -24.469349 163.86246 -5.2421217 66.646004
-24.481958 163.74629 -15.223314 -8.9192314 -5.535244 -110.59018
-5.2502747 66.369308 -5.5150867 -110.69408 -15.918369 -59.342045
1659587500 -14.010624 109.53129 -25.371498 154.74544 -5.2390471 57.331398
-25.39036 154.6331 -15.167533 -16.869066 -5.4985485 -119.96749
-5.2479229 57.073841 -5.4784265 -120.06373 -16.622299 -70.888733
1709575000 -14.103202 102.71027 -26.332722 146.17926 -5.23947 48.029621
-26.36672 146.06702 -15.105736 -24.8459 -5.4675875 -129.35811
-5.2483969 47.788776 -5.4481497 -129.44148 -17.326296 -82.977776
1759562500 -14.192922 95.75621 -27.349058 138.42191 -5.2421603 38.744957
-27.363865 138.34546 -15.029445 -32.714325 -5.4415426 -138.74786
-5.2507296 38.504066 -5.4233904 -138.83321 -18.005703 -95.600563
1809550000 -14.269648 88.780228 -28.393757 131.52586 -5.245955 29.467951
-28.419819 131.55388 -14.955548 -40.498791 -5.4189415 -148.14627
-5.2556391 29.229259 -5.40377 -148.23299 -18.642635 -108.8482
1859537500 -14.348358 81.727432 -29.464853 125.78311 -5.2502875 20.20611
-29.497946 125.78436 -14.877639 -48.261909 -5.4007359 -157.54497
-5.2625442 19.959721 -5.3878064 -157.63593 -19.213774 -122.62136
1909525000 -14.423992 74.519829 -30.483932 121.18596 -5.2566843 10.959615
-30.520777 121.26891 -14.778116 -55.961143 -5.3876624 -166.93677
-5.270647 10.713406 -5.375412 -167.04175 -19.699287 -136.82602
1959512500 -14.49407 67.257187 -31.383461 118.06242 -5.2654963 1.7238129
-31.419085 118.24187 -14.669394 -63.488243 -5.3803115 -176.31714
-5.280201 1.4678977 -5.367444 -176.43608 -20.070477 -151.30658
2009500000 -14.565898 59.839104 -32.137871 115.81389 -5.2747388 -7.4942751
-32.17614 116.03195 -14.560776 -70.984337 -5.3758693 174.30453
-5.2905574 -7.7674398 -5.3626614 174.17926 -20.336313 -165.95485
2059487500 -14.631248 52.349995 -32.67038 114.26895 -5.2849193 -16.695179
-32.714195 114.45323 -14.437506 -78.49894 -5.3751101 164.94821
-5.3014722 -16.986141 -5.3623958 164.79747 -20.472389 179.38666
2109475000 -14.703025 44.719017 -32.993488 113.20636 -5.2953601 -25.883425
-33.033443 113.37645 -14.299828 -85.885208 -5.3794537 155.60349
-5.3128285 -26.198952 -5.3654628 155.43158 -20.501385 165.026
2159462500 -14.767411 36.990784 -33.121078 112.13551 -5.3053498 -35.066257
-33.163868 112.29915 -14.164476 -93.188812 -5.3855968 146.27733
-5.3231602 -35.40284 -5.3706846 146.07428 -20.415094 150.90411
2209450000 -14.839347 29.214598 -33.009586 110.6605 -5.314847 -44.241631
-33.060188 110.79295 -14.02843 -100.5064 -5.3938894 136.95845
-5.333775 -44.594883 -5.3783264 136.7281 -20.252859 137.30598
2259437500 -14.907305 21.290211 -32.71151 108.68919 -5.3250017 -53.411648
-32.761852 108.70924 -13.878985 -107.80822 -5.4054556 127.65352
-5.3449869 -53.777561 -5.3892469 127.40505 -20.024151 124.26717
2309425000 -14.977767 13.371567 -32.243927 105.66174 -5.3362532 -62.578152
-32.274952 105.61131 -13.727817 -115.03278 -5.419086 118.36816
-5.3556991 -62.957092 -5.4018359 118.0971 -19.738436 111.90657
2359412500 -15.056404 5.3480558 -31.650072 101.56641 -5.3462648 -71.732834
-31.676214 101.39971 -13.587148 -122.27571 -5.4339528 109.10199
-5.3654456 -72.133987 -5.4169822 108.81336 -19.444733 100.21194
2409400000 -15.12649 -2.7132313 -31.018492 96.029579 -5.3553267 -80.88781
-31.046764 95.819405 -13.444704 -129.60461 -5.4498901 99.84684
-5.3751731 -81.294601 -5.4334087 99.540489 -19.137007 89.022621
2459387500 -15.21016 -10.749383 -30.391783 89.490639 -5.3637724 -90.033752
-30.408409 89.204567 -13.295228 -136.89069 -5.4656887 90.610245
-5.3841 -90.448402 -5.4509239 90.28051 -18.834187 78.508553
2509375000 -15.288013 -18.899549 -29.815107 81.993057 -5.3719559 -99.180069
-29.826857 81.791611 -13.159054 -144.13173 -5.4823794 81.392113
-5.3913994 -99.603363 -5.4676962 81.045059 -18.562819 68.419571
2559362500 -15.367488 -26.962484 -29.287127 73.665619 -5.3784118 -108.33332
-29.30331 73.516518 -13.030957 -151.44447 -5.4979243 72.17865
-5.3978643 -108.75363 -5.4832335 71.832359 -18.295033 58.713638
2609350000 -15.457988 -35.133064 -28.802839 64.73893 -5.3851967 -117.47408
-28.79714 64.636688 -12.896554 -158.80814 -5.5142636 62.981277
-5.4039598 -117.91093 -5.4988279 62.618603 -18.08882 49.402767
2659337500 -15.52978 -43.213066 -28.405706 55.599957 -5.3916392 -126.61497
-28.405205 55.433956 -12.771544 -166.10225 -5.5299211 53.799679
-5.4100637 -127.06198 -5.5142632 53.42667 -17.883051 40.247757
2709325000 -15.618808 -51.263672 -28.062559 45.97393 -5.3966632 -135.75792
-28.056236 45.839249 -12.667611 -173.38911 -5.5430446 44.629135
-5.4146442 -136.21637 -5.5281558 44.24472 -17.7218 31.435957
2759312500 -15.688089 -59.381775 -27.773481 36.270012 -5.4009962 -144.8936
-27.774218 36.161537 -12.572839 179.27414 -5.5559235 35.472511
-5.4195552 -145.37102 -5.5408478 35.073654 -17.596964 22.613035
2809300000 -15.749687 -67.318977 -27.540806 26.407925 -5.4060884 -154.03735
-27.551189 26.316103 -12.479479 171.99234 -5.5684648 26.305126
-5.424561 -154.52545 -5.5528984 25.907671 -17.488771 13.981624
2859287500 -15.815278 -75.310951 -27.369543 16.395489 -5.4100299 -163.17723
-27.380695 16.281208 -12.40566 164.8064 -5.5776477 17.15239
-5.4290915 -163.68156 -5.5632963 16.75712 -17.433268 5.3617244
2909275000 -15.855609 -83.192558 -27.226049 6.3448763 -5.4152541 -172.3243
-27.244699 6.275774 -12.353096 157.60397 -5.5865974 8.0060024
-5.4332738 -172.83394 -5.5712624 7.611125 -17.390753 -3.3028128
2959262500 -15.905165 -90.976151 -27.145226 -3.7202842 -5.4194441 178.52422
-27.157866 -3.8546622 -12.306567 150.38487 -5.5934 -1.1435943
-5.4375596 178.00951 -5.5788946 -1.5381502 -17.399435 -11.876618
3009250000 -15.928457 -98.742523 -27.107121 -13.886751 -5.4227676 169.37965
-27.112524 -14.031964 -12.271097 143.26324 -5.598516 -10.284685
-5.4401064 168.85431 -5.5847001 -10.688211 -17.429178 -20.647175
3059237500 -15.944763 -106.30637 -27.088514 -23.959778 -5.4251504 160.23027
-27.094627 -24.119833 -12.262042 136.23337 -5.6008191 -19.42952
-5.4424477 159.70323 -5.5889692 -19.82686 -17.491697 -29.328461
3109225000 -15.953506 -113.89886 -27.109509 -34.028763 -5.427228 151.07776
-27.13241 -34.164169 -12.269897 129.14386 -5.6025033 -28.579782
-5.4437532 150.54744 -5.5898528 -28.975555 -17.608606 -38.144192
3159212500 -15.946273 -121.33353 -27.163877 -44.067574 -5.4310298 141.92491
-27.189676 -44.201366 -12.274849 122.07291 -5.6046834 -37.737732
-5.4444199 141.38876 -5.5889149 -38.126801 -17.740398 -47.036476
3209200000 -15.949608 -128.6777 -27.255899 -54.077492 -5.4344001 132.76639
-27.28529 -54.21801 -12.295511 115.12172 -5.6045561 -46.905258
-5.4449344 132.22835 -5.5889468 -47.293991 -17.934792 -55.970505
3259187500 -15.930148 -136.02429 -27.381672 -63.96212 -5.4362464 123.6088
-27.412931 -64.092651 -12.336527 108.17536 -5.6030989 -56.066662
-5.4463811 123.06717 -5.5869622 -56.459198 -18.156349 -65.17453
3309175000 -15.914156 -143.17941 -27.546724 -73.710388 -5.4396353 114.44547
-27.570398 -73.884735 -12.380525 101.18015 -5.6025214 -65.245308
-5.4469943 113.90807 -5.5843911 -65.641861 -18.42662 -74.315247
3359162500 -15.892754 -150.39868 -27.749372 -83.39167 -5.4416533 105.27947
-27.765772 -83.570038 -12.422944 94.293556 -5.6006517 -74.435822
-5.4485207 104.74044 -5.5816174 -74.827179 -18.751572 -83.733566
3409150000 -15.854088 -157.47223 -27.957294 -92.942642 -5.4457221 96.115364
-27.979383 -93.083679 -12.477021 87.502945 -5.5996461 -83.635452
-5.4511414 95.571457 -5.5778923 -84.022697 -19.090759 -93.327721
3459137500 -15.829577 -164.5374 -28.197628 -102.23561 -5.4487872 86.942078
-28.228745 -102.43655 -12.541962 80.66243 -5.5981903 -92.853432
-5.4541841 86.402756 -5.5760527 -93.230652 -19.519318 -103.05016
3509125000 -15.787624 -171.59946 -28.461313 -111.40719 -5.4531903 77.765312
-28.500248 -111.65294 -12.595512 73.818573 -5.59835 -102.08068
-5.4587088 77.235603 -5.5747261 -102.45112 -19.950031 -113.10973
3559112500 -15.758739 -178.5872 -28.749279 -120.41405 -5.458365 68.585861
-28.781107 -120.62878 -12.644468 67.093102 -5.5989799 -111.31523
-5.4636245 68.070625 -5.5749784 -111.66914 -20.441856 -123.30531
3609100000 -15.715158 174.32164 -29.05385 -128.95665 -5.4627829 59.402115
-29.089424 -129.23776 -12.706532 60.427734 -5.5994997 -120.56202
-5.4696188 58.904243 -5.5759392 -120.90342 -20.967649 -133.9985
3659087500 -15.664661 167.3315 -29.365484 -137.23894 -5.4686699 50.219791
-29.397509 -137.5191 -12.759976 53.700783 -5.6020083 -129.81444
-5.4749722 49.740002 -5.5771532 -130.13641 -21.520887 -144.84175
3709075000 -15.631089 160.29858 -29.677092 -145.37354 -5.4747839 41.039833
-29.705305 -145.64438 -12.800628 47.003265 -5.6057906 -139.07262
-5.4817386 40.576546 -5.5810542 -139.37564 -22.116432 -156.00412
3759062500 -15.580359 153.25194 -29.948116 -153.24298 -5.4808993 31.861809
-29.994015 -153.42374 -12.841652 40.368496 -5.6100402 -148.33118
-5.4870782 31.417576 -5.5857973 -148.61456 -22.700321 -167.58784
3809050000 -15.546886 146.27321 -30.232281 -160.68857 -5.4888611 22.692198
-30.281975 -160.89185 -12.885697 33.662289 -5.6181374 -157.5955
-5.493844 22.261599 -5.5932775 -157.85753 -23.331003 -179.29959
3859037500 -15.518884 139.17819 -30.480909 -167.9509 -5.4966636 13.516927
-30.529823 -168.18541 -12.914657 26.858706 -5.6272902 -166.8614
-5.5001717 13.113024 -5.6020908 -167.09818 -23.941868 168.53975
3909025000 -15.495279 132.16313 -30.696037 -174.89008 -5.5066853 4.3554826
-30.743141 -175.06361 -12.932095 20.103642 -5.6382875 -176.11774
-5.5084357 3.9715071 -5.611784 -176.33478 -24.534575 156.29027
3959012500 -15.487488 125.09388 -30.893118 178.38358 -5.5160027 -4.8084035
-30.937466 178.20543 -12.958175 13.297619 -5.6507902 174.62196
-5.5156946 -5.1729879 -5.6232071 174.43491 -25.132841 143.89877
4009000000 -15.480517 118.07941 -31.036438 171.74092 -5.5245409 -13.961729
-31.081997 171.50063 -12.976048 6.3264694 -5.6644177 165.3688
-5.522738 -14.311043 -5.636838 165.19908 -25.680782 131.5457
4058987500 -15.506198 111.06231 -31.111332 165.08153 -5.5323887 -23.108982
-31.156416 164.895 -12.976297 -0.7408427 -5.6813693 156.12875
-5.5304022 -23.444155 -5.652452 155.97563 -26.192541 119.32869
4108975000 -15.530386 103.99051 -31.151079 158.52393 -5.5402122 -32.25629
-31.20841 158.41814 -12.979534 -7.8327723 -5.6989441 146.89055
-5.5378857 -32.573696 -5.6683764 146.75095 -26.619053 107.28148
4158962500 -15.575449 97.004402 -31.153629 151.85941 -5.5482364 -41.399254
-31.209745 151.75003 -12.984893 -15.077436 -5.7179408 137.65822
-5.5442891 -41.703239 -5.6847091 137.52882 -27.026627 95.684029
4208950000 -15.637008 89.884712 -31.11717 145.26987 -5.5559788 -50.543018
-31.159569 145.11038 -12.974275 -22.43313 -5.738821 128.42763
-5.5516634 -50.836803 -5.70433 128.31749 -27.330723 84.496674
4258937500 -15.702081 82.825974 -31.02387 138.52805 -5.5609021 -59.686417
-31.061388 138.34859 -12.955565 -29.828163 -5.7593513 119.21432
-5.5566216 -59.972176 -5.7241693 119.10981 -27.549259 74.003647
4308925000 -15.790807 75.747879 -30.922508 131.63667 -5.5650663 -68.826981
-30.959097 131.44926 -12.943957 -37.273514 -5.7802114 110.00694
-5.5607696 -69.108727 -5.7444253 109.91254 -27.709574 64.107605
4358912500 -15.88093 68.640823 -30.781113 124.39323 -5.5687389 -77.969154
-30.809965 124.18344 -12.928458 -44.886539 -5.80234 100.8084
-5.5639071 -78.249153 -5.7667751 100.72385 -27.747921 55.048157
4408900000 -15.987805 61.581497 -30.617577 117.02204 -5.571269 -87.111206
-30.649027 116.85768 -12.902067 -52.532875 -5.8251696 91.630852
-5.5667858 -87.38839 -5.789567 91.545746 -27.715183 46.625679
4458887500 -16.102516 54.379436 -30.430918 109.49377 -5.573709 -96.258804
-30.458284 109.31384 -12.876517 -60.163475 -5.8474317 82.453346
-5.5693383 -96.53495 -5.8118262 82.377777 -27.562197 38.699707
4508875000 -16.215723 47.305332 -30.266569 101.78155 -5.5764751 -105.41299
-30.283384 101.57086 -12.859511 -67.856812 -5.8698235 73.281677
-5.5710902 -105.68158 -5.8347559 73.216911 -27.349642 31.622059
4558862500 -16.352634 40.151096 -30.080444 93.759361 -5.5771074 -114.57131
-30.087032 93.48558 -12.834848 -75.616669 -5.8932748 64.125618
-5.5736642 -114.83316 -5.8584938 64.071442 -27.049629 24.753317
4608850000 -16.473854 33.001301 -29.895367 85.642784 -5.5775747 -123.73385
-29.891277 85.400253 -12.808289 -83.326408 -5.9163518 54.980453
-5.5749154 -123.98927 -5.8817668 54.941463 -26.622765 18.337454
4658837500 -16.614517 25.925724 -29.729906 77.273735 -5.5778575 -132.90022
-29.738298 76.969894 -12.795387 -91.058174 -5.9383664 45.84391
-5.57547 -133.14856 -5.9036551 45.817249 -26.1931 12.07849
4708825000 -16.747387 18.719362 -29.546762 68.670341 -5.5787635 -142.06865
-29.566515 68.40226 -12.780462 -98.853477 -5.9605379 36.716419
-5.5776858 -142.30835 -5.9263082 36.704502 -25.655872 5.7970004
4758812500 -16.882629 11.628655 -29.37501 60.04248 -5.5789952 -151.23926
-29.397202 59.738911 -12.760241 -106.62794 -5.9821281 27.596962
-5.58041 -151.47131 -5.9491558 27.597733 -25.098845 -0.24225782
