! MARKI MICROWAVE INC.
! Email:             	support@markimicrowave.com   				Phone:   408-778-4200
! Model Number:      	BAL-0620SMG						Date:    10/14
! Filename:		BAL-0620SMG.S3P						Version: 1.0
! Description:       	3-port S-parameter data for Balun BAL-0620SMG
! Frequency Range: 	10 MHz to 26.5 GHz		
! Port Configuration:	PORT 1: OUTPUT (0 DEGREE), PORT 2: OUTPUT (180 DEGREE), PORT 3: COMMON


! S3P File: Measurements: Mag<S11> Ang<S11> Mag<S12> Ang<S12> Mag<S13> Ang<S13>! row 1 
!			  Mag<S21> Ang<S21> Mag<S22> Ang<S22> Mag<S23> Ang<S23>! row 2 
!			  Mag<S31> Ang<S31> Mag<S32> Ang<S32> Mag<S33> Ang<S33>! row 3 

# Hz S  dB   R 50
10000000 -6.301301 175.63802 -70.750648 -171.13443 -6.1156325 -4.5345078
-62.258766 -106.94763 -0.01622092 -3.8560085 -66.086205 75.611099
-6.0903263 -3.4695551 -65.967636 -88.646141 -6.2861133 175.81511
43112500 -6.3095026 174.27789 -71.01709 -179.19916 -6.1211591 -5.7289042
-64.194237 -115.83538 -0.013672843 -5.3164511 -67.028091 14.636518
-6.0984631 -4.8891201 -66.631714 -73.347878 -6.2960358 174.43227
76225000 -6.3192353 172.63673 -71.205086 174.12994 -6.1270614 -7.190578
-66.101959 -121.41628 -0.011854105 -7.0657606 -67.894684 -46.472252
-6.1069326 -6.5807624 -67.6483 -55.810287 -6.3040524 172.79584
109337500 -6.3312488 170.70439 -70.745865 166.05965 -6.1345673 -8.9368896
-67.544769 -131.87193 -0.0096954294 -9.1143703 -68.443169 -110.42689
-6.1167641 -8.5536289 -68.149849 -41.310757 -6.3156819 170.89111
142450000 -6.344408 168.48769 -70.714638 158.19147 -6.142518 -10.950626
-69.100281 -149.86183 -0.0094023319 -11.464314 -69.071518 -177.51939
-6.1271129 -10.800181 -67.817162 -23.744192 -6.3310771 168.71344
175562500 -6.3586335 165.9929 -69.993546 148.96399 -6.1510582 -13.253144
-70.089981 -164.53662 -0.0085741095 -14.114224 -69.613876 118.75806
-6.1384106 -13.324273 -67.811546 -7.6385846 -6.3464203 166.21376
208675000 -6.3737998 163.43269 -68.752838 152.32597 -6.1590862 -15.739102
-68.668777 -174.63858 -0.0090967482 -16.77586 -67.296249 69.422577
-6.1451883 -15.77601 -65.839462 1.8122129 -6.35883 163.7007
241787500 -6.3876386 160.88229 -67.281425 155.58394 -6.1647592 -18.226105
-66.302048 174.61925 -0.0092533221 -19.433969 -65.192749 32.666378
-6.1519804 -18.234894 -63.799034 -1.0783474 -6.3732128 161.18146
274900000 -6.3986454 158.34007 -64.473213 147.81865 -6.1693225 -20.672995
-64.390709 167.59494 -0.0099924784 -22.084455 -63.737823 12.15369
-6.15627 -20.690554 -62.055363 -10.58233 -6.3853192 158.67278
308012500 -6.4089093 155.7966 -62.497292 147.6291 -6.174612 -23.130476
-62.592514 163.87393 -0.0097441785 -24.737413 -61.904797 3.8116465
-6.1626215 -23.15082 -60.45977 -13.853158 -6.3988552 156.16194
341125000 -6.4204702 153.26476 -60.604958 147.1713 -6.1774955 -25.588507
-60.76223 157.98355 -0.011107781 -27.399752 -60.492065 -3.2989273
-6.167572 -25.5966 -59.213272 -14.678466 -6.4089007 153.67212
374237500 -6.4328094 150.71053 -58.760727 145.28923 -6.1824241 -28.065052
-58.790207 147.97369 -0.013518225 -30.064602 -58.975079 -11.223365
-6.1719756 -28.068964 -57.539665 -18.993624 -6.4222622 151.16278
407350000 -6.4451971 148.16631 -57.388992 144.77318 -6.1852083 -30.524588
-57.076141 142.67059 -0.014666311 -32.722141 -57.700905 -16.164045
-6.1766715 -30.5254 -56.268211 -20.28632 -6.4356966 148.65498
440462500 -6.4544954 145.62791 -55.512337 143.04906 -6.1878948 -32.988136
-55.241611 144.9126 -0.014733347 -35.373108 -56.212498 -18.647223
-6.1791787 -32.975872 -55.705711 -24.866999 -6.4472408 146.12024
473575000 -6.4644871 143.08617 -54.244659 142.84094 -6.1894293 -35.434277
-53.862827 143.02512 -0.016291128 -38.01334 -54.695293 -24.789646
-6.1807547 -35.421978 -54.690891 -28.397598 -6.4569988 143.6207
506687500 -6.4745731 140.5518 -52.903481 140.4109 -6.1906896 -37.888226
-52.71283 137.66544 -0.019395826 -40.661072 -53.489346 -29.018093
-6.1836925 -37.86689 -53.492599 -30.180191 -6.4676466 141.12267
539800000 -6.4848299 138.0074 -51.671871 138.42905 -6.1926117 -40.32547
-51.635204 134.27075 -0.021285787 -43.303947 -52.141926 -33.348282
-6.1867881 -40.308537 -52.442413 -32.34074 -6.4805689 138.62332
572912500 -6.4947267 135.46994 -50.580067 135.49028 -6.1948647 -42.779072
-50.442806 132.53209 -0.021912429 -45.956554 -50.980247 -37.004745
-6.1875792 -42.761776 -51.265503 -34.575199 -6.4904261 136.10081
606025000 -6.5061679 132.93483 -49.583252 132.29553 -6.1961761 -45.228256
-49.456512 131.83687 -0.024777014 -48.605667 -50.115444 -40.365337
-6.1889143 -45.211853 -50.265385 -38.234264 -6.4988813 133.59081
639137500 -6.5160675 130.38187 -48.718189 129.85257 -6.1975217 -47.671909
-48.450672 129.244 -0.026916444 -51.23708 -49.100155 -43.415646
-6.1894817 -47.677097 -49.355083 -41.950714 -6.5078707 131.08823
672250000 -6.5237093 127.83528 -47.803989 127.22589 -6.1987615 -50.124557
-47.541451 126.73962 -0.028368596 -53.87257 -48.252102 -46.610401
-6.1905785 -50.119205 -48.400646 -44.757187 -6.5195556 128.58382
705362500 -6.5307112 125.29762 -47.021652 124.57769 -6.1993594 -52.574608
-46.78936 124.59294 -0.031804804 -56.501202 -47.43079 -49.733086
-6.1902256 -52.568317 -47.498077 -47.973362 -6.5295668 126.0557
738475000 -6.5403981 122.76422 -46.151539 122.4782 -6.1980033 -55.016056
-45.983303 122.13226 -0.033499468 -59.132172 -46.611412 -52.332123
-6.1910081 -55.024414 -46.667408 -51.002281 -6.5368271 123.53705
771587500 -6.5480905 120.21873 -45.343266 119.92509 -6.1986523 -57.460953
-45.204388 119.98859 -0.036320172 -61.761093 -45.832001 -55.267155
-6.1921968 -57.481956 -45.902466 -53.952129 -6.5459704 121.03034
804700000 -6.556592 117.65689 -44.612999 118.07536 -6.1984954 -59.916126
-44.487804 117.53252 -0.036557447 -64.381462 -45.052666 -57.756027
-6.1923842 -59.939011 -45.071419 -57.072865 -6.5577402 118.51863
837812500 -6.5656252 115.1123 -43.923649 115.30592 -6.1979313 -62.378185
-43.85548 115.39083 -0.040049583 -67.008156 -44.380173 -60.540482
-6.1922169 -62.402733 -44.427708 -59.902836 -6.5676646 115.98129
870925000 -6.573667 112.55115 -43.2229 112.91689 -6.195631 -64.838539
-43.253712 112.7341 -0.042894863 -69.626587 -43.718025 -63.363884
-6.1922922 -64.866066 -43.792728 -62.782063 -6.5771713 113.44102
904037500 -6.5802884 110.00294 -42.547424 110.08504 -6.195735 -67.297394
-42.590202 109.93142 -0.045784216 -72.246498 -43.059532 -65.654816
-6.1908941 -67.312798 -43.156998 -65.618195 -6.5859604 110.91982
937150000 -6.5882382 107.44186 -41.913071 107.54325 -6.1961603 -69.774055
-41.984207 107.34585 -0.049836151 -74.864372 -42.502041 -68.58638
-6.1909189 -69.78273 -42.528667 -68.457108 -6.5975494 108.39246
970262500 -6.59728 104.89652 -41.325317 105.06177 -6.1944509 -72.225716
-41.415165 105.13136 -0.05272888 -77.468987 -41.862305 -70.842354
-6.190042 -72.24894 -41.970261 -71.209801 -6.6079855 105.85756
1003375000 -6.6046968 102.33031 -40.725845 102.19056 -6.1925554 -74.686798
-40.827251 102.50368 -0.056302462 -80.078896 -41.239407 -73.661217
-6.1879096 -74.715988 -41.419518 -73.874084 -6.6177664 103.31089
1036487500 -6.6114397 99.75489 -40.217518 99.646378 -6.1914496 -77.161865
-40.251907 99.839127 -0.060468178 -82.689034 -40.701683 -76.639023
-6.1865616 -77.183548 -40.824818 -76.821327 -6.6244397 100.77243
1069600000 -6.6191645 97.182793 -39.676132 97.047348 -6.1894121 -79.646004
-39.70599 97.315857 -0.062948823 -85.292328 -40.18425 -79.274559
-6.1830139 -79.657097 -40.242958 -79.646385 -6.6330628 98.236847
1102712500 -6.6287298 94.613007 -39.152744 94.393074 -6.1877556 -82.12648
-39.115795 94.822624 -0.06762249 -87.905701 -39.673542 -81.88887
-6.181675 -82.131165 -39.700649 -82.169266 -6.6437249 95.687904
1135825000 -6.6354194 92.028442 -38.617367 91.956024 -6.1853604 -84.601105
-38.588985 92.302513 -0.069811687 -90.510071 -39.144657 -84.407471
-6.1786866 -84.608467 -39.182217 -84.806183 -6.651423 93.128372
1168937500 -6.6417212 89.458832 -38.086998 89.368576 -6.1829314 -87.06839
-38.090202 89.779236 -0.073505469 -93.111343 -38.630478 -87.040459
-6.1764913 -87.080956 -38.681278 -87.451057 -6.6566992 90.582985
1202050000 -6.6511903 86.873024 -37.581333 86.75415 -6.1808038 -89.546677
-37.627132 87.119743 -0.077487364 -95.707993 -38.130539 -89.767601
-6.1749072 -89.563713 -38.159119 -90.259415 -6.6651754 88.045372
1235162500 -6.6582098 84.282959 -37.107143 84.29187 -6.1757517 -92.028809
-37.159554 84.499191 -0.08133512 -98.312317 -37.650047 -92.581558
-6.1710577 -92.043388 -37.661297 -92.828705 -6.6725459 85.480759
1268275000 -6.6650372 81.683342 -36.629265 81.730896 -6.1727142 -94.519386
-36.669014 81.861366 -0.08480221 -100.91164 -37.192501 -95.398956
-6.1684647 -94.523293 -37.171112 -95.527023 -6.6821489 82.891693
1301387500 -6.6730866 79.082527 -36.159416 79.182022 -6.1702409 -97.008644
-36.207119 79.135635 -0.087842181 -103.52374 -36.742004 -98.103394
-6.1670728 -97.012047 -36.691242 -98.148628 -6.6874919 80.314827
1334500000 -6.6817384 76.482605 -35.719284 76.617897 -6.1688957 -99.493858
-35.736546 76.572693 -0.091471642 -106.11221 -36.293812 -100.66795
-6.16571 -99.495338 -36.26889 -100.75883 -6.6977034 77.744888
1367612500 -6.6895428 73.875504 -35.277988 74.110306 -6.1654186 -101.97923
-35.278889 74.051231 -0.093862042 -108.71153 -35.842636 -103.27139
-6.164166 -101.98412 -35.844589 -103.42487 -6.7085824 75.175247
1400725000 -6.6951423 71.249001 -34.863914 71.57653 -6.1624532 -104.46445
-34.85799 71.423317 -0.099703453 -111.28201 -35.410542 -105.83267
-6.1618867 -104.48238 -35.435841 -106.0914 -6.7188716 72.569542
1433837500 -6.7012696 68.62973 -34.442509 69.090355 -6.1598487 -106.95224
-34.449867 68.856339 -0.1032169 -113.86546 -35.001198 -108.47096
-6.158946 -106.97377 -35.004925 -108.76887 -6.7274747 69.971313
1466950000 -6.7093573 66.005913 -34.06546 66.523567 -6.1569476 -109.44968
-34.03516 66.257317 -0.10851226 -116.445 -34.58799 -111.04321
-6.1566687 -109.47221 -34.597507 -111.39851 -6.7367263 67.380989
1500062500 -6.7136641 63.360184 -33.655598 64.081635 -6.1509795 -111.96244
-33.632603 63.721191 -0.11290524 -119.01582 -34.200455 -113.8409
-6.153398 -111.99539 -34.200909 -114.04434 -6.7438421 64.768929
1533175000 -6.721261 60.720192 -33.269753 61.493 -6.1504169 -114.45988
-33.239227 61.149925 -0.11771088 -121.57896 -33.806805 -116.49112
-6.1523485 -114.50362 -33.815491 -116.72533 -6.7558656 62.159939
1566287500 -6.7278118 58.095081 -32.876945 58.83329 -6.1466055 -116.96033
-32.872055 58.633205 -0.12276658 -124.14948 -33.444138 -119.06325
-6.1487861 -117.00707 -33.424606 -119.34387 -6.7608886 59.549156
1599400000 -6.7342334 55.455364 -32.496418 56.341473 -6.1452618 -119.47047
-32.493744 56.133263 -0.12757388 -126.70561 -33.063225 -121.68053
-6.1462526 -119.51389 -33.047436 -122.06985 -6.769752 56.927929
1632512500 -6.7427816 52.803482 -32.116966 53.730507 -6.1433363 -121.99503
-32.138412 53.523682 -0.13279028 -129.26888 -32.680378 -124.38744
-6.1440377 -122.02728 -32.670567 -124.73776 -6.7798963 54.298985
1665625000 -6.7498465 50.152412 -31.751364 51.071922 -6.142498 -124.51003
-31.780273 50.94825 -0.13933729 -131.82088 -32.324203 -127.11199
-6.1431775 -124.54137 -32.311459 -127.2862 -6.7903943 51.650204
1698737500 -6.7558055 47.510059 -31.387445 48.453148 -6.1402459 -127.02939
-31.432852 48.410587 -0.14252016 -134.38478 -31.978195 -129.82878
-6.1409497 -127.05439 -31.960552 -129.99899 -6.7963524 49.003883
1731850000 -6.7626815 44.84539 -31.042191 45.797077 -6.1393023 -129.55975
-31.085976 45.818359 -0.14912643 -136.93427 -31.630539 -132.55023
-6.1388783 -129.58815 -31.620317 -132.63426 -6.8023434 46.348202
1764962500 -6.7682457 42.168949 -30.688774 43.240364 -6.1383562 -132.1011
-30.741802 43.244942 -0.1538903 -139.48891 -31.288099 -135.28214
-6.1360278 -132.12068 -31.268755 -135.27612 -6.8095231 43.69389
1798075000 -6.7747655 39.501213 -30.354418 40.612881 -6.1379609 -134.61519
-30.387589 40.709362 -0.15834787 -142.0367 -30.95607 -137.86588
-6.1348166 -134.64647 -30.950583 -137.82262 -6.8195581 41.022945
1831187500 -6.7812381 36.831726 -30.028708 38.013432 -6.1362925 -137.14552
-30.058876 38.047421 -0.16235025 -144.59154 -30.612862 -140.50978
-6.1340241 -137.16725 -30.628685 -140.49426 -6.8253183 38.342037
1864300000 -6.7871151 34.126781 -29.696981 35.444897 -6.1343203 -139.69095
-29.713295 35.479454 -0.16912137 -147.13687 -30.277967 -143.12749
-6.1347017 -139.72346 -30.316071 -143.118 -6.8307972 35.656342
1897412500 -6.7932248 31.44198 -29.369932 32.86013 -6.1312151 -142.23169
-29.389639 32.908028 -0.17351902 -149.68726 -29.95643 -145.74358
-6.1345863 -142.27599 -29.998646 -145.69894 -6.8360019 32.988876
1930525000 -6.7964144 28.744801 -29.062212 30.237644 -6.1277661 -144.7728
-29.066069 30.288225 -0.18018648 -152.23129 -29.640753 -148.38455
-6.1329899 -144.83372 -29.682846 -148.32738 -6.8406134 30.300222
1963637500 -6.8018336 26.04932 -28.763573 27.618937 -6.1261263 -147.32304
-28.758797 27.679598 -0.18750313 -154.77351 -29.330711 -151.02956
-6.1317167 -147.38223 -29.371593 -151.09428 -6.8450031 27.595745
1996750000 -6.8088145 23.350212 -28.4575 24.994366 -6.1253114 -149.87881
-28.447857 25.081188 -0.1936439 -157.32794 -29.024839 -153.68375
-6.1299386 -149.94283 -29.059006 -153.69609 -6.8485451 24.886902
2029862500 -6.8114357 20.650835 -28.147823 22.423698 -6.1238036 -152.44073
-28.143938 22.487696 -0.20028071 -159.87132 -28.721201 -156.28958
-6.1303134 -152.49448 -28.760302 -156.32954 -6.8531494 22.203957
2062975000 -6.8161807 17.951607 -27.848808 19.838203 -6.1238704 -154.99802
-27.840717 19.879833 -0.20689858 -162.4113 -28.440163 -158.89751
-6.1309013 -155.05115 -28.456348 -159.0213 -6.8602176 19.496014
2096087500 -6.8205652 15.247549 -27.563377 17.194798 -6.1247406 -157.57721
-27.560249 17.262705 -0.21590205 -164.95517 -28.141174 -161.52429
-6.1311836 -157.60898 -28.156565 -161.65384 -6.8648853 16.781036
2129200000 -6.8229065 12.540463 -27.270521 14.594542 -6.1242933 -160.15848
-27.266163 14.731924 -0.22310592 -167.49342 -27.870626 -164.16205
-6.1300564 -160.19229 -27.864769 -164.2952 -6.8667831 14.052661
2162312500 -6.8263617 9.8242474 -26.997921 11.980172 -6.1250963 -162.73869
-26.990362 12.111479 -0.23016185 -170.04517 -27.591059 -166.78174
-6.1290064 -162.76047 -27.579794 -166.94167 -6.8703036 11.336225
2195425000 -6.8287988 7.1051669 -26.72551 9.3628101 -6.126399 -165.32455
-26.712065 9.5161085 -0.23918946 -172.57674 -27.308809 -169.42891
-6.1284919 -165.32713 -27.295918 -169.55721 -6.8738194 8.613965
2228537500 -6.829854 4.3938084 -26.442051 6.7968278 -6.1284976 -167.89597
-26.445204 6.9938288 -0.24769266 -175.12299 -27.045111 -172.08386
-6.1275215 -167.88895 -27.022392 -172.19539 -6.8767653 5.8919473
2261650000 -6.8329101 1.6725631 -26.163313 4.2235579 -6.1295643 -170.47523
-26.171532 4.4112635 -0.25515717 -177.65688 -26.774605 -174.6886
-6.1283035 -170.47289 -26.749821 -174.8322 -6.8745003 3.1646261
2294762500 -6.8350611 -1.0631316 -25.889856 1.6512023 -6.1314144 -173.05869
-25.905947 1.7973801 -0.26433 179.80785 -26.510389 -177.36145
-6.1295218 -173.06389 -26.476368 -177.47697 -6.8738828 0.44170606
2327875000 -6.84027 -3.8093183 -25.62948 -0.94301027 -6.1333313 -175.64294
-25.639391 -0.78198946 -0.27273515 177.27573 -26.247913 -179.96367
-6.13096 -175.66093 -26.200377 179.90408 -6.8740311 -2.303798
2360987500 -6.8446851 -6.5487299 -25.368902 -3.5916033 -6.1346354 -178.23042
-25.377199 -3.3666842 -0.281975 174.75206 -25.980042 177.38564
-6.1337299 -178.25385 -25.94438 177.37459 -6.8720369 -5.0535831
2394100000 -6.8467851 -9.286747 -25.103497 -6.1458912 -6.1366873 179.17258
-25.108633 -5.9998112 -0.29018614 172.22453 -25.722502 174.74066
-6.1355133 179.15746 -25.68856 174.70215 -6.8693514 -7.7921786
2427212500 -6.849144 -12.042237 -24.846823 -8.7371521 -6.1392736 176.57378
-24.849583 -8.6135359 -0.29968533 169.70981 -25.454258 172.07404
-6.1371465 176.56456 -25.427406 172.05563 -6.8665781 -10.528158
2460325000 -6.8512836 -14.797921 -24.586664 -11.325399 -6.1434345 173.97807
-24.596025 -11.225771 -0.30928665 167.18771 -25.203173 169.38934
-6.1404676 173.96165 -25.174604 169.37856 -6.865685 -13.280301
2493437500 -6.8543344 -17.565128 -24.329052 -13.927372 -6.1465645 171.37846
-24.345581 -13.862596 -0.3194156 164.66797 -24.956606 166.75485
-6.1444111 171.35023 -24.927361 166.74232 -6.8643532 -16.040199
2526550000 -6.85882 -20.3346 -24.078617 -16.546759 -6.1508131 168.76219
-24.085966 -16.515911 -0.32719481 162.14822 -24.707325 164.10776
-6.1492715 168.72234 -24.678488 164.11525 -6.8629203 -18.808348
2559662500 -6.8617082 -23.115316 -23.831049 -19.120193 -6.1556082 166.14206
-23.836859 -19.129974 -0.33710352 159.62001 -24.466198 161.45128
-6.1528955 166.10468 -24.430754 161.47896 -6.8618288 -21.586563
2592775000 -6.8628249 -25.898651 -23.590307 -21.78158 -6.1606045 163.52376
-23.594513 -21.713547 -0.34600294 157.11118 -24.222113 158.82199
-6.158474 163.48746 -24.189957 158.81656 -6.8602972 -24.352077
2625887500 -6.8652534 -28.66358 -23.355957 -24.404394 -6.1664467 160.90361
-23.35272 -24.33181 -0.35639268 154.5748 -23.982569 156.12849
-6.1647372 160.87231 -23.95677 156.12196 -6.8591838 -27.122969
2659000000 -6.86484 -31.440857 -23.112478 -26.991701 -6.1719475 158.27272
-23.116461 -26.94223 -0.36547717 152.04349 -23.74762 153.4733
-6.1695423 158.25122 -23.716072 153.3987 -6.8568244 -29.90122
2692112500 -6.8682075 -34.23811 -22.876915 -29.657272 -6.1771336 155.64795
-22.884844 -29.551903 -0.37591997 149.50612 -23.516644 150.79266
-6.1751933 155.60069 -23.478771 150.70647 -6.8530736 -32.696552
2725225000 -6.8721867 -37.022678 -22.639219 -32.306316 -6.184823 153.01332
-22.654812 -32.197987 -0.38686618 146.96367 -23.287228 148.12656
-6.1847844 152.96819 -23.248917 148.06746 -6.851697 -35.487125
2758337500 -6.875874 -39.796154 -22.409367 -34.950661 -6.1910577 150.37761
-22.420475 -34.837467 -0.39480767 144.42569 -23.055984 145.48775
-6.1934366 150.33624 -23.016481 145.43053 -6.8480387 -38.271328
2791450000 -6.8787179 -42.5826 -22.180668 -37.567455 -6.1992245 147.73312
-22.188681 -37.452847 -0.40512794 141.89284 -22.82929 142.81578
-6.2007294 147.69646 -22.787964 142.74426 -6.8444724 -41.070114
2824562500 -6.8817825 -45.381512 -21.956898 -40.2127 -6.2060957 145.08261
-21.968142 -40.070457 -0.41437185 139.36078 -22.602371 140.1503
-6.2103081 145.04944 -22.562393 140.05275 -6.8385887 -43.877876
2857675000 -6.8827972 -48.177818 -21.734182 -42.846542 -6.2149925 142.43793
-21.74971 -42.691849 -0.42529148 136.80884 -22.378155 137.48901
-6.2207665 142.40817 -22.344456 137.38419 -6.8345947 -46.664642
2890787500 -6.8848953 -50.963207 -21.510086 -45.458618 -6.2235098 139.78508
-21.521297 -45.331905 -0.43632677 134.26851 -22.152597 134.84181
-6.2300496 139.76205 -22.122267 134.72343 -6.8301115 -49.465595
2923900000 -6.8873262 -53.764984 -21.286865 -48.10302 -6.2326331 137.12555
-21.301771 -48.018726 -0.44555447 131.72897 -21.931776 132.15796
-6.2378964 137.10484 -21.902746 132.06416 -6.8245525 -52.276142
2957012500 -6.8918223 -56.59029 -21.071024 -50.75687 -6.2441349 134.45731
-21.085005 -50.689457 -0.45787385 129.18839 -21.714102 129.47633
-6.249033 134.42799 -21.687277 129.3744 -6.8190732 -55.09985
2990125000 -6.8939104 -59.396336 -20.852888 -53.381832 -6.2568717 131.78116
-20.867847 -53.331791 -0.46682075 126.63853 -21.49898 126.78137
-6.2616625 131.77673 -21.476549 126.71864 -6.8141093 -57.920464
3023237500 -6.8943534 -62.20554 -20.636967 -56.024136 -6.2672729 129.1227
-20.648216 -55.967621 -0.47851941 124.08062 -21.282337 124.1092
-6.271769 129.10767 -21.262192 124.02197 -6.8078775 -60.728859
3056350000 -6.8944678 -65.020767 -20.424986 -58.647572 -6.2797604 126.44851
-20.436991 -58.598858 -0.49074292 121.52318 -21.069143 121.43033
-6.2828345 126.42672 -21.051767 121.32668 -6.802835 -63.546776
3089462500 -6.8933978 -67.827072 -20.217249 -61.321323 -6.2918744 123.77165
-20.229738 -61.284267 -0.50148809 118.94716 -20.857069 118.72847
-6.2939806 123.75182 -20.842478 118.6379 -6.7946143 -66.382278
3122575000 -6.8923879 -70.628334 -20.005642 -63.982315 -6.305582 121.09947
-20.019495 -63.942799 -0.51275021 116.38062 -20.646954 116.04533
