! MARKI MICROWAVE INC.
! Email:             	support@markimicrowave.com   				Phone:   408-778-4200
! Model Number:      	BAL-0020SLG						Date:    08/20
! Filename:		BAL-0020SLG.S3P						Version: 1.0
! Description:       	3-port S-parameter data for Balun BAL-0020SLG
! Frequency Range: 	10 MHz to 20 GHz		
! Port Configuration:	PORT 1: COMMON , PORT 2: OUTPUT(0 DEGREE), PORT 3: OUTPUT (180 DEGREE)


! S3P File: Measurements: Mag<S11> Ang<S11> Mag<S12> Ang<S12> Mag<S13> Ang<S13>! row 1 
!			  Mag<S21> Ang<S21> Mag<S22> Ang<S22> Mag<S23> Ang<S23>! row 2 
!			  Mag<S31> Ang<S31> Mag<S32> Ang<S32> Mag<S33> Ang<S33>! row 3 
# Hz S  dB   R 50

10000000 -10.120708 145.9334 -8.4653883 -168.49762 -8.4584312 11.43333
-8.4531469 -168.51425 -5.1058426 163.38667 -18.959856 31.695824
-8.4628525 11.409459 -18.985989 31.800964 -5.100327 163.53595
10488500 -10.391541 145.86772 -8.4157772 -168.94518 -8.3857737 10.911418
-8.4007521 -168.94365 -5.2156439 163.43814 -18.778612 30.836576
-8.4083452 11.005137 -18.78009 30.833462 -5.231452 163.54149
10737000 -10.49514 145.91785 -8.3642483 -169.21541 -8.3712988 10.692118
-8.3614616 -169.13109 -5.2700114 163.47498 -18.713867 30.159176
-8.3689051 10.762295 -18.710726 30.386341 -5.2873974 163.53899
10985500 -10.561303 145.99767 -8.3648949 -169.46632 -8.3468828 10.486963
-8.3250523 -169.36038 -5.3246269 163.46391 -18.654284 29.805357
-8.331337 10.498878 -18.668715 29.754187 -5.343854 163.55753
11234000 -10.681744 146.00171 -8.3226404 -169.61681 -8.3228226 10.304265
-8.3277092 -169.66409 -5.3544593 163.57831 -18.584017 29.413548
-8.3282204 10.292326 -18.576778 29.359627 -5.3670874 163.67616
11482500 -10.780471 145.99936 -8.2979822 -169.90321 -8.2910204 10.042135
-8.3105717 -169.85736 -5.3918529 163.62189 -18.535854 28.803717
-8.3068542 10.058723 -18.535114 28.855433 -5.4190488 163.69655
11731000 -10.858651 146.06212 -8.2787151 -170.06924 -8.275897 9.8201752
-8.2797203 -170.06221 -5.4375238 163.62938 -18.435501 28.21759
-8.2913113 9.8242207 -18.457644 28.221241 -5.454864 163.77023
11979500 -10.945746 146.16498 -8.2617788 -170.2879 -8.2727079 9.6124573
-8.2710609 -170.28633 -5.4792442 163.64531 -18.409924 27.778736
-8.2670574 9.481308 -18.44812 27.862093 -5.4961433 163.86714
12228000 -11.021555 146.27969 -8.2448196 -170.48225 -8.2316151 9.4533062
-8.2486029 -170.48619 -5.5220861 163.80038 -18.366083 27.348478
-8.2551489 9.382493 -18.361757 27.462223 -5.5264621 163.90764
12476500 -11.093305 146.39685 -8.2216272 -170.77637 -8.2288609 9.1738882
-8.2228832 -170.73982 -5.5494494 163.81966 -18.336199 26.774221
-8.2386723 9.14958 -18.35272 27.135244 -5.5668445 164.01215
12725000 -11.181247 146.51175 -8.2134428 -170.98317 -8.2130775 8.9970531
-8.2028637 -170.85493 -5.6041307 163.91765 -18.296055 26.40699
-8.219409 8.9896631 -18.266983 26.571505 -5.5966811 164.04051
12973500 -11.288318 146.62416 -8.1875248 -171.07468 -8.1856318 8.7831907
-8.2024775 -171.09189 -5.6250839 164.00258 -18.21961 26.184593
-8.2062664 8.8372211 -18.216223 26.181782 -5.6409001 164.0386
13222000 -11.33751 146.62602 -8.180088 -171.3047 -8.1917381 8.6192408
-8.1759205 -171.34569 -5.6644053 163.97327 -18.192322 25.890383
-8.1985903 8.5684891 -18.208975 25.487009 -5.6711469 164.19424
13470500 -11.408993 146.80055 -8.1627131 -171.53624 -8.1671848 8.4088717
-8.1671247 -171.42685 -5.6976709 164.08427 -18.15484 25.166176
-8.176301 8.470623 -18.150337 25.252258 -5.7012219 164.2282
13719000 -11.469899 146.78732 -8.1619768 -171.65445 -8.1690645 8.1924677
-8.1369486 -171.67999 -5.7275958 164.13525 -18.098236 24.916132
-8.1692266 8.2203474 -18.103848 24.938454 -5.742557 164.26869
13967500 -11.557552 147.04103 -8.1430187 -171.92371 -8.139142 8.0600691
-8.1474419 -171.81514 -5.762115 164.15569 -18.080511 24.297344
-8.1605024 8.0443153 -18.087971 24.416512 -5.7806506 164.36865
14216000 -11.632294 147.14819 -8.118556 -171.96609 -8.1403637 7.9975471
-8.133152 -171.93655 -5.7928357 164.31293 -18.058031 23.993809
-8.1412764 7.9473915 -18.065306 24.278912 -5.8057184 164.44749
14464500 -11.703824 147.34866 -8.1216822 -172.15678 -8.1196022 7.7342339
-8.1104774 -172.16223 -5.8303475 164.31062 -17.974438 23.60582
-8.1296024 7.7461748 -18.007246 23.872669 -5.8374619 164.52869
14713000 -11.769132 147.25151 -8.1116667 -172.33734 -8.1148167 7.5459924
-8.1118307 -172.32364 -5.8464875 164.41306 -17.97917 23.263613
-8.1199751 7.6013441 -17.995527 23.431709 -5.8702383 164.50395
14961500 -11.817095 147.62994 -8.094142 -172.52573 -8.1019487 7.3880911
-8.0986891 -172.47099 -5.8754554 164.53477 -17.967943 22.869795
-8.1026936 7.4786749 -17.913082 23.054132 -5.9034162 164.64624
15210000 -11.893354 147.55545 -8.0967836 -172.64998 -8.1008625 7.1447897
-8.0854893 -172.66544 -5.9088612 164.55927 -17.900042 22.74898
-8.1013002 7.1895223 -17.910931 22.673962 -5.9292035 164.72501
15458500 -11.968904 147.72957 -8.0787649 -172.85222 -8.0812082 7.1893077
-8.0856619 -172.73898 -5.9343829 164.58047 -17.866043 22.292742
-8.0907021 7.2129574 -17.889277 22.386415 -5.9397793 164.84352
15707000 -12.008176 147.92136 -8.0584841 -172.94759 -8.0728178 7.031826
-8.0649576 -172.91927 -5.9491763 164.70596 -17.826782 22.182899
-8.099268 6.9442949 -17.848631 21.965118 -5.979609 164.90627
15955500 -12.06331 148.01416 -8.0654974 -173.19226 -8.0737295 6.8195319
-8.0538044 -173.05634 -5.9853439 164.77496 -17.835056 21.531967
-8.0783892 6.8163033 -17.84412 21.766985 -5.9982371 164.92874
16204000 -12.12508 148.14595 -8.0500345 -173.24086 -8.0642881 6.735126
-8.0572844 -173.21393 -6.0019488 164.82176 -17.784342 21.344826
-8.0738125 6.7172728 -17.805216 21.516979 -6.0155234 165.08951
16452500 -12.167037 148.36131 -8.0380831 -173.31778 -8.0481405 6.5802965
-8.0394554 -173.38051 -6.0325632 164.99121 -17.78397 21.203671
-8.0521545 6.6300254 -17.787369 20.985601 -6.0306058 165.00539
16701000 -12.227978 148.51166 -8.0432758 -173.54909 -8.0509481 6.4337945
-8.0453482 -173.51689 -6.0609837 164.96106 -17.780863 20.868443
-8.0453081 6.4632807 -17.760939 20.672468 -6.0592866 165.13138
16949500 -12.284964 148.50246 -8.0392876 -173.62027 -8.0508919 6.3889003
-8.025362 -173.58133 -6.0793061 165.12798 -17.747648 20.658897
-8.045577 6.3040004 -17.755136 20.525988 -6.0886221 165.21944
17198000 -12.325946 148.80182 -8.0154142 -173.74759 -8.0344601 6.1737189
-8.0362244 -173.6913 -6.0952067 165.13271 -17.714504 20.256121
-8.0329361 6.163691 -17.728315 20.350088 -6.1025062 165.32085
17446500 -12.407442 148.85959 -8.0172148 -173.88721 -8.0331135 6.0449858
-8.0191078 -173.81789 -6.1271429 165.24159 -17.701151 20.069435
-8.0317602 6.1396675 -17.715651 20.203505 -6.124136 165.38237
17695000 -12.446426 149.01756 -8.0095577 -173.99918 -8.0178547 5.9633346
-8.010994 -173.91135 -6.1540604 165.26155 -17.701401 19.826643
-8.0260201 5.9919267 -17.687891 19.682703 -6.1567473 165.45052
17943500 -12.501767 149.0695 -8.0125599 -174.12366 -8.0281124 5.8716059
-8.0071573 -174.09509 -6.1676888 165.36165 -17.683731 19.459904
-8.0223608 5.8295922 -17.668545 19.386612 -6.1860781 165.52899
18192000 -12.525991 149.37239 -8.0031176 -174.20236 -8.0268011 5.7249875
-8.0021992 -174.21138 -6.1868563 165.46187 -17.621109 19.183819
-8.0221491 5.7579741 -17.672567 19.099354 -6.1926737 165.52843
18440500 -12.597364 149.26045 -7.9930515 -174.34747 -8.014142 5.5155239
-7.9907503 -174.34737 -6.2081642 165.47688 -17.640972 18.879837
-8.0185909 5.5576673 -17.620251 19.253996 -6.2102094 165.67722
18689000 -12.628155 149.53656 -7.9908051 -174.51172 -8.0126467 5.4566689
-7.9990811 -174.442 -6.2206368 165.59325 -17.610212 18.550583
-8.0073547 5.5058885 -17.612896 18.784943 -6.234211 165.78975
18937500 -12.678785 149.72241 -7.9945254 -174.55649 -8.0048256 5.4432135
-7.9887319 -174.55272 -6.2487783 165.63164 -17.600849 18.411947
-8.0096788 5.3664842 -17.644209 18.467127 -6.2383299 165.84369
19186000 -12.70294 149.83772 -7.9873142 -174.67714 -7.9892764 5.2964368
-7.9934468 -174.66696 -6.2646284 165.72032 -17.589054 18.24444
-8.000493 5.2808228 -17.584564 18.114357 -6.2573991 165.84926
19434500 -12.765854 150.02219 -7.9889216 -174.7749 -7.9930086 5.2230587
-7.9835553 -174.76646 -6.289268 165.77377 -17.574047 18.03203
-8.0122604 5.1845589 -17.59103 17.904762 -6.2938838 165.97836
19683000 -12.796223 150.01385 -7.9650626 -174.95886 -7.9776764 5.044827
-7.9814854 -174.95815 -6.2894731 165.84126 -17.564268 17.836292
-7.995224 5.1338606 -17.580826 17.863985 -6.3013792 166.015
19931500 -12.851241 150.24026 -7.9723148 -174.97705 -7.982183 4.938015
-7.9842339 -174.98419 -6.3157635 165.89529 -17.525373 17.738453
-7.9901009 5.0359187 -17.56699 17.382109 -6.3096547 166.11436
20180000 -12.875036 150.38014 -7.9617147 -175.12495 -7.9756432 4.8598285
-7.9818273 -175.12312 -6.3346739 165.95233 -17.520906 17.351364
-7.9842987 4.8680968 -17.510624 17.299397 -6.3313928 166.11241
20428500 -12.901542 150.51247 -7.9587102 -175.14311 -7.9842567 4.7229581
-7.9640741 -175.16437 -6.3443685 166.07712 -17.506939 17.133842
-7.982954 4.7740493 -17.501385 17.088093 -6.3504224 166.10449
20677000 -12.964132 150.56258 -7.9555197 -175.29222 -7.9641361 4.6336756
-7.9670005 -175.30737 -6.3553333 166.05373 -17.504757 17.041368
-7.9744363 4.7014432 -17.519403 16.891945 -6.3659925 166.23384
20925500 -12.996447 150.73241 -7.9620333 -175.41592 -7.9614 4.5496473
-7.9650502 -175.44218 -6.3752856 166.21078 -17.489464 16.631996
-7.9680767 4.6156244 -17.488588 16.800037 -6.3673015 166.26001
21174000 -13.011892 150.83467 -7.9596715 -175.57518 -7.9554625 4.4525156
-7.9518394 -175.52213 -6.3905778 166.16057 -17.498486 16.492289
-7.9588962 4.3830738 -17.450344 16.424238 -6.3886247 166.38217
21422500 -13.049971 150.94131 -7.9401112 -175.53244 -7.9691606 4.4454055
-7.9578695 -175.50085 -6.3982472 166.26471 -17.473928 16.52228
-7.9603562 4.4302926 -17.463329 16.209822 -6.4018998 166.3725
21671000 -13.083392 151.05298 -7.9422669 -175.65953 -7.9715695 4.2686782
-7.9491682 -175.6451 -6.41149 166.28784 -17.483288 16.140665
-7.9658098 4.2723098 -17.478334 16.260727 -6.4174118 166.42155
21919500 -13.11866 151.13936 -7.9483652 -175.76115 -7.9490757 4.2593775
-7.9466338 -175.72101 -6.4273596 166.41658 -17.417503 16.047646
-7.9623833 4.2626805 -17.465193 15.815887 -6.422821 166.52669
22168000 -13.156884 151.3033 -7.9503222 -175.9438 -7.9545307 4.0532808
-7.9325876 -175.81471 -6.447928 166.35793 -17.441195 15.758433
-7.9507365 4.0938368 -17.433678 15.577918 -6.4442306 166.47749
22416500 -13.188285 151.41685 -7.9331427 -175.91194 -7.9428372 4.0050144
-7.9410334 -175.99115 -6.4529672 166.4487 -17.429098 15.709818
-7.9587746 4.002646 -17.412468 15.526161 -6.4508305 166.61832
22665000 -13.22053 151.56648 -7.9321952 -175.99156 -7.9507685 3.9590552
-7.9328561 -176.06116 -6.466609 166.50249 -17.389271 15.343154
-7.941709 3.8718107 -17.406164 15.492577 -6.4747596 166.59825
22913500 -13.253783 151.80759 -7.9178782 -176.11667 -7.9419975 3.7940156
-7.9399462 -176.17162 -6.4752789 166.53099 -17.400595 15.18578
-7.9411607 3.8750105 -17.399414 15.187133 -6.4791751 166.73767
23162000 -13.2594 151.81961 -7.9253798 -176.24448 -7.9395862 3.7931502
-7.9266915 -176.18402 -6.4882412 166.52141 -17.390392 14.996794
-7.9430566 3.8569255 -17.380373 14.948632 -6.4957986 166.70813
23410500 -13.308433 151.89133 -7.9111214 -176.29254 -7.9304757 3.599992
-7.9217019 -176.34804 -6.5048132 166.58739 -17.367531 14.782266
-7.939486 3.721082 -17.360994 14.700891 -6.5010924 166.72792
23659000 -13.322142 151.94106 -7.9172583 -176.42055 -7.9253635 3.5226243
-7.9117084 -176.37932 -6.5184751 166.68831 -17.360579 14.593236
-7.9357653 3.576328 -17.371344 14.542444 -6.5076489 166.83284
23907500 -13.364799 152.00362 -7.9110265 -176.57654 -7.9166937 3.4482715
-7.8984151 -176.50685 -6.518281 166.6962 -17.332756 14.279716
-7.9219432 3.5236571 -17.368561 14.221451 -6.5085354 166.8085
24156000 -13.388935 152.10527 -7.895628 -176.59724 -7.9210911 3.3721147
-7.9085836 -176.64236 -6.5252695 166.69189 -17.347437 14.058913
-7.9293242 3.4408529 -17.363661 14.167019 -6.5325341 166.91812
24404500 -13.425875 152.22754 -7.9128914 -176.67036 -7.9195471 3.2328894
-7.9084554 -176.68092 -6.5451097 166.7352 -17.330109 14.044681
-7.9298983 3.3260872 -17.345776 14.326965 -6.5375276 166.85284
24653000 -13.41941 152.47514 -7.9119563 -176.78777 -7.9122367 3.1821144
-7.904366 -176.6499 -6.5616093 166.79085 -17.319517 13.857499
-7.9256525 3.2694166 -17.324289 13.680073 -6.5574141 166.92029
24901500 -13.472592 152.44075 -7.9046059 -176.88199 -7.9148097 3.1562071
-7.9008532 -176.81485 -6.5544758 166.84724 -17.326237 13.771019
-7.9192047 3.1408982 -17.305117 13.715145 -6.5616097 167.01425
25150000 -13.508094 152.6198 -7.8920259 -176.94193 -7.9165006 3.0192964
-7.9144201 -176.87817 -6.5714946 166.90265 -17.282728 13.649884
-7.931201 3.0538743 -17.318724 13.528206 -6.5633855 166.98744
25398500 -13.506659 152.61009 -7.8994298 -177.06303 -7.9068742 2.9987099
-7.8949246 -177.05786 -6.591332 166.90498 -17.313913 13.546217
-7.915946 2.9075971 -17.327166 13.257508 -6.5729713 167.08189
25647000 -13.5184 152.79176 -7.8867908 -177.15982 -7.8974037 2.8462465
-7.8911633 -177.14938 -6.5842199 166.88554 -17.3144 13.243222
-7.9067354 2.812022 -17.32605 13.263232 -6.5738358 167.02037
25895500 -13.551004 152.82492 -7.880074 -177.18192 -7.9093704 2.7603431
-7.8885145 -177.1869 -6.599772 166.90448 -17.294123 13.214446
-7.9139881 2.8481915 -17.262022 13.104215 -6.6016531 167.10745
26144000 -13.595276 152.92384 -7.878489 -177.26306 -7.9046245 2.7448871
-7.8885016 -177.27917 -6.6029148 166.96461 -17.269068 12.847243
-7.9087539 2.6807704 -17.289074 12.863832 -6.5955143 167.13589
26392500 -13.587381 153.28035 -7.8923697 -177.40202 -7.8999448 2.6431592
-7.8924246 -177.3347 -6.6190996 166.97772 -17.290245 12.837479
-7.906363 2.6251559 -17.288502 12.582724 -6.6124353 167.20468
26641000 -13.609913 153.17491 -7.8779316 -177.43375 -7.8994894 2.5625272
-7.8800511 -177.39694 -6.6275744 167.04286 -17.288376 12.497171
-7.9083986 2.590559 -17.266958 12.790532 -6.6135449 167.18344
26889500 -13.632283 153.17616 -7.8747816 -177.51147 -7.9011431 2.4901416
-7.8858161 -177.47594 -6.6349812 167.01006 -17.259172 12.594137
-7.9063368 2.4262941 -17.250422 12.285042 -6.629847 167.21713
27138000 -13.648866 153.25052 -7.8640866 -177.63826 -7.8855352 2.4338865
-7.8760848 -177.55673 -6.6394682 167.1328 -17.276794 12.390511
-7.9007754 2.3653138 -17.271076 12.377191 -6.6283884 167.19133
27386500 -13.692972 153.38258 -7.8684363 -177.76141 -7.8911133 2.2930872
-7.877913 -177.61058 -6.6457524 167.12523 -17.260822 12.313215
-7.8965216 2.3783789 -17.22286 12.148279 -6.6355915 167.21887
27635000 -13.689358 153.53578 -7.8601613 -177.74858 -7.8725667 2.1955752
-7.8657722 -177.74373 -6.6512156 167.1525 -17.229689 12.157254
-7.8934178 2.3046579 -17.236897 11.834496 -6.6471558 167.2224
27883500 -13.723702 153.46349 -7.8639288 -177.7459 -7.8751726 2.1368134
-7.8768988 -177.82048 -6.655725 167.17851 -17.202656 11.755475
-7.8839178 2.277864 -17.211527 11.990404 -6.6534524 167.23701
28132000 -13.729698 153.51942 -7.8628321 -177.87863 -7.8867369 2.0186663
-7.8647561 -177.86765 -6.6698489 167.1732 -17.197134 11.704238
-7.8803778 2.1204767 -17.216858 11.868161 -6.6584468 167.34134
28380500 -13.760445 153.62912 -7.8525901 -178.05331 -7.8741364 2.0010533
-7.8623357 -178.00731 -6.6738501 167.1983 -17.1964 11.641721
-7.8938041 1.9998069 -17.203943 11.689088 -6.6676993 167.31551
28629000 -13.774428 153.81323 -7.848423 -177.9957 -7.8712726 1.9364884
-7.8622742 -178.04964 -6.6709776 167.24234 -17.19351 11.477957
-7.8786497 2.0100884 -17.200243 11.562463 -6.6687145 167.32117
28877500 -13.795592 153.77646 -7.8506331 -178.09213 -7.8760304 1.8412421
-7.857429 -178.08649 -6.6901927 167.2598 -17.210115 11.300769
-7.8789191 1.9072343 -17.199898 11.486806 -6.6765337 167.40164
29126000 -13.816826 153.8387 -7.8619046 -178.27278 -7.8754678 1.7853209
-7.8596258 -178.18167 -6.7015858 167.24387 -17.206486 11.35974
-7.8863268 1.8955233 -17.211555 11.09009 -6.6902728 167.35713
29374500 -13.854333 153.99225 -7.8536806 -178.31799 -7.8732142 1.7109969
-7.8545203 -178.21361 -6.7030239 167.29326 -17.194887 10.911097
-7.8893061 1.7664871 -17.194061 11.176248 -6.7055597 167.40912
29623000 -13.83337 154.07631 -7.8548942 -178.29756 -7.8724732 1.7105452
-7.8510127 -178.31207 -6.7080283 167.32265 -17.160021 11.064211
-7.8711605 1.6965778 -17.169493 11.011578 -6.6954627 167.48907
29871500 -13.873807 154.10338 -7.8417234 -178.44215 -7.8721309 1.6502069
-7.8561068 -178.39795 -6.7100306 167.28044 -17.173855 10.827889
-7.8751035 1.5301037 -17.170353 10.886281 -6.7095227 167.48817
30120000 -13.906092 154.2267 -7.8499274 -178.48534 -7.8713002 1.552922
-7.8586249 -178.47937 -6.7301292 167.37486 -17.168346 10.655167
-7.8728881 1.5432204 -17.176994 10.708158 -6.7299619 167.46997
30368500 -13.892591 154.44058 -7.8559561 -178.58255 -7.8519268 1.4780319
-7.840765 -178.47388 -6.7296233 167.36075 -17.163881 10.689578
-7.8702083 1.411628 -17.188477 10.381148 -6.7050462 167.50674
30617000 -13.91681 154.41252 -7.8496146 -178.5885 -7.866981 1.3695229
-7.8429189 -178.56891 -6.7237835 167.4465 -17.160442 10.342846
-7.8731799 1.3788246 -17.163069 10.385323 -6.7255578 167.46371
30865500 -13.949011 154.49329 -7.8452525 -178.62267 -7.8628736 1.2911469
-7.8409286 -178.65826 -6.7491431 167.38841 -17.14185 10.232359
-7.8731084 1.3874911 -17.159496 10.071375 -6.7291136 167.46867
31114000 -13.966792 154.59126 -7.8279552 -178.67972 -7.8606424 1.3070453
-7.8504934 -178.76125 -6.7422862 167.41318 -17.161942 9.9829102
-7.8691287 1.3448833 -17.131842 10.320113 -6.7399712 167.58096
31362500 -13.947412 154.61821 -7.8388014 -178.90271 -7.8477993 1.2161984
-7.839612 -178.7858 -6.7526994 167.39426 -17.15176 10.060094
-7.8628411 1.2563859 -17.135115 10.009789 -6.7350473 167.51898
31611000 -13.980111 154.77014 -7.8323193 -178.87659 -7.853786 1.1103795
-7.8360095 -178.86809 -6.7603011 167.4458 -17.11821 10.00041
-7.8700442 1.2251817 -17.13653 9.8719177 -6.7479563 167.5784
31859500 -13.990972 154.78104 -7.8322234 -178.95226 -7.8528423 0.99300367
-7.845274 -178.96049 -6.7608781 167.47043 -17.160234 9.9324827
-7.8583584 1.1191373 -17.144926 9.8430519 -6.7511129 167.58997
32108000 -14.004241 154.77522 -7.8491216 -179.07098 -7.8493185 0.96947825
-7.8332896 -179.04935 -6.7772255 167.49593 -17.13916 9.7974997
-7.8549509 0.95803076 -17.130018 9.6900578 -6.7677093 167.5787
32356500 -14.030286 154.86452 -7.8208752 -179.10312 -7.8509464 0.93329424
-7.8338704 -179.11349 -6.777081 167.45537 -17.119598 9.4266119
-7.8615389 0.92697418 -17.125807 9.4699726 -6.7640848 167.67334
32605000 -14.038367 154.98567 -7.8296876 -179.1881 -7.8516779 0.86809105
-7.8429966 -179.13564 -6.7718163 167.47726 -17.135546 9.4615755
-7.8605533 0.94911295 -17.114653 9.3839121 -6.764327 167.64471
32853500 -14.040552 154.93018 -7.8248405 -179.24998 -7.8315401 0.76213813
-7.8425779 -179.15762 -6.7830205 167.52101 -17.100569 9.3073139
-7.8596787 0.81251335 -17.113363 9.2422142 -6.7636671 167.6319
33102000 -14.091011 154.97887 -7.8268905 -179.30377 -7.8419914 0.79706126
-7.8381863 -179.27873 -6.7808285 167.55222 -17.106785 9.2119379
-7.8574982 0.77028871 -17.126469 8.9987116 -6.7776928 167.72369
33350500 -14.078967 155.17975 -7.8268714 -179.37874 -7.8444691 0.62444264
-7.8331523 -179.33833 -6.7850575 167.51981 -17.126293 8.9247751
-7.8548245 0.62967503 -17.1175 9.4094028 -6.7850065 167.65114
33599000 -14.119802 155.12199 -7.8247747 -179.48749 -7.8443475 0.56615287
-7.8328819 -179.35536 -6.8002295 167.53038 -17.095169 8.9200182
-7.8554573 0.61600155 -17.08029 8.9023609 -6.7913823 167.70088
33847500 -14.120327 155.18803 -7.829421 -179.47653 -7.8378434 0.56270206
-7.8287768 -179.46248 -6.8117256 167.65025 -17.083178 8.9850264
-7.865396 0.49592185 -17.108524 8.9029179 -6.7925777 167.70071
34096000 -14.11226 155.2459 -7.8139634 -179.52364 -7.8353534 0.4448196
-7.8304324 -179.54272 -6.8078308 167.56648 -17.087431 8.7811966
-7.8465271 0.56062597 -17.102074 8.6997719 -6.7915354 167.65369
34344500 -14.131433 155.35121 -7.8261185 -179.62689 -7.8357158 0.37966684
