! MARKI MICROWAVE INC.
! Email:             	info@markimicrowave.com   				Phone:   408-778-4200
! Model Number:      	BAL-0050						Date:    10/14
! Filename:		BAL-0050.S3P						Version: 1.0
! Description:       	3-port S-parameter data for Balun BAL-0050
! Frequency Range: 	10 MHz to 55 GHz		
! Port Configuration:	PORT 1: OUTPUT (0 DEGREE), PORT 2: OUTPUT (180 DEGREE), PORT 3: COMMON


! S3P File: Measurements: Mag<S11> Ang<S11> Mag<S12> Ang<S12> Mag<S13> Ang<S13>! row 1 
!			  Mag<S21> Ang<S21> Mag<S22> Ang<S22> Mag<S23> Ang<S23>! row 2 
!			  Mag<S31> Ang<S31> Mag<S32> Ang<S32> Mag<S33> Ang<S33>! row 3 
# Hz S  dB   R 50
10000000 -24.793215 10.355639 -9.9039888 154.34361 -5.6078362 -19.464996
-9.9020929 154.40033 -19.521448 165.19278 -5.8115478 162.6499
-5.5980473 -19.340277 -5.801167 162.96088 -13.280869 176.79947
78737500 -23.58716 6.2025166 -10.073655 144.85567 -5.6911206 -26.430267
-10.07323 144.90462 -18.975918 164.02573 -5.7840705 155.64532
-5.6854806 -26.32012 -5.776751 155.90285 -12.803937 173.92616
147475000 -22.328815 0.83312261 -10.275728 133.9213 -5.7777615 -34.43877
-10.276048 133.96185 -18.378565 161.91533 -5.7582989 147.44667
-5.7762752 -34.346172 -5.7540579 147.66066 -12.304017 170.06688
216212500 -21.032019 -5.7173314 -10.510103 121.54153 -5.8628554 -43.495304
-10.512531 121.58221 -17.736242 158.8177 -5.736073 138.07176
-5.8649735 -43.422508 -5.7340336 138.23195 -11.792605 165.21072
284950000 -19.699556 -13.450137 -10.780727 107.74312 -5.9430566 -53.616398
-10.783377 107.77634 -17.060232 154.75829 -5.7180653 127.52536
-5.9484606 -53.560127 -5.7188892 127.63313 -11.283466 159.35793
353687500 -18.345421 -22.337017 -11.088866 92.522179 -6.0159769 -64.814163
-11.09288 92.549011 -16.362865 149.696 -5.7053595 115.8174
-6.025106 -64.768829 -5.7087402 115.87741 -10.782987 152.5103
422425000 -16.971554 -32.365124 -11.437268 75.89328 -6.0804515 -77.100784
-11.443125 75.909401 -15.64598 143.60512 -5.6979518 102.95754
-6.0928521 -77.071396 -5.7033787 102.96895 -10.30275 144.64607
491162500 -15.979508 -44.956795 -11.797443 59.739628 -6.1205716 -89.11438
-11.801982 59.771538 -15.08501 134.60526 -5.6807208 90.155525
-6.1334114 -89.082375 -5.6860213 90.170387 -9.9260969 135.28802
559900000 -15.312727 -57.979446 -12.179317 43.807556 -6.1341133 -101.041
-12.183773 43.839317 -14.585238 124.85236 -5.6795545 77.306114
-6.1473641 -101.00517 -5.6850429 77.323532 -9.6890259 125.06283
628637500 -14.835879 -70.839783 -12.584592 28.056959 -6.1184616 -112.94991
-12.588194 28.08419 -14.156639 114.55698 -5.6964903 64.463371
-6.1311145 -112.90526 -5.7024179 64.481689 -9.6041937 114.35805
697375000 -14.489178 -83.517258 -13.012255 12.469888 -6.0767789 -124.89764
-13.017392 12.494472 -13.808141 103.90953 -5.7283788 51.677113
-6.0887713 -124.84709 -5.7340512 51.698612 -9.6525984 103.40301
766112500 -14.232551 -95.891884 -13.466659 -2.9691539 -6.0148525 -136.93178
-13.472273 -2.9419806 -13.532126 93.031761 -5.769753 38.961689
-6.0261283 -136.88535 -5.7755451 38.990265 -9.8238792 92.293015
834850000 -14.044462 -108.00435 -13.949869 -18.245594 -5.9369388 -149.07347
-13.954973 -18.210085 -13.319989 82.021851 -5.8162942 26.337605
-5.9476004 -149.02924 -5.8216925 26.366806 -10.103223 81.074471
903587500 -13.910191 -119.836 -14.463794 -33.342037 -5.8481922 -161.34663
-14.468406 -33.31179 -13.161847 70.938637 -5.8633661 13.796486
-5.8588634 -161.29707 -5.8692579 13.82398 -10.485682 69.729645
972325000 -13.81415 -131.40947 -15.009597 -48.237755 -5.7545185 -173.75099
-15.013659 -48.212822 -13.052081 59.81649 -5.90904 1.3269386
-5.7659688 -173.69598 -5.9154592 1.3590475 -10.971139 58.246937
1041062500 -13.750882 -142.70569 -15.585755 -62.922607 -5.6607828 173.72922
-15.590364 -62.89217 -12.986873 48.628746 -5.9503846 -11.073498
-5.6726451 173.78535 -5.9573836 -11.036907 -11.558143 46.587715
1109800000 -13.703679 -153.75375 -16.196804 -77.353043 -5.5709829 161.09857
-16.200642 -77.307495 -12.957579 37.387966 -5.9859676 -23.41688
-5.5823107 161.1537 -5.9921556 -23.3757 -12.257389 34.694973
1178537500 -13.672007 -164.57982 -16.836668 -91.478333 -5.4871345 148.37135
-16.840286 -91.428429 -12.96406 26.151041 -6.0140171 -35.713543
-5.4991736 148.42496 -6.0216203 -35.670906 -13.065022 22.536922
1247275000 -13.642056 -175.18333 -17.508259 -105.26815 -5.411541 135.56306
-17.51371 -105.2211 -13.010454 14.850904 -6.0334811 -47.967999
-5.4232492 135.61732 -6.0416555 -47.929405 -13.993593 9.9710131
1316012500 -13.607965 174.32942 -18.207455 -118.68114 -5.3460078 122.69248
-18.211342 -118.62261 -13.089659 3.5252368 -6.044879 -60.199402
-5.3583961 122.7436 -6.0531588 -60.16605 -15.038946 -3.0904975
1384750000 -13.569334 163.96765 -18.926842 -131.6389 -5.291214 109.77074
-18.934519 -131.58011 -13.20646 -7.7939615 -6.0461097 -72.421951
-5.3040833 109.8215 -6.0554919 -72.389343 -16.189875 -16.914417
1453487500 -13.521616 153.64639 -19.660719 -144.11058 -5.2479186 96.818214
-19.669861 -144.0562 -13.359901 -19.134445 -6.0386724 -84.643509
-5.2596459 96.867859 -6.0467772 -84.613777 -17.419933 -31.674873
1522225000 -13.469118 143.32983 -20.397202 -156.06105 -5.2149839 83.842751
-20.405615 -155.99739 -13.542584 -30.387894 -6.0219889 -96.879784
-5.2264457 83.899368 -6.0296102 -96.853973 -18.661865 -47.61734
1590962500 -13.409579 132.96916 -21.117823 -167.41862 -5.1919622 70.868813
-21.128801 -167.37897 -13.759359 -41.541233 -5.9966464 -109.14631
-5.2036471 70.926483 -6.0041761 -109.1103 -19.845655 -64.654465
1659700000 -13.347823 122.52801 -21.808441 -178.21407 -5.1786795 57.909904
-21.821894 -178.1693 -14.004309 -52.551334 -5.9637051 -121.43356
-5.1895876 57.9547 -5.9705868 -121.40805 -20.903543 -82.585022
1728437500 -13.286123 111.99281 -22.453487 171.49393 -5.17417 44.957481
-22.468016 171.54338 -14.27142 -63.383179 -5.9243612 -133.76949
-5.1837363 45.001488 -5.9305229 -133.74571 -21.78826 -101.12011
1797175000 -13.230567 101.32284 -23.039341 161.72171 -5.1759658 32.022346
-23.050138 161.76736 -14.551585 -73.973419 -5.8798604 -146.15981
-5.1857915 32.068413 -5.8858247 -146.1337 -22.484858 -119.89669
1865912500 -13.186834 90.540047 -23.541286 152.33801 -5.1834879 19.120831
-23.553789 152.34784 -14.837818 -84.270477 -5.8328829 -158.60027
-5.1939354 19.160759 -5.8394203 -158.57584 -22.977205 -138.73875
1934650000 -13.155177 79.625015 -23.957253 143.18393 -5.195622 6.241406
-23.971107 143.22485 -15.120008 -94.311913 -5.7840619 -171.08894
-5.2062383 6.2857051 -5.7894092 -171.06712 -23.259258 -157.42044
2003387500 -13.14573 68.607399 -24.284172 134.2166 -5.2116838 -6.6063142
-24.295874 134.25253 -15.380316 -104.06298 -5.7361054 176.36169
-5.222507 -6.557961 -5.7396269 176.3914 -23.329872 -175.7585
2072125000 -13.156156 57.506336 -24.517653 125.27182 -5.2303877 -19.424561
-24.526299 125.3297 -15.619538 -113.50392 -5.6890898 163.76855
-5.2409124 -19.373871 -5.6922054 163.80463 -23.180334 166.43648
2140862500 -13.193912 46.354042 -24.658798 116.21754 -5.2516446 -32.214794
-24.66733 116.26695 -15.825475 -122.72722 -5.644866 151.13249
-5.2605867 -32.161163 -5.6456027 151.17313 -22.832766 149.46185
2209600000 -13.2519 35.192196 -24.716864 106.92913 -5.2736354 -44.978985
-24.723486 107.01861 -15.982399 -131.69983 -5.6035142 138.46278
-5.2833347 -44.920002 -5.6049738 138.50618 -22.302214 133.51663
2278337500 -13.337251 24.006519 -24.703688 97.336952 -5.2967391 -57.717987
-24.70871 97.422096 -16.101374 -140.53465 -5.5656295 125.7628
-5.3060904 -57.660206 -5.5670366 125.81307 -21.657068 118.87957
2347075000 -13.44076 12.897799 -24.635904 87.32769 -5.3205676 -70.439499
-24.642822 87.416237 -16.169712 -149.30534 -5.5316386 113.04555
-5.3298488 -70.374168 -5.5326695 113.09538 -20.961908 105.48104
2415812500 -13.563076 1.8554434 -24.53764 76.844788 -5.3443422 -83.144424
-24.542843 76.940483 -16.187836 -158.02371 -5.5021119 100.30561
-5.3544059 -83.066605 -5.502388 100.36153 -20.284605 93.158005
2484550000 -13.699792 -9.0841618 -24.419439 65.891411 -5.3682747 -95.82251
-24.42178 65.985909 -16.162848 -166.74283 -5.4756527 87.561417
-5.3793964 -95.739571 -5.4760447 87.621902 -19.66177 81.581894
2553287500 -13.840972 -19.947857 -24.302546 54.442413 -5.3929238 -108.47493
-24.307804 54.534584 -16.098284 -175.53888 -5.4539919 74.813507
-5.4042301 -108.38557 -5.4524026 74.877892 -19.105509 70.41851
2622025000 -13.990621 -30.712687 -24.203485 42.599289 -5.4161186 -121.10644
-24.209789 42.704758 -15.9992 175.59676 -5.4350481 62.066872
-5.4274449 -121.01405 -5.4328065 62.128891 -18.625593 59.50629
2690762500 -14.141985 -41.359882 -24.13339 30.435951 -5.4371104 -133.71376
-24.140045 30.499069 -15.876986 166.64038 -5.4189267 49.319679
-5.4487491 -133.61731 -5.4161029 49.380638 -18.227152 48.620586
2759500000 -14.296695 -51.906631 -24.09556 17.988222 -5.4573627 -146.31425
-24.105848 18.055601 -15.744625 157.60486 -5.4045067 36.581284
-5.4685421 -146.21638 -5.4023099 36.636158 -17.899586 37.739616
2828237500 -14.445337 -62.29129 -24.102884 5.3439798 -5.4756064 -158.90474
-24.116131 5.3911629 -15.606441 148.45625 -5.3920937 23.838966
-5.4864407 -158.80453 -5.3898625 23.89086 -17.6546 26.749201
2896975000 -14.584536 -72.58535 -24.158487 -7.4292798 -5.4904904 -171.49139
-24.166601 -7.3587794 -15.467225 139.25983 -5.3800392 11.098622
-5.5032263 -171.38171 -5.3783979 11.156794 -17.482111 15.549759
2965712500 -14.716291 -82.72995 -24.257584 -20.24753 -5.5038137 175.93256
-24.263256 -20.21364 -15.346802 130.01511 -5.3688025 -1.6414213
-5.5166225 176.04097 -5.3675776 -1.5851766 -17.387453 4.1550384
3034450000 -14.827291 -92.770981 -24.402081 -33.03627 -5.5152373 163.36076
-24.413267 -32.991203 -15.242956 120.76266 -5.3588786 -14.374513
-5.5287714 163.47705 -5.3581667 -14.32465 -17.374125 -7.6096964
3103187500 -14.925337 -102.73128 -24.592505 -45.736813 -5.5249472 150.79666
-24.602005 -45.663097 -15.158107 111.58675 -5.3500934 -27.110064
-5.538878 150.91029 -5.3497977 -27.065243 -17.438019 -19.645674
3171925000 -15.001798 -112.6421 -24.818909 -58.3013 -5.5326529 138.22388
-24.830082 -58.228886 -15.09825 102.45612 -5.3417406 -39.854198
-5.5466509 138.34175 -5.3420863 -39.805908 -17.568502 -32.12077
3240662500 -15.063363 -122.52827 -25.076078 -70.585251 -5.5387521 125.64934
-25.092249 -70.519661 -15.057174 93.422089 -5.3348718 -52.603157
-5.5524793 125.76986 -5.3353972 -52.553722 -17.779314 -45.009911
3309400000 -15.111487 -132.3447 -25.356577 -82.619125 -5.5435333 113.066
-25.376328 -82.534637 -15.031891 84.535454 -5.3286538 -65.35157
-5.5569973 113.18662 -5.3303528 -65.308098 -18.054369 -58.415325
3378137500 -15.143654 -142.1489 -25.664377 -94.35643 -5.5477638 100.46906
-25.681507 -94.254532 -15.02372 75.778625 -5.3225942 -78.111816
-5.561214 100.59646 -5.3253074 -78.069267 -18.384964 -72.306053
3446875000 -15.16227 -151.93636 -25.972677 -105.73709 -5.5533595 87.863754
-25.991693 -105.6291 -15.023693 67.182053 -5.318336 -90.877472
-5.5666704 87.989677 -5.3223991 -90.83168 -18.743237 -86.725899
3515612500 -15.164949 -161.74408 -26.283369 -116.81032 -5.5582738 75.255264
-26.303555 -116.7216 -15.029662 58.751968 -5.3158836 -103.64976
-5.5724301 75.384018 -5.3203473 -103.60263 -19.127531 -101.81831
3584350000 -15.161455 -171.59839 -26.571352 -127.51598 -5.5639286 62.646606
-26.593641 -127.44587 -15.034424 50.46418 -5.3146143 -116.42477
-5.5786242 62.772964 -5.3208008 -116.37966 -19.519773 -117.47125
3653087500 -15.149475 178.51427 -26.829313 -137.92216 -5.5717711 50.041794
-26.856461 -137.83714 -15.037201 42.313797 -5.3174906 -129.19878
-5.585721 50.160812 -5.3244548 -129.16745 -19.888037 -133.66696
3721825000 -15.137982 168.54291 -27.05155 -148.02667 -5.58041 37.42865
-27.082619 -147.95074 -15.036154 34.281338 -5.3228092 -141.98047
-5.5948863 37.549568 -5.330267 -141.9426 -20.233358 -150.32314
3790562500 -15.125483 158.53571 -27.225599 -157.93137 -5.5894022 24.821188
-27.25149 -157.87675 -15.025702 26.317682 -5.3306594 -154.75961
-5.6033955 24.936314 -5.3374701 -154.72215 -20.519447 -167.22781
3859300000 -15.121638 148.46533 -27.34305 -167.73882 -5.5983324 12.210299
-27.363407 -167.68912 -15.008549 18.375946 -5.3399897 -167.53545
-5.6130095 12.323537 -5.3472896 -167.50172 -20.750072 175.64291
3928037500 -15.125816 138.38518 -27.396145 -177.4841 -5.6080327 -0.3931751
-27.416464 -177.41789 -14.979995 10.415895 -5.3517075 179.69041
-5.6222258 -0.28528565 -5.3589067 179.72292 -20.923662 158.53117
3996775000 -15.142235 128.26485 -27.402874 172.71396 -5.6177921 -12.996915
-27.417431 172.79137 -14.94322 2.4138694 -5.3653245 166.92154
-5.6321268 -12.889046 -5.3734922 166.95088 -21.019672 141.53439
4065512500 -15.175525 118.14818 -27.347757 162.79829 -5.6279407 -25.594868
-27.360722 162.83784 -14.902868 -5.6994209 -5.3813801 154.15854
-5.6419663 -25.49234 -5.3894291 154.1852 -21.053785 124.84139
4134250000 -15.22298 108.01232 -27.238396 152.65004 -5.6378689 -38.191574
-27.250418 152.69644 -14.85467 -13.958525 -5.3993797 141.40717
-5.6522226 -38.087215 -5.4073472 141.43144 -21.020388 108.529
4202987500 -15.289715 97.939819 -27.098278 142.2197 -5.6465268 -50.783592
-27.106342 142.29388 -14.807382 -22.361889 -5.4192872 128.65947
-5.6605511 -50.67519 -5.4263959 128.67992 -20.952467 92.757698
4271725000 -15.368933 87.915016 -26.91646 131.52148 -5.6558022 -63.371174
-26.920431 131.60587 -14.761755 -30.963745 -5.4406757 115.91911
-5.6685472 -63.26577 -5.447505 115.94036 -20.837799 77.72921
4340462500 -15.469043 77.933685 -26.717594 120.45887 -5.6650119 -75.954826
-26.721041 120.56087 -14.716738 -39.740883 -5.4635444 103.19778
-5.6770105 -75.848839 -5.4696188 103.2142 -20.710527 63.333225
4409200000 -15.579067 68.03936 -26.514833 109.07709 -5.6718044 -88.540352
-26.51333 109.15913 -14.683465 -48.674 -5.4860468 90.479485
-5.6842098 -88.43676 -5.4930253 90.497375 -20.571131 49.76239
4477937500 -15.699986 58.231106 -26.313622 97.365311 -5.6785107 -101.12234
-26.309736 97.457817 -14.658648 -57.821651 -5.5101128 77.776009
-5.6900778 -101.01855 -5.5165763 77.787521 -20.430157 36.874832
4546675000 -15.833907 48.559597 -26.123365 85.30542 -5.6846619 -113.70691
-26.12351 85.423248 -14.643126 -67.128059 -5.5351744 65.084488
-5.6960702 -113.5998 -5.541306 65.093132 -20.316933 24.673098
4615412500 -15.967315 38.938419 -25.953859 73.030632 -5.6907353 -126.29381
-25.958969 73.152054 -14.642585 -76.586601 -5.5604901 52.401379
-5.7007565 -126.17974 -5.5662165 52.40797 -20.221186 13.049969
4684150000 -16.108976 29.417711 -25.808475 60.563042 -5.6961265 -138.87912
-25.810783 60.676548 -14.653347 -86.171196 -5.5862622 39.730328
-5.7057776 -138.76167 -5.5914397 39.731171 -20.148987 1.9663867
4752887500 -16.244055 19.981869 -25.685503 47.894257 -5.7003946 -151.4622
-25.692904 47.982723 -14.678606 -95.888847 -5.6125355 27.071882
-5.7094231 -151.35152 -5.6164474 27.066557 -20.106232 -8.6519289
4821625000 -16.378372 10.618099 -25.602324 35.078621 -5.7039375 -164.05226
-25.60754 35.192825 -14.7096 -105.70488 -5.6388021 14.419532
-5.7130899 -163.94548 -5.6424546 14.415395 -20.083538 -18.932978
4890362500 -16.501051 1.3407218 -25.549839 22.202408 -5.7069416 -176.64748
-25.557537 22.294146 -14.748489 -115.58638 -5.6654053 1.7767978
-5.7164073 -176.54358 -5.6689382 1.7691417 -20.085125 -28.876637
4959100000 -16.615927 -7.9378839 -25.537205 9.2449875 -5.7109818 170.75388
-25.54323 9.3025789 -14.794959 -125.55045 -5.6914964 -10.853624
-5.7198219 170.85312 -5.6962504 -10.865342 -20.099586 -38.638912
5027837500 -16.720058 -17.198986 -25.551813 -3.6981676 -5.7137227 158.15015
-25.559034 -3.6336911 -14.832974 -135.56888 -5.7175131 -23.474142
-5.7235851 158.25346 -5.7231879 -23.490297 -20.13615 -48.269123
5096575000 -16.808821 -26.490788 -25.599699 -16.6022 -5.7161813 145.5403
-25.606754 -16.540514 -14.871487 -145.59491 -5.7435288 -36.090088
-5.7263136 145.64697 -5.7498617 -36.101261 -20.174393 -57.836945
5165312500 -16.88714 -35.812584 -25.675892 -29.429455 -5.719749 132.92714
-25.682468 -29.370548 -14.900796 -155.67708 -5.7700491 -48.687893
-5.7297263 133.04031 -5.7753043 -48.703846 -20.247219 -67.424522
5234050000 -16.947042 -45.246616 -25.779192 -42.201149 -5.7230768 120.30991
-25.781982 -42.110622 -14.911621 -165.75305 -5.7956238 -61.281044
-5.7329073 120.42506 -5.8013086 -61.29847 -20.328918 -77.113899
5302787500 -16.994627 -54.761612 -25.908794 -54.822372 -5.7260742 107.69151
-25.907547 -54.727745 -14.913671 -175.79417 -5.819736 -73.868561
-5.736372 107.80486 -5.8263187 -73.884239 -20.429441 -86.96479
5371525000 -17.02997 -64.384857 -26.056723 -67.324837 -5.729351 95.069809
-26.052532 -67.216263 -14.897481 174.14737 -5.8440366 -86.448387
-5.7403269 95.182449 -5.8507409 -86.462074 -20.549164 -96.953773
5440262500 -17.057898 -74.133888 -26.228851 -79.680656 -5.7333784 82.443153
-26.222326 -79.593674 -14.861195 164.13052 -5.8674431 -99.017059
-5.7442889 82.55899 -5.8750386 -99.030197 -20.688604 -107.28168
5509000000 -17.072943 -83.989037 -26.413994 -91.88945 -5.7378402 69.813171
-26.401445 -91.760368 -14.809938 154.13463 -5.8898134 -111.58046
-5.7494774 69.935463 -5.8982344 -111.58916 -20.853069 -117.89087
5577737500 -17.084625 -94.017342 -26.602493 -103.85196 -5.7432747 57.181889
-26.591057 -103.73402 -14.737425 144.13632 -5.9119554 -124.13343
-5.7548304 57.313633 -5.9205589 -124.14941 -21.040773 -128.85628
5646475000 -17.088705 -104.14499 -26.802469 -115.62901 -5.7492218 44.553886
-26.784487 -115.50619 -14.646371 134.18742 -5.9332023 -136.68512
-5.7596455 44.688156 -5.9419045 -136.69641 -21.258146 -140.21928
5715212500 -17.089832 -114.43967 -26.990255 -127.19558 -5.7543769 31.921913
-26.972086 -127.0145 -14.536402 124.25208 -5.9534092 -149.22884
-5.7660265 32.057755 -5.9621758 -149.23936 -21.49058 -152.03017
5783950000 -17.089325 -124.81847 -27.177305 -138.5663 -5.760839 19.289436
-27.162092 -138.35718 -14.411505 114.35773 -5.9733624 -161.76819
-5.7722535 19.42725 -5.9808402 -161.77652 -21.751749 -164.36177
5852687500 -17.08181 -135.30272 -27.353666 -149.77412 -5.7678781 6.6542907
-27.33696 -149.55957 -14.275318 104.48449 -5.9925537 -174.30418
-5.7794342 6.7936292 -5.9992828 -174.31284 -22.021397 -177.14151
5921425000 -17.079573 -145.84521 -27.510138 -160.83443 -5.7755303 -5.9792981
-27.497238 -160.60724 -14.126608 94.632805 -6.0105748 173.16231
-5.7864022 -5.840126 -6.017087 173.15804 -22.287683 169.45561
5990162500 -17.073559 -156.43132 -27.650873 -171.71002 -5.7830501 -18.615242
-27.63884 -171.48111 -13.973136 84.831909 -6.0267649 160.63606
-5.7942295 -18.475302 -6.0339665 160.6324 -22.552521 155.62247
6058900000 -17.070808 -167.06316 -27.75646 177.55139 -5.7918148 -31.248163
-27.745176 177.74957 -13.813817 75.03566 -6.0429468 148.11636
-5.8023238 -31.105665 -6.0499539 148.10519 -22.782581 141.26979
6127637500 -17.066816 -177.66875 -27.836716 166.84422 -5.8012667 -43.880547
-27.82659 167.05658 -13.652684 65.292694 -6.058691 135.59898
-5.8105516 -43.74086 -6.0650811 135.58563 -22.987556 126.44699
6196375000 -17.060122 171.69415 -27.888081 156.21559 -5.8103256 -56.512054
-27.884079 156.43111 -13.497986 55.576462 -6.0734973 123.08184
-5.8198814 -56.376244 -6.0797167 123.06907 -23.140474 111.29567
6265112500 -17.054289 161.11195 -27.912901 145.61758 -5.8203001 -69.141037
-27.913134 145.78656 -13.345671 45.8997 -6.0871296 110.56713
-5.8299088 -69.005661 -6.0938263 110.55252 -23.239601 95.824715
6333850000 -17.043421 150.57671 -27.9081 134.9812 -5.8302207 -81.767029
-27.907402 135.17328 -13.205087 36.273228 -6.0995607 98.051437
-5.8399277 -81.633461 -6.1064272 98.041687 -23.275999 80.208702
6402587500 -17.035248 140.09006 -27.868658 124.31929 -5.8406377 -94.394127
-27.87225 124.50196 -13.074746 26.653713 -6.1108704 85.541138
-5.8513665 -94.257782 -6.1181192 85.533592 -23.237371 64.386292
6471325000 -17.018362 129.709 -27.804338 113.59208 -5.8523846 -107.01796
-27.806068 113.72124 -12.954947 17.075748 -6.1221333 73.029961
-5.8617692 -106.87328 -6.1280637 73.028419 -23.140064 48.611126
6540062500 -17.001421 119.3963 -27.720428 102.75023 -5.8635273 -119.63447
-27.715672 102.84086 -12.854513 7.5304389 -6.1308236 60.522415
