! MARKI MICROWAVE INC.
! Email:             	info@markimicrowave.com   				Phone:   408-778-4200
! Model Number:      	BAL-0212						Date:    11/13
! Filename:		BAL-0212.S3P						Version: 1.0
! Description:       	3-port S-parameter data for Balun BAL-0212
! Frequency Range: 	10 MHz to 15 GHz		
! Port Configuration:	PORT 1: OUTPUT (0 DEGREE), PORT 2: OUTPUT (180 DEGREE), PORT 3: COMMON


! S3P File: Measurements: Mag<S11> Ang<S11> Mag<S12> Ang<S12> Mag<S13> Ang<S13>! row 1 
!			  Mag<S21> Ang<S21> Mag<S22> Ang<S22> Mag<S23> Ang<S23>! row 2 
!			  Mag<S31> Ang<S31> Mag<S32> Ang<S32> Mag<S33> Ang<S33>! row 3 

# Hz S  dB   R 50
10000000 -47.805389 63.878204 -0.011607532 -1.2684047 -63.793034 166.57765
-0.016775001 -1.3612349 -46.421097 69.034966 -67.05983 -121.10486
-70.877838 -111.89984 -63.636822 40.708019 0.001714582 -1.2709256
99950000 -36.137974 65.103806 -0.034589242 -10.783381 -56.932739 141.25618
-0.03573326 -10.776489 -36.514034 64.321915 -57.253864 13.35235
-57.122108 142.69766 -57.665321 13.481937 -0.0047566434 -12.591717
189900000 -31.67515 58.875301 -0.04897229 -20.338856 -46.81004 143.10315
-0.051401425 -20.316002 -31.836946 58.779972 -47.063644 -8.5509567
-46.868156 142.99744 -46.823044 -8.6402416 -0.0072055045 -23.800076
279850000 -28.555506 49.966564 -0.059982851 -29.889206 -40.305737 136.81584
-0.067059129 -29.905867 -28.751806 49.977062 -40.445515 -24.350767
-40.289234 136.35535 -40.412453 -23.699947 -0.010237199 -35.145958
369800000 -26.253233 43.121166 -0.07305751 -39.48259 -35.39138 128.17429
-0.075069241 -39.485462 -26.505306 41.815556 -35.588997 -36.905865
-35.453335 127.85942 -35.574886 -37.164917 -0.021216173 -46.52084
459750000 -24.298428 33.211853 -0.089860938 -49.097687 -31.568762 118.439
-0.089438736 -49.103264 -24.681078 33.786823 -31.719515 -49.544304
-31.655464 118.35482 -31.712934 -49.355324 -0.028046507 -58.026623
549700000 -22.650227 24.146507 -0.10470749 -58.763992 -28.446793 108.51058
-0.10966454 -58.763081 -22.958157 24.703188 -28.549662 -61.458733
-28.441397 108.40492 -28.557629 -61.595676 -0.051000606 -69.589302
639650000 -21.092964 14.377416 -0.12764789 -68.451752 -25.708891 97.82637
-0.12949726 -68.451477 -21.447416 15.371068 -25.847404 -73.357056
-25.723967 97.783165 -25.85288 -73.37616 -0.073812641 -81.281227
729600000 -19.723131 4.9423156 -0.16120721 -78.201927 -23.341347 87.083679
-0.16125986 -78.195702 -20.054499 6.0107245 -23.450542 -85.310638
-23.362793 87.149162 -23.460314 -85.319183 -0.11136059 -93.078545
819550000 -18.51638 -4.9118505 -0.18826133 -88.016319 -21.204828 76.111099
-0.19823445 -87.999474 -18.770201 -3.897501 -21.313875 -97.175362
-21.231836 76.136063 -21.321404 -97.161133 -0.16423567 -105.06151
909500000 -17.316551 -15.496738 -0.23960435 -97.892365 -19.294594 64.883316
-0.24088633 -97.883316 -17.562464 -13.566939 -19.387053 -109.08036
-19.294884 64.840645 -19.385681 -109.11174 -0.22705047 -117.18934
999450000 -16.256908 -25.711712 -0.29825646 -107.86386 -17.529766 53.408844
-0.29631621 -107.85529 -16.43297 -23.611248 -17.611464 -121.2298
-17.539379 53.381809 -17.626289 -121.19379 -0.31887597 -129.52747
1089400000 -15.208287 -36.379734 -0.37402359 -117.91408 -15.906251 41.658733
-0.3719306 -117.89581 -15.294258 -34.100605 -15.986621 -133.44449
-15.925429 41.658157 -15.992847 -133.4995 -0.4208129 -142.06755
1179350000 -14.199852 -47.343948 -0.46798906 -128.0173 -14.415506 29.720219
-0.46454149 -128.0237 -14.23048 -44.924858 -14.479888 -145.92892
-14.428306 29.701014 -14.490531 -145.88283 -0.56088763 -154.87643
1269300000 -13.244936 -58.656361 -0.58390462 -138.22066 -13.031867 17.470675
-0.58469623 -138.19933 -13.208794 -56.209965 -13.090074 -158.57719
-13.043316 17.468662 -13.099196 -158.59932 -0.73540294 -167.90666
1359250000 -12.411003 -69.717133 -0.7354601 -148.48074 -11.742661 5.0997972
-0.73453957 -148.49336 -12.239918 -67.653038 -11.79161 -171.48688
-11.750901 5.0653892 -11.804972 -171.52606 -0.95894659 178.81853
1449200000 -11.462426 -81.887451 -0.92613906 -158.73903 -10.572439 -7.8492203
-0.92807281 -158.74724 -11.339046 -79.630379 -10.615925 175.37146
-10.576311 -7.8201194 -10.622657 175.37991 -1.2272897 165.27573
1539150000 -10.657882 -93.949608 -1.1604333 -169.01006 -9.4887037 -20.847036
-1.1645199 -169.02243 -10.478089 -91.874557 -9.5331678 162.00694
-9.503705 -20.867659 -9.5454655 162.00058 -1.5587866 151.53854
1629100000 -9.9284134 -106.52431 -1.436358 -179.23589 -8.5000143 -34.113453
-1.4365089 -179.19357 -9.7148762 -104.33356 -8.5304594 148.48688
-8.5165224 -34.115746 -8.5506268 148.4333 -1.9720324 137.58437
1719050000 -9.2685604 -119.02751 -1.7639027 170.71291 -7.6202502 -47.5387
-1.7668787 170.72105 -9.0131283 -117.15855 -7.6586633 134.73895
-7.6280522 -47.550201 -7.6672945 134.72949 -2.4659319 123.49565
1809000000 -8.6717386 -131.91696 -2.1446261 160.94936 -6.8450174 -61.090019
-2.1438715 160.92159 -8.4008312 -130.17401 -6.8937049 120.90689
-6.8513894 -61.127018 -6.9034843 120.909 -3.0468693 109.29965
1898950000 -8.17488 -144.80904 -2.5584517 151.4603 -6.1697779 -74.763145
-2.5609484 151.45119 -7.8907962 -143.09563 -6.2140665 107.01506
-6.1807351 -74.768402 -6.2238955 107.02522 -3.7311573 95.096367
1988900000 -7.7560415 -157.6852 -3.0168128 142.42531 -5.6080279 -88.383026
-3.0190284 142.45291 -7.4613843 -156.16899 -5.6610689 93.181808
-5.6136484 -88.378563 -5.6669269 93.161652 -4.504436 81.040047
2078850000 -7.4156194 -170.41054 -3.4628744 133.83273 -5.1296411 -101.72141
-3.4620035 133.84509 -7.1096697 -168.87917 -5.1860156 79.648003
-5.140698 -101.7215 -5.1946125 79.641731 -5.3589916 67.055489
2168800000 -7.1442056 177.08298 -3.9147401 125.64927 -4.7264204 -114.89249
-3.915519 125.64761 -6.8216748 178.58818 -4.7793994 66.291443
-4.7354331 -114.89745 -4.7945037 66.28434 -6.3144088 53.022694
2258750000 -6.9146786 164.75696 -4.3668485 117.83299 -4.3926082 -127.95708
-4.370472 117.84292 -6.5829449 166.19583 -4.4460621 53.083004
-4.3945947 -127.94337 -4.448019 53.073639 -7.3942409 39.163971
2348700000 -6.7464781 152.55951 -4.7888508 110.57076 -4.1125941 -140.84862
-4.790051 110.5699 -6.4070883 153.89146 -4.1747556 40.012127
-4.1222396 -140.8425 -4.1806407 40.0228 -8.5788126 25.459793
2438650000 -6.6296082 140.6825 -5.1678433 103.63592 -3.894629 -153.48256
-5.1632814 103.62348 -6.2800765 141.88156 -3.9667869 27.199717
-3.9044299 -153.49467 -3.9801741 27.192846 -9.8901186 12.190286
2528600000 -6.5481086 128.90956 -5.4981894 97.081039 -3.7412667 -165.90407
-5.498601 97.096825 -6.2035623 130.03473 -3.8107538 14.714234
-3.7447102 -165.90677 -3.8181813 14.694958 -11.298659 -0.68972313
2618550000 -6.5052352 117.51413 -5.755569 90.695457 -3.6089017 -177.97055
-5.7570062 90.698746 -6.1482077 118.57676 -3.6995943 2.4756145
-3.6191211 -177.97238 -3.7031519 2.4632931 -12.834564 -13.507421
2708500000 -6.4885321 106.40235 -5.9394712 84.317955 -3.5290015 170.20418
-5.9375601 84.307648 -6.1424928 107.40148 -3.6170413 -9.4939661
-3.5296826 170.20541 -3.6208956 -9.49121 -14.547711 -25.974783
2798450000 -6.4926329 95.656723 -6.088161 77.877632 -3.4557374 158.59175
-6.0770903 77.889221 -6.1464124 96.554993 -3.5517113 -21.149412
-3.4694412 158.61678 -3.5703773 -21.149963 -16.416473 -38.028015
2888400000 -6.5137744 85.081322 -6.1545835 71.449684 -3.4085743 147.27589
-6.1580234 71.421227 -6.1684103 85.900841 -3.5304787 -32.623318
-3.416044 147.26416 -3.5333879 -32.622711 -18.50152 -50.239155
2978350000 -6.5517435 74.803932 -6.2029195 64.784317 -3.3792937 136.1474
-6.2049847 64.760536 -6.1989746 75.517525 -3.5098062 -43.789433
-3.3842597 136.14003 -3.513638 -43.79129 -20.988392 -61.922775
3068300000 -6.5940137 64.706818 -6.2193499 57.978321 -3.3543227 125.18507
-6.2221475 57.981113 -6.2365794 65.391327 -3.4944751 -54.785732
-3.3624599 125.17021 -3.4998584 -54.791744 -23.810135 -73.411461
3158250000 -6.6244898 54.90469 -6.207386 50.932129 -3.3427615 114.44251
-6.2075677 50.926468 -6.2793245 55.48946 -3.484549 -65.575768
-3.3541861 114.44952 -3.5043173 -65.574478 -27.657242 -84.939987
3248200000 -6.6575809 45.279877 -6.1850247 43.766594 -3.3349507 103.82489
-6.1817575 43.775101 -6.3137627 45.786758 -3.4884841 -76.180504
-3.3488519 103.83331 -3.5017483 -76.184334 -33.126907 -98.18866
3338150000 -6.6961503 35.899879 -6.156599 36.429234 -3.3296068 93.381401
-6.1490884 36.427273 -6.3474584 36.315189 -3.4918265 -86.642662
-3.3439622 93.37999 -3.5052786 -86.640831 -46.341072 -118.70155
3428100000 -6.7371631 26.598715 -6.1127133 29.005028 -3.3369813 83.114227
-6.1126814 28.975981 -6.3906641 26.873861 -3.5046065 -96.994919
-3.3475695 83.110283 -3.5156488 -96.967819 -39.725925 67.164963
3518050000 -6.7661223 17.563599 -6.0940065 21.357889 -3.3514633 72.888107
-6.0893335 21.382212 -6.4258432 17.669039 -3.5004439 -107.18256
-3.3569834 72.889366 -3.5178735 -107.19736 -32.815117 49.954514
3608000000 -6.8059802 8.6450434 -6.0368562 13.647247 -3.3493052 62.811977
-6.0319076 13.635113 -6.467896 8.6430216 -3.5145154 -117.261
-3.3615987 62.796875 -3.5267627 -117.26905 -29.374172 41.361542
3697950000 -6.8315291 -0.13166447 -5.9991479 5.8006172 -3.3583078 52.805489
-6.0021734 5.7865844 -6.4916534 -0.28920367 -3.5277283 -127.24812
-3.3723266 52.798077 -3.5352211 -127.24147 -27.147202 30.048315
3787900000 -6.8587465 -8.8276138 -5.9664736 -2.028933 -3.3713906 42.914829
-5.96907 -2.036799 -6.5213556 -9.1221972 -3.532907 -137.19189
-3.3806071 42.927246 -3.5423851 -137.19405 -25.749825 19.602421
3877850000 -6.8715363 -17.354607 -5.9364247 -10.002591 -3.3824465 33.126438
-5.9366355 -10.018534 -6.5428934 -17.818174 -3.5344207 -147.05023
-3.3921244 33.115108 -3.545085 -147.04927 -24.641954 9.2228813
3967800000 -6.8801074 -25.850828 -5.9029446 -18.027555 -3.3908887 23.314184
-5.9063916 -18.023819 -6.5537443 -26.435957 -3.5464652 -156.83574
-3.3939555 23.327713 -3.5516 -156.82608 -23.854837 -1.0711967
4057750000 -6.8851366 -34.286812 -5.8858724 -26.093388 -3.4057643 13.646582
-5.8851757 -26.115368 -6.5699472 -34.983364 -3.5537214 -166.58026
-3.4121392 13.639239 -3.5577786 -166.55992 -23.217253 -11.166009
4147700000 -6.8893566 -42.564411 -5.8729358 -34.256058 -3.4196155 4.0198579
-5.8659787 -34.262627 -6.5790229 -43.426357 -3.5526776 -176.26324
-3.4244285 4.0041642 -3.5612326 -176.27119 -22.713697 -21.49118
4237650000 -6.8848205 -50.860298 -5.8414717 -42.343349 -3.4283943 -5.562696
-5.8454161 -42.377258 -6.5755744 -51.785988 -3.5570409 174.11423
-3.4332192 -5.5583997 -3.5633895 174.15115 -22.297636 -31.213999
4327600000 -6.8784342 -59.018047 -5.8298788 -50.543201 -3.4355421 -15.101025
-5.8340039 -50.539967 -6.5592179 -60.132931 -3.5691438 164.51161
-3.4434869 -15.095133 -3.5735149 164.50172 -22.006039 -40.773846
4417550000 -6.8598328 -67.214485 -5.8147731 -58.782562 -3.4443581 -24.585869
-5.8166647 -58.759182 -6.5623598 -68.409798 -3.578279 154.97955
-3.4427519 -24.577642 -3.5785475 154.94974 -21.762394 -50.800014
4507500000 -6.8316865 -75.459381 -5.8186793 -67.004501 -3.4519715 -34.024376
-5.8223066 -67.015984 -6.5440087 -76.762848 -3.5860801 145.42511
-3.4554801 -34.04081 -3.5849338 145.42094 -21.44438 -60.801567
4597450000 -6.8340106 -83.516602 -5.810154 -75.357971 -3.4606471 -43.43438
-5.8158026 -75.378189 -6.5403724 -84.863464 -3.5924096 135.99019
-3.4646921 -43.449093 -3.5923345 135.98247 -21.212641 -70.649651
4687400000 -6.8051386 -91.596657 -5.7891426 -83.538292 -3.4453576 -52.820862
-5.8145609 -83.551796 -6.4946074 -93.051338 -3.6232057 126.48852
-3.478596 -52.828568 -3.6322474 126.49225 -20.945633 -78.44696
4777350000 -6.7768703 -99.79863 -5.8271494 -91.830994 -3.4749205 -62.171619
-5.8284607 -91.867599 -6.5065994 -101.36411 -3.5986357 117.11285
-3.4830077 -62.1819 -3.6094279 117.11358 -20.851974 -90.262573
4867300000 -6.7577796 -107.88297 -5.8358569 -100.1445 -3.4875631 -71.490112
-5.8306513 -100.16584 -6.4918084 -109.53122 -3.6036398 107.74877
-3.4978991 -71.473976 -3.6232038 107.76662 -20.652603 -100.02959
4957250000 -6.7385359 -115.90608 -5.8491707 -108.46706 -3.4908974 -80.820145
-5.8494549 -108.47301 -6.4770107 -117.68789 -3.6145182 98.415131
-3.4994023 -80.802162 -3.6195884 98.418106 -20.585892 -109.76852
5047200000 -6.7219825 -123.94621 -5.8667989 -116.71283 -3.499965 -90.092293
-5.863894 -116.74054 -6.4582176 -125.8093 -3.6233575 89.089233
-3.5103738 -90.077309 -3.6276207 89.104904 -20.513823 -119.54487
5137150000 -6.6996694 -132.01421 -5.890317 -125.02666 -3.5121787 -99.340881
-5.8907752 -125.02215 -6.4482207 -133.97507 -3.6278718 79.784004
-3.5178051 -99.360039 -3.6345634 79.777626 -20.487543 -129.46965
5227100000 -6.6874471 -140.05093 -5.9134655 -133.31226 -3.5181832 -108.57477
-5.9126678 -133.32475 -6.4335132 -142.12375 -3.6368473 70.528015
-3.524157 -108.57463 -3.6409891 70.527199 -20.438864 -139.50829
5317050000 -6.6803331 -147.98564 -5.9476786 -141.58896 -3.5300651 -117.78507
-5.9465756 -141.58199 -6.4294333 -150.16374 -3.6434329 61.293163
-3.5363259 -117.79003 -3.6509297 61.300102 -20.449186 -149.26172
5407000000 -6.6834912 -155.93835 -5.9593701 -149.85962 -3.5386679 -126.97994
-5.9562383 -149.87027 -6.4415312 -158.27919 -3.6514602 52.064518
-3.5499754 -126.98817 -3.6636903 52.053986 -20.519005 -158.64999
5496950000 -6.6757612 -164.04729 -5.9946938 -158.08765 -3.5445189 -136.17197
-5.9944792 -158.08199 -6.4432778 -166.43126 -3.6665218 42.849651
-3.5553241 -136.17421 -3.6775804 42.84095 -20.621372 -168.69974
5586900000 -6.6573114 -171.94594 -6.0268764 -166.31693 -3.5504889 -145.34953
-6.0315127 -166.31375 -6.4396462 -174.48674 -3.6838331 33.713287
-3.5568576 -145.35385 -3.6833162 33.702374 -20.778971 -177.90981
5676850000 -6.6524992 -179.92027 -6.0601749 -174.54611 -3.5597644 -154.46515
-6.0623922 -174.57539 -6.4549093 177.39856 -3.7004073 24.4842
-3.5709584 -154.45822 -3.697789 24.500156 -20.949213 172.77296
5766800000 -6.6369019 172.08258 -6.1021733 177.24669 -3.5748825 -163.59546
-6.0995874 177.22812 -6.4562802 169.30443 -3.7081871 15.359113
-3.5796542 -163.59651 -3.7150021 15.368617 -21.208927 163.55684
5856750000 -6.6376185 164.20595 -6.1315169 169.0381 -3.5846004 -172.68755
-6.1289716 169.0444 -6.4830933 161.30379 -3.7253907 6.2334366
-3.5910935 -172.66759 -3.7295358 6.2535081 -21.536638 154.84915
5946700000 -6.6374331 156.21809 -6.1663504 160.8112 -3.5953391 178.2061
-6.1653056 160.78871 -6.5013952 153.23058 -3.7380328 -2.835887
-3.6006591 178.17654 -3.7464063 -2.8480353 -21.851927 146.04912
6036650000 -6.6197925 148.32248 -6.1940856 152.68112 -3.6064332 169.09973
-6.1992908 152.65228 -6.5152326 145.21033 -3.7574451 -11.89664
-3.6088212 169.0912 -3.7569647 -11.883871 -22.309898 138.05328
6126600000 -6.6226115 140.40907 -6.2270584 144.5833 -3.6221931 160.00058
-6.2316613 144.55812 -6.5326843 137.19342 -3.7699664 -20.941675
-3.6261261 159.9986 -3.7710412 -20.920485 -22.878452 130.12236
6216550000 -6.6062384 132.43869 -6.2571607 136.34956 -3.6283398 150.95848
-6.2573605 136.33554 -6.564621 129.1252 -3.7859941 -29.986692
-3.6309597 150.95293 -3.789989 -29.987219 -23.373178 122.37875
6306500000 -6.5953646 124.5089 -6.2918062 128.34192 -3.6441414 141.90797
-6.2974463 128.34418 -6.582057 121.11102 -3.7978804 -38.984306
-3.6549239 141.9079 -3.8016801 -38.989479 -24.105906 115.60017
6396450000 -6.5921292 116.61704 -6.3167419 120.16452 -3.653547 132.90817
-6.3213286 120.16264 -6.6190815 113.16555 -3.819649 -48.016323
-3.6577532 132.91815 -3.8186214 -48.000858 -24.837774 109.18662
6486400000 -6.5835099 108.66286 -6.3393407 112.07854 -3.6743195 123.87502
-6.3350806 112.06952 -6.6594725 105.12577 -3.8190391 -56.987389
-3.6822646 123.87265 -3.829469 -56.984364 -25.622381 104.22359
6576350000 -6.5768294 100.7361 -6.35465 103.99056 -3.6893654 114.82741
-6.3594975 103.97885 -6.6950073 97.156143 -3.8411095 -65.918449
-3.6981144 114.83807 -3.8403249 -65.906586 -26.523087 99.868835
6666300000 -6.5657325 92.840416 -6.3739629 95.881897 -3.7045655 105.86292
-6.3784857 95.860161 -6.7305341 89.217613 -3.8507276 -74.858765
-3.710556 105.85894 -3.8567936 -74.835556 -27.492147 97.282013
6756250000 -6.5756717 84.916138 -6.398726 87.730881 -3.7255051 96.896599
-6.395927 87.716476 -6.7874002 81.259384 -3.8602295 -83.8162
-3.7348258 96.950859 -3.8701916 -83.744408 -28.446606 95.58709
6846200000 -6.5685558 77.098068 -6.3867731 79.6194 -3.7331367 87.964134
-6.3854623 79.598686 -6.8418112 73.399399 -3.8663576 -92.713509
-3.7369959 87.972267 -3.8721774 -92.688263 -29.365713 97.270683
6936150000 -6.5728817 69.214485 -6.3942442 71.444412 -3.7487972 79.017776
-6.3954835 71.435806 -6.9110284 65.504128 -3.8748069 -101.62627
-3.7529557 79.027061 -3.8833644 -101.61716 -30.186983 100.63911
7026100000 -6.5843983 61.450439 -6.3963423 63.212822 -3.762069 70.119263
-6.399128 63.216927 -6.9745355 57.754303 -3.8847802 -110.5391
-3.7668014 70.137741 -3.886236 -110.52758 -30.507401 105.97369
7116050000 -6.5794663 53.620167 -6.4050975 55.054298 -3.7745347 61.209969
-6.4066315 55.024662 -7.0377097 50.010033 -3.889116 -119.42809
-3.7820978 61.188736 -3.8880453 -119.42419 -30.324507 111.92233
7206000000 -6.5758166 45.905811 -6.4051876 46.783398 -3.7880762 52.295971
-6.4042664 46.767544 -7.1062508 42.370094 -3.8973258 -128.30151
-3.7884126 52.306904 -3.8945246 -128.2892 -29.693604 115.61422
7295950000 -6.5762682 38.185287 -6.4127364 38.5252 -3.7881765 43.398739
-6.4111605 38.516838 -7.1692076 34.830116 -3.8972127 -137.18039
-3.8004918 43.4156 -3.9108138 -137.1682 -28.650715 117.63466
7385900000 -6.5684991 30.579065 -6.4185209 30.182951 -3.80023 34.524632
-6.4205456 30.177999 -7.2323856 27.369535 -3.9033678 -146.05383
-3.8065429 34.515846 -3.9100151 -146.06274 -27.608597 117.92864
7475850000 -6.56464 22.852457 -6.417685 21.871006 -3.8107433 25.596083
-6.4210939 21.85162 -7.2828288 19.929104 -3.9049711 -154.90134
-3.8168669 25.594263 -3.9087842 -154.88786 -26.680696 115.99683
7565800000 -6.539495 15.195335 -6.4358363 13.592336 -3.822264 16.651735
-6.4272966 13.619486 -7.3260064 12.505171 -3.9009793 -163.71376
-3.8283432 16.659451 -3.9111524 -163.73077 -25.680067 112.07384
7655750000 -6.5219498 7.4645705 -6.4565101 5.3160233 -3.8209004 7.8657312
-6.4614224 5.2778497 -7.3498631 5.1341057 -3.9127934 -172.64052
-3.8298442 7.8540955 -3.9175231 -172.62944 -24.912725 108.12188
7745700000 -6.4962349 -0.033004224 -6.4722533 -3.1461554 -3.8280714 -1.0623527
-6.4790268 -3.1447465 -7.3702822 -2.063525 -3.9108536 178.49001
-3.8370578 -1.0713711 -3.909343 178.50293 -24.093712 103.00671
7835650000 -6.468708 -7.6193118 -6.5035906 -11.446859 -3.8307669 -9.949399
-6.5067425 -11.470969 -7.3782005 -9.31705 -3.912883 169.64346
-3.8383176 -9.9339409 -3.9136226 169.66997 -23.364639 97.09156
7925600000 -6.4350262 -15.283351 -6.5270114 -19.797977 -3.8368516 -18.809893
-6.5346084 -19.820629 -7.3654428 -16.600899 -3.918406 160.75108
-3.8445327 -18.813498 -3.922035 160.772 -22.715405 90.101273
8015550000 -6.3801427 -22.921282 -6.5612712 -28.216257 -3.829201 -27.735031
-6.5627127 -28.227987 -7.3322892 -23.912428 -3.8966057 151.95491
-3.8453822 -27.749517 -3.9105976 151.94014 -22.264351 83.770515
8105500000 -6.3291698 -30.615763 -6.5992298 -36.477409 -3.8341427 -36.578098
-6.6014137 -36.4856 -7.3144431 -31.304533 -3.8947544 143.05826
-3.8432419 -36.595993 -3.9048796 143.06044 -21.720741 77.217751
8195450000 -6.291317 -38.362968 -6.6398826 -44.725304 -3.8384349 -45.456577
-6.6385612 -44.730934 -7.2849793 -38.799206 -3.9017525 134.22581
-3.8434825 -45.486881 -3.906286 134.19241 -21.356192 70.265938
8285400000 -6.2337308 -46.099274 -6.6775408 -52.992268 -3.8413699 -54.380524
-6.6635513 -53.008659 -7.2425423 -46.325718 -3.8942208 125.33025
-3.8484597 -54.376472 -3.9086506 125.34708 -21.144522 62.553871
8375350000 -6.1903696 -53.953255 -6.7088275 -61.21682 -3.8455191 -63.251842
-6.714282 -61.275272 -7.2033277 -53.933777 -3.9031873 116.46069
-3.847739 -63.286572 -3.8993368 116.45514 -20.926014 54.803379
8465300000 -6.1472859 -61.825752 -6.754631 -69.445091 -3.8635106 -72.117905
-6.7558842 -69.477562 -7.1544485 -61.536125 -3.887552 107.583
-3.8634219 -72.137901 -3.8907616 107.59814 -20.783922 46.89801
