! MARKI MICROWAVE INC.
! Email:             	info@markimicrowave.com   				Phone:   408-778-4200
! Model Number:      	BAL-0520						Date:    11/13
! Filename:		BAL-0520.S3P						Version: 1.0
! Description:       	3-port S-parameter data for Balun BAL-0520
! Frequency Range: 	10 MHz to 22 GHz		
! Port Configuration:	PORT 1: OUTPUT (0 DEGREE), PORT 2: OUTPUT (180 DEGREE), PORT 3: COMMON


! S3P File: Measurements: Mag<S11> Ang<S11> Mag<S12> Ang<S12> Mag<S13> Ang<S13>! row 1 
!			  Mag<S21> Ang<S21> Mag<S22> Ang<S22> Mag<S23> Ang<S23>! row 2 
!			  Mag<S31> Ang<S31> Mag<S32> Ang<S32> Mag<S33> Ang<S33>! row 3 
# Hz S  dB   R 50
10000000 -47.83963 62.296852 -0.0072681615 -1.1960149 -63.50312 51.294792
-0.028175041 -1.3608559 -47.597851 62.097015 -65.980682 144.49788
-69.448227 24.037762 -62.021416 -109.39531 -0.0043268022 -1.1066287
119950000 -38.526257 60.032909 -0.035188496 -12.35531 -61.331249 124.94046
-0.036245782 -12.354241 -38.794903 56.773903 -60.885227 36.35994
-61.275894 115.25601 -61.102474 31.574476 -0.0032404908 -12.747169
229900000 -34.263939 51.843544 -0.049460057 -23.503584 -51.601837 128.19415
-0.050620716 -23.517885 -34.707203 48.722164 -51.74696 3.0316446
-51.586639 127.17505 -51.937088 2.4290423 -0.0063163 -24.448978
339850000 -31.523722 42.405457 -0.06391076 -34.65308 -45.258255 123.02635
-0.065865494 -34.667389 -31.907509 39.683807 -45.494221 -16.275566
-45.322067 123.51125 -45.659775 -17.10899 -0.0068867882 -36.159512
449800000 -29.322163 32.461849 -0.077630788 -45.816078 -40.762371 116.25399
-0.075420313 -45.827564 -29.86838 29.816389 -40.905605 -33.119186
-40.698647 116.75787 -40.866131 -33.142731 -0.018770557 -47.96228
559750000 -27.41671 22.219658 -0.090848431 -56.997353 -36.897827 107.72437
-0.089125738 -56.990128 -28.015285 20.213478 -37.135574 -47.98867
-36.902691 107.56323 -37.162201 -48.385624 -0.027231563 -59.7808
669700000 -25.630104 10.548032 -0.10253301 -68.186111 -33.872272 97.43692
-0.11173311 -68.176765 -26.457317 10.553425 -34.037827 -62.120422
-33.866528 97.214302 -33.992851 -62.103188 -0.040388145 -71.672287
779650000 -24.304783 0.34567514 -0.12414482 -79.390182 -31.149363 86.826172
-0.12576102 -79.368973 -24.965109 0.14829393 -31.430943 -75.467346
-31.201296 86.641037 -31.38751 -75.51284 -0.058507103 -83.58831
889600000 -23.061024 -10.638621 -0.13942057 -90.594322 -28.845181 75.769997
-0.1443046 -90.595177 -23.698118 -9.6627827 -29.054632 -88.595329
-28.872934 75.845131 -29.035048 -88.518784 -0.087371819 -95.558861
999550000 -22.014387 -21.592611 -0.1612439 -101.82645 -26.811445 64.578102
-0.16145746 -101.83669 -22.5714 -19.94075 -26.969339 -101.69476
-26.815126 64.53717 -26.990107 -101.58791 -0.11855062 -107.64855
1109500000 -20.944416 -32.858662 -0.18925829 -113.10454 -24.929573 53.035431
-0.1854407 -113.09737 -21.332094 -30.588799 -25.110891 -114.58347
-24.941982 53.009346 -25.117924 -114.57066 -0.15447105 -119.77578
1219450000 -20.003347 -43.822735 -0.21554901 -124.4056 -23.238611 41.363163
-0.21990959 -124.38873 -20.310276 -41.171356 -23.395967 -127.42605
-23.244879 41.393063 -23.395061 -127.43877 -0.20316751 -132.02913
1329400000 -19.031931 -55.359585 -0.25400582 -135.71867 -21.674812 29.533756
-0.2501882 -135.72835 -19.217592 -51.976448 -21.81237 -140.2646
-21.687527 29.462038 -21.827612 -140.28423 -0.25254375 -144.35478
1439350000 -18.100689 -66.656197 -0.29314077 -147.09377 -20.221949 17.518211
-0.28947264 -147.09004 -18.209238 -63.067139 -20.365574 -153.14803
-20.235607 17.508781 -20.380016 -153.18291 -0.31049922 -156.76645
1549300000 -17.253771 -77.934731 -0.33599675 -158.4888 -18.873373 5.3826408
-0.33629403 -158.50293 -17.229895 -74.247589 -19.011364 -166.10023
-18.895609 5.3244872 -19.027685 -166.08247 -0.3813273 -169.28117
1659250000 -16.391775 -89.817818 -0.39449379 -169.93376 -17.631674 -6.9299655
-0.39887044 -169.9267 -16.297384 -85.885246 -17.756601 -179.02516
-17.643698 -6.9134212 -17.767746 -179.05431 -0.46269137 178.14279
1769200000 -15.580307 -101.77381 -0.46383673 178.59755 -16.453978 -19.324194
-0.4629119 178.60167 -15.380066 -97.486298 -16.57369 167.9102
-16.465738 -19.341116 -16.583509 167.89999 -0.55486441 165.45706
1879150000 -14.835222 -113.62751 -0.54275817 167.0912 -15.347038 -31.906502
-0.54143387 167.08104 -14.529875 -109.33189 -15.457424 154.79518
-15.359946 -31.887541 -15.467841 154.78168 -0.65504259 152.66931
1989100000 -14.063774 -125.73276 -0.64306939 155.52261 -14.303134 -44.59259
-0.64512372 155.55074 -13.728654 -121.59741 -14.428063 141.58629
-14.313733 -44.62014 -14.430429 141.51941 -0.77097756 139.7946
2099050000 -13.352186 -138.21698 -0.74560422 144.02522 -13.333361 -57.405376
-0.74746394 144.01865 -12.971818 -133.70592 -13.439117 128.36368
-13.338602 -57.3908 -13.453546 128.34355 -0.90311933 126.85387
2209000000 -12.656608 -150.66022 -0.87310934 132.46057 -12.403782 -70.31002
-0.86927062 132.46208 -12.254742 -146.26617 -12.522788 114.9882
-12.419696 -70.313919 -12.532426 115.00341 -1.0567106 113.79453
2318950000 -12.005178 -163.34955 -1.017801 120.90043 -11.537025 -83.329552
-1.0128838 120.894 -11.56961 -158.85583 -11.650704 101.56465
-11.548424 -83.322548 -11.662333 101.58747 -1.2365948 100.61497
2428900000 -11.379007 -176.00165 -1.1832314 109.3455 -10.715362 -96.515114
-1.1831799 109.34743 -10.929833 -171.78514 -10.837937 88.030334
-10.727143 -96.526848 -10.846933 88.039787 -1.4289067 87.387901
2538850000 -10.803219 171.00351 -1.3714932 97.842339 -9.9586668 -109.78876
-1.3783492 97.846878 -10.335668 175.18785 -10.081825 74.428528
-9.9668369 -109.81388 -10.084427 74.401199 -1.6578751 74.109016
2648800000 -10.258517 158.02838 -1.5874159 86.390465 -9.2389717 -123.14722
-1.5858709 86.38446 -9.8087311 161.91109 -9.3767471 60.764294
-9.2466593 -123.16977 -9.3845158 60.768387 -1.9195119 60.735348
2758750000 -9.7664747 144.72923 -1.8208219 75.051537 -8.5799341 -136.64012
-1.824168 75.058174 -9.3240356 148.56015 -8.7218447 47.011341
-8.5905085 -136.6409 -8.7335796 47.020035 -2.2092078 47.31493
2868700000 -9.3229666 131.50954 -2.0859516 63.80135 -7.9702711 -150.18741
-2.0824416 63.802704 -8.8964195 135.07964 -8.1266785 33.238476
-7.9764318 -150.19917 -8.1399956 33.214142 -2.533931 33.877926
2978650000 -8.9159975 118.06363 -2.3657901 52.740559 -7.4078884 -163.76425
-2.3623676 52.734207 -8.5092649 121.4811 -7.5774636 19.456999
-7.4168539 -163.77571 -7.5877976 19.439508 -2.9143529 20.430199
3088600000 -8.5441113 104.53262 -2.6608152 41.837631 -6.9038754 -177.37105
-2.6653743 41.834312 -8.1709204 107.94281 -7.0777621 5.7053256
-6.9078789 -177.39467 -7.0822806 5.6977215 -3.3256028 6.9446726
3198550000 -8.227951 91.025368 -2.9753072 31.142555 -6.43714 169.04608
-2.9761791 31.135294 -7.8762846 94.244644 -6.6212802 -8.0621138
-6.4471207 169.02701 -6.6338763 -8.0611525 -3.7905068 -6.5128345
3308500000 -7.9334908 77.479858 -3.2891314 20.692982 -6.0184774 155.38751
-3.2839873 20.712862 -7.626195 80.637054 -6.2046013 -21.761545
-6.0225616 155.39343 -6.2115345 -21.781776 -4.2982945 -19.894617
3418450000 -7.6982813 63.941074 -3.6142859 10.484442 -5.6422892 141.82741
-3.6130238 10.490828 -7.4141436 66.999069 -5.8292456 -35.452038
-5.6553488 141.82718 -5.8489075 -35.471951 -4.8695941 -33.235306
3528400000 -7.4942751 50.481739 -3.9399476 0.54294658 -5.319972 128.31203
-3.9342232 0.54116929 -7.2418079 53.40472 -5.5135698 -49.086926
-5.3336201 128.3094 -5.5301266 -49.095638 -5.4979415 -46.457531
3638350000 -7.3283439 37.014801 -4.2512026 -9.1197968 -5.0402036 114.87813
-4.2456951 -9.112505 -7.0946884 39.870922 -5.229723 -62.620861
-5.0526114 114.87163 -5.2492199 -62.647533 -6.1769886 -59.60537
3748300000 -7.1988063 23.586933 -4.5381026 -18.569662 -4.8002195 101.51064
-4.5326753 -18.588875 -6.9803634 26.36705 -4.987597 -76.084618
-4.8044896 101.48712 -5.0029092 -76.092865 -6.9370971 -72.578903
3858250000 -7.0957417 10.279975 -4.7947288 -27.757378 -4.5946741 88.279839
-4.7992158 -27.760529 -6.8810935 13.03033 -4.7814441 -89.43042
-4.6020327 88.268875 -4.781558 -89.426788 -7.7418342 -85.49781
3968200000 -7.0147896 -2.8502574 -5.0298185 -36.813198 -4.4133654 75.148224
-5.0326409 -36.812893 -6.8146949 -0.28390858 -4.6057882 -102.67323
-4.4249134 75.158958 -4.6072545 -102.66396 -8.6245861 -98.250854
4078150000 -6.9615145 -15.939415 -5.2293468 -45.719044 -4.2841306 62.187069
-5.2281728 -45.733574 -6.7573686 -13.419403 -4.4617486 -115.78912
-4.2849398 62.179394 -4.4658842 -115.8028 -9.5899382 -110.80843
4188100000 -6.9183583 -28.892281 -5.378119 -54.561138 -4.1659913 49.320797
-5.3829117 -54.551178 -6.7288814 -26.479279 -4.3415842 -128.72803
-4.1704173 49.3256 -4.3389449 -128.73485 -10.644436 -123.27019
4298050000 -6.8892174 -41.667782 -5.497901 -63.414112 -4.0716195 36.627029
-5.4985476 -63.427856 -6.6962886 -39.36166 -4.2377272 -141.57239
-4.0781546 36.62925 -4.2435837 -141.57054 -11.788855 -135.50922
4408000000 -6.8915606 -54.355286 -5.5733376 -72.317223 -3.9934261 24.072948
-5.5789223 -72.33886 -6.6905785 -52.167564 -4.1611896 -154.29173
-3.9973166 24.051939 -4.1637897 -154.29466 -13.061827 -147.52769
4517950000 -6.8803425 -66.869827 -5.6251469 -81.336647 -3.9351351 11.618605
-5.6237488 -81.338066 -6.6852655 -64.749397 -4.0925584 -166.82605
-3.9471881 11.59692 -4.1084332 -166.83449 -14.47385 -159.25009
4627900000 -6.8870163 -79.273598 -5.6529117 -90.413765 -3.8962407 -0.70761251
-5.6486039 -90.423851 -6.6905761 -77.23172 -4.0474086 -179.22993
-3.9045401 -0.72703916 -4.0569739 -179.23207 -16.06127 -170.69708
4737850000 -6.898602 -91.531517 -5.6493063 -99.628654 -3.8673372 -12.868263
-5.6475992 -99.633095 -6.7065291 -89.555115 -4.0133181 168.51596
-3.8716161 -12.88167 -4.0185304 168.50385 -17.94767 178.54475
4847800000 -6.9148483 -103.64038 -5.6483645 -109.02189 -3.8485796 -24.966343
-5.6533518 -109.01253 -6.7192264 -101.72374 -3.9855881 156.405
-3.8585374 -24.98094 -3.9897053 156.40268 -20.168463 168.96533
4957750000 -6.9283614 -115.57759 -5.6418257 -118.57113 -3.8340728 -36.920338
-5.6387038 -118.56639 -6.7485237 -113.78873 -3.9626813 144.33852
-3.8444901 -36.930115 -3.9752197 144.32666 -22.901918 161.12627
5067700000 -6.9478769 -127.37907 -5.6233549 -128.19395 -3.827878 -48.783836
-5.6230631 -128.17966 -6.7691789 -125.69781 -3.9509754 132.42436
-3.8411691 -48.779987 -3.9624479 132.41281 -26.328686 158.24782
5177650000 -6.9623785 -138.9599 -5.6129198 -137.84419 -3.8414419 -60.502888
-5.6077933 -137.84479 -6.7976284 -137.34464 -3.9479227 120.6041
-3.8474152 -60.510326 -3.9580328 120.58199 -30.513435 165.73471
5287600000 -6.985158 -150.44537 -5.5955524 -147.66005 -3.8495803 -72.117577
-5.5954061 -147.65793 -6.8245869 -148.99013 -3.9453592 108.90701
-3.8546162 -72.136864 -3.9538372 108.88992 -33.041954 -160.77878
5397550000 -7.0030079 -161.70296 -5.5891829 -157.48505 -3.8626904 -83.622955
-5.5808358 -157.47581 -6.8582792 -160.39761 -3.9498813 97.257973
-3.8664789 -83.640083 -3.9552555 97.230865 -30.64282 -134.45091
5507500000 -7.0248313 -172.8662 -5.5830102 -167.41794 -3.8766627 -95.097343
-5.5839329 -167.41571 -6.8856964 -171.70628 -3.9494047 85.725189
-3.8869166 -95.0858 -3.9633775 85.739037 -27.389095 -129.32175
5617450000 -7.0356712 176.18013 -5.5856013 -177.3846 -3.8921938 -106.44714
-5.5814586 -177.39713 -6.9136639 177.1499 -3.9617908 74.259598
-3.902261 -106.43307 -3.9716136 74.272011 -25.057816 -133.14688
5727400000 -7.0554638 165.32849 -5.5955267 172.601 -3.9054859 -117.7176
-5.5901561 172.59593 -6.9456654 166.13351 -3.970166 62.905334
-3.9145248 -117.72578 -3.9831195 62.919739 -23.316103 -140.79605
5837350000 -7.0672936 154.63554 -5.6073322 162.56627 -3.9368248 -128.91681
-5.6061587 162.5806 -6.9781942 155.21628 -3.9875801 51.585239
-3.9356489 -128.91933 -3.9864564 51.580807 -22.057793 -149.74341
5947300000 -7.0702453 144.09459 -5.6360116 152.51883 -3.9503086 -140.06281
-5.6356053 152.50612 -7.0033078 144.39325 -3.9939153 40.335728
-3.9544756 -140.07387 -3.9996514 40.327644 -21.105356 -159.90628
6057250000 -7.0574794 133.67361 -5.6626463 142.51834 -3.9662528 -151.15739
-5.6601005 142.50729 -7.0140834 133.70764 -4.0046411 29.143423
-3.9678645 -151.17703 -4.0096798 29.133636 -20.427042 -169.73418
6167200000 -7.044157 123.43376 -5.6986518 132.51576 -3.9761949 -162.18484
-5.6935182 132.50876 -7.0193591 123.19546 -4.0078034 18.013784
-3.9844878 -162.20003 -4.0227838 17.997114 -19.890879 179.74141
6277150000 -7.0324068 113.25429 -5.7380877 122.56367 -3.9980311 -173.20985
-5.7373509 122.53699 -7.0319309 112.70944 -4.0257759 6.9061317
-4.0071907 -173.2048 -4.0323663 6.9193811 -19.538309 169.31502
6387100000 -7.0148287 103.1168 -5.773952 112.59959 -4.0148115 175.87906
-5.774435 112.59676 -7.0310855 102.2805 -4.0319533 -4.1478238
-4.0186462 175.88506 -4.0433021 -4.1458693 -19.238613 158.46159
6497050000 -6.9965405 93.030357 -5.8122001 102.70048 -4.0290933 164.97134
-5.8135242 102.698 -7.0272884 91.830872 -4.0360408 -15.167383
-4.0425725 164.99501 -4.0466032 -15.160536 -19.06246 147.81693
6607000000 -6.9710197 82.950699 -5.8534231 92.843987 -4.0470042 154.12946
-5.8501458 92.815117 -7.0215592 81.463478 -4.0487957 -26.14081
-4.0532403 154.14445 -4.0569315 -26.111509 -18.936592 137.16617
6716950000 -6.9502053 72.945145 -5.8858933 83.068359 -4.0601282 143.32819
-5.8952594 83.049553 -7.0189028 71.144943 -4.0682244 -37.085915
-4.0687366 143.31848 -4.0668941 -37.064404 -18.942999 126.62785
6826900000 -6.9238586 62.95723 -5.9121056 73.297951 -4.0740042 132.54066
-5.9121351 73.306946 -7.0080643 60.832157 -4.0620327 -47.975697
-4.0787449 132.58003 -4.0663519 -47.972355 -18.981802 116.22614
6936850000 -6.9175005 52.977856 -5.9344158 63.553249 -4.0817118 121.79955
-5.9370127 63.551556 -7.0150232 50.55162 -4.0724006 -58.847004
-4.0898542 121.81899 -4.0795383 -58.849991 -19.119879 105.49268
7046800000 -6.9148502 43.005848 -5.9456859 53.813438 -4.0919275 111.0856
-5.9432664 53.818748 -7.0145297 40.266022 -4.0800052 -69.685585
-4.1027241 111.09129 -4.0900693 -69.692978 -19.263384 95.308655
7156750000 -6.9253058 33.118111 -5.953876 44.074417 -4.105741 100.42255
-5.9501076 44.050793 -7.0342121 30.080881 -4.0890527 -80.527855
-4.1052451 100.42491 -4.0906081 -80.5186 -19.517284 84.587296
7266700000 -6.9344592 23.192583 -5.9441376 34.351822 -4.1049767 89.760002
-5.9448209 34.355572 -7.0369515 19.895834 -4.0962605 -91.328308
-4.1097088 89.763908 -4.1021271 -91.326241 -19.783905 74.316032
7376650000 -6.9623504 13.358152 -5.9206443 24.585186 -4.1086645 79.130661
-5.9205155 24.570263 -7.0686231 9.7020578 -4.1066141 -102.11423
-4.1124177 79.132111 -4.1038866 -102.11672 -20.113134 64.104294
7486600000 -6.9915867 3.4543645 -5.8987918 14.746819 -4.1073666 68.500763
-5.8952217 14.735948 -7.0828404 -0.42781648 -4.1099777 -112.87944
-4.1117911 68.505058 -4.1178141 -112.87199 -20.471252 53.925556
7596550000 -7.0290389 -6.3444328 -5.87117 4.9051814 -4.1064529 57.913914
-5.8669691 4.895885 -7.1222305 -10.504415 -4.1139975 -123.6243
-4.1144943 57.903442 -4.1258941 -123.64502 -20.94219 43.804008
7706500000 -7.0702586 -16.116562 -5.8415399 -5.0451231 -4.1098957 47.240868
-5.842669 -5.0587239 -7.1424522 -20.5858 -4.1291194 -134.35179
-4.1100321 47.243084 -4.1249342 -134.35548 -21.337713 33.510303
7816450000 -7.119873 -25.894989 -5.7975268 -15.01123 -4.0998898 36.631561
-5.8050246 -15.019855 -7.1776414 -30.585136 -4.1432409 -145.04057
-4.106874 36.627995 -4.1379991 -145.03394 -21.82896 23.556484
7926400000 -7.1754637 -35.651558 -5.7673945 -25.023275 -4.1014743 26.042273
-5.7648721 -25.056221 -7.2204013 -40.569931 -4.1469812 -155.72705
-4.105577 26.050957 -4.152936 -155.71622 -22.341263 13.949738
8036350000 -7.226892 -45.383682 -5.7177377 -35.188469 -4.0826058 15.40568
-5.7225294 -35.175838 -7.2489424 -50.550007 -4.1460242 -166.28337
-4.0926061 15.397407 -4.1500325 -166.31982 -22.863323 3.4899969
8146300000 -7.2737699 -55.05286 -5.6781645 -45.2831 -4.0775032 4.8586497
-5.6768527 -45.276226 -7.2930145 -60.483696 -4.1455097 -176.98949
-4.0864139 4.8497167 -4.1566958 -177.00098 -23.459595 -5.5411878
8256250000 -7.3224564 -64.809341 -5.6488714 -55.528938 -4.0742326 -5.688076
-5.6461701 -55.539413 -7.3180308 -70.416496 -4.1508527 172.36891
-4.0906911 -5.6903996 -4.1647468 172.37964 -24.034573 -15.737364
8366200000 -7.3681335 -74.657913 -5.6306429 -65.731369 -4.0709553 -16.320095
-5.6258574 -65.759674 -7.3354506 -80.49826 -4.1617708 161.81723
-4.0774865 -16.318033 -4.1758738 161.82721 -24.508858 -26.213539
8476150000 -7.3911738 -84.488159 -5.6022472 -76.014519 -4.0694747 -26.869692
-5.6071844 -76.017159 -7.349165 -90.436447 -4.1669803 151.16978
-4.0781484 -26.864391 -4.1754122 151.18008 -24.87298 -35.748108
8586100000 -7.4363461 -94.477524 -5.6016641 -86.33268 -4.0793977 -37.419613
-5.5945764 -86.369537 -7.3718691 -100.55837 -4.1767378 140.63196
-4.0777683 -37.427723 -4.1840973 140.64154 -25.212421 -46.674664
8696050000 -7.4601288 -104.42336 -5.5892186 -96.660797 -4.071209 -47.987816
-5.5834355 -96.684761 -7.383935 -110.63106 -4.1804857 130.05988
-4.0774198 -47.984974 -4.1931415 130.06194 -25.506468 -57.406204
8806000000 -7.4746728 -114.53149 -5.5861521 -107.02988 -4.0698981 -58.561607
-5.5803685 -107.03809 -7.3814783 -120.85239 -4.1824512 119.53039
-4.0684562 -58.565067 -4.1893663 119.52258 -25.7005 -69.009666
8915950000 -7.4810052 -124.63847 -5.5799742 -117.40796 -4.0612226 -69.130692
-5.5793142 -117.38743 -7.375761 -131.04814 -4.1832399 108.95035
-4.0715632 -69.114517 -4.192152 108.95051 -25.800278 -80.871994
9025900000 -7.4760013 -134.9357 -5.5849662 -127.78625 -4.0623894 -79.660866
-5.5867214 -127.80782 -7.3492761 -141.38448 -4.1876802 98.392815
-4.0634875 -79.658485 -4.1836658 98.401871 -25.677679 -93.739662
9135850000 -7.4735193 -145.27525 -5.593864 -138.18523 -4.0543633 -90.250931
-5.5891714 -138.17197 -7.3389902 -151.81128 -4.1818771 87.876038
-4.065269 -90.244522 -4.1926656 87.87674 -25.476311 -106.50719
9245800000 -7.459331 -155.72704 -5.6181197 -148.502 -4.0590124 -100.73765
-5.6116204 -148.52089 -7.3339667 -162.24106 -4.1825743 77.284523
-4.0605078 -100.76729 -4.1916218 77.278069 -25.250219 -120.26838
9355750000 -7.4471936 -166.23232 -5.6309438 -158.89841 -4.0546541 -111.29916
-5.627727 -158.89555 -7.3081341 -172.8063 -4.1826534 66.749855
-4.0646319 -111.30193 -4.189394 66.741554 -24.867504 -133.98106
9465700000 -7.4294286 -176.79498 -5.659411 -169.24756 -4.0578671 -121.83463
-5.6595268 -169.22955 -7.2744455 176.64056 -4.1856365 56.225311
-4.0624337 -121.8456 -4.1933365 56.206959 -24.42107 -147.75963
9575650000 -7.4063783 172.57539 -5.6855888 -179.57368 -4.0697803 -132.35736
-5.6782532 -179.58939 -7.2657094 166.03023 -4.1878376 45.659378
-4.0693507 -132.34863 -4.1985006 45.650158 -23.942749 -161.38339
9685600000 -7.3699403 161.92737 -5.7216549 170.11504 -4.0642152 -142.87297
-5.7161703 170.09978 -7.2394495 155.35831 -4.1951032 35.123013
-4.0632019 -142.87148 -4.1967645 35.125397 -23.437424 -174.69141
9795550000 -7.3432236 151.38338 -5.7530885 159.82991 -4.0663977 -153.38136
-5.7461758 159.82146 -7.2177734 144.82938 -4.1976814 24.566916
-4.066226 -153.3941 -4.2036934 24.579737 -22.966227 172.79341
9905500000 -7.3279943 140.77747 -5.7927847 149.54611 -4.0774736 -163.86566
-5.7850194 149.53943 -7.2117667 134.18901 -4.2009597 14.045681
-4.0753088 -163.89119 -4.2031279 14.035006 -22.533503 159.69684
10015450000 -7.2877145 130.2272 -5.8209128 139.30779 -4.0742722 -174.4183
-5.8245983 139.27562 -7.1990747 123.63159 -4.2166309 3.5612698
-4.0754218 -174.44514 -4.2156625 3.5573688 -22.11331 147.36621
10125400000 -7.2568998 119.74763 -5.8603849 129.06274 -4.0765734 175.11134
-5.8524489 129.06076 -7.1811972 113.12681 -4.2166424 -6.9767461
-4.081254 175.11086 -4.2234535 -6.9806137 -21.758078 135.29677
10235350000 -7.235847 109.25705 -5.895709 118.87439 -4.0776196 164.63007
-5.8957601 118.85155 -7.1843834 102.65487 -4.2256937 -17.472242
-4.0860853 164.61119 -4.2334719 -17.46759 -21.457037 123.05392
10345300000 -7.2156138 98.95681 -5.9380579 108.71286 -4.0852976 154.15277
-5.9332652 108.71207 -7.1930394 92.254547 -4.2344484 -27.97695
-4.0917072 154.14912 -4.2417207 -27.974833 -21.259155 111.32217
