! MARKI MICROWAVE INC.
! Email:             	info@markimicrowave.com   				Phone:   408-778-4200
! Model Number:      	BAL-0010						Date:    04/12
! Filename:		BAL-0010.S3P						Version: 1.0
! Description:       	3-port S-parameter data for Balun BAL-0010
! Frequency Range: 	10 MHz to 12 GHz		
! Port Configuration:	PORT 1: OUTPUT (0 DEGREE), PORT 2: OUTPUT (180 DEGREE), PORT 3: COMMON


! S3P File: Measurements: Mag<S11> Ang<S11> Mag<S12> Ang<S12> Mag<S13> Ang<S13>! row 1 
!			  Mag<S21> Ang<S21> Mag<S22> Ang<S22> Mag<S23> Ang<S23>! row 2 
!			  Mag<S31> Ang<S31> Mag<S32> Ang<S32> Mag<S33> Ang<S33>! row 3 

# Hz S  dB   R 50
10000000 -15.496998 171.38515 -8.5839844 0.16866066 -6.694149 -3.2264524
-8.5939379 0.13897291 -15.521997 172.15198 -6.6975317 176.52103
-6.7060924 -1.9196185 -6.7188864 178.10185 -22.563412 167.24396
24987500 -15.408628 172.30132 -8.6358089 -0.65995854 -6.7121282 -4.0087399
-8.6443863 -0.69318157 -15.421827 172.93002 -6.7172451 175.75798
-6.7223916 -2.94785 -6.7357974 177.04657 -22.447969 167.4633
39975000 -15.325959 173.1057 -8.6860971 -1.5614448 -6.7300358 -4.9300771
-8.6938057 -1.5963941 -15.325307 173.60953 -6.7370467 174.85719
-6.7386971 -4.1098566 -6.7525311 175.86002 -22.337303 167.43102
54962500 -15.249752 173.82843 -8.7350578 -2.5241938 -6.7473612 -5.9814401
-8.7409086 -2.565589 -15.233988 174.19801 -6.7566843 173.82362
-6.7540002 -5.3999434 -6.7689767 174.5471 -22.234777 167.18785
69950000 -15.179919 174.48427 -8.7826738 -3.5610006 -6.7647848 -7.1636724
-8.7858686 -3.6047356 -15.149222 174.71941 -6.7759361 172.65811
-6.7680182 -6.8260565 -6.7845278 173.09433 -22.138994 166.75175
84937500 -15.116528 175.08678 -8.8277721 -4.665885 -6.7815633 -8.4755478
-8.8292122 -4.7186041 -15.068893 175.19206 -6.7948608 171.35818
-6.7826982 -8.3829584 -6.8003807 171.50902 -22.051653 166.13167
99925000 -15.059895 175.63239 -8.8709364 -5.8554611 -6.7977414 -9.9251633
-8.8712683 -5.9067073 -14.994025 175.60472 -6.8134351 169.9223
-6.7969093 -10.072771 -6.8161712 169.7845 -21.974337 165.3407
114912500 -15.004187 174.94527 -8.8950434 -6.6982064 -6.8051367 -11.419354
-8.8944235 -6.7359257 -14.931514 174.87822 -6.8236885 168.40837
-6.8030648 -11.540298 -6.8234696 168.27631 -21.91968 163.08371
129900000 -15.004667 173.99799 -8.9027357 -7.4585009 -6.8083935 -12.886319
-8.9015188 -7.4859405 -14.917787 173.92412 -6.830637 166.91922
-6.8049698 -12.994339 -6.8290448 166.80568 -21.930614 160.62372
144887500 -15.036517 173.13109 -8.8966923 -8.2199078 -6.8080478 -14.360691
-8.8957243 -8.2478819 -14.935734 173.02385 -6.8327594 165.43008
-6.8037124 -14.445548 -6.8297091 165.34978 -21.970375 158.18645
159875000 -15.085135 172.34615 -8.883996 -9.0304041 -6.8057251 -15.837236
-8.8828869 -9.0504808 -14.97212 172.21533 -6.8321562 163.93813
-6.8005052 -15.917715 -6.8292003 163.87244 -22.027857 155.87532
174862500 -15.136517 171.67506 -8.8681383 -9.8695068 -6.802063 -17.331684
-8.8672285 -9.8874893 -15.017772 171.52634 -6.8308821 162.44177
-6.7956095 -17.395786 -6.8268042 162.37761 -22.09271 153.65022
189850000 -15.194641 171.08147 -8.8536348 -10.73841 -6.7981043 -18.824202
-8.851738 -10.754485 -15.065415 170.9278 -6.8282266 160.93549
-6.7900448 -18.885313 -6.8246298 160.88377 -22.159235 151.61552
204837500 -15.246073 170.58273 -8.8392448 -11.622734 -6.7944155 -20.308821
-8.8359404 -11.635734 -15.107509 170.40477 -6.8264456 159.43713
-6.7849112 -20.378626 -6.8221583 159.38081 -22.225437 149.62895
219825000 -15.293052 170.11508 -8.8266878 -12.530763 -6.7900066 -21.808804
-8.8242941 -12.547289 -15.147129 169.9286 -6.8255186 157.9283
-6.7809124 -21.878452 -6.8203378 157.86957 -22.284195 147.6711
234812500 -15.333388 169.69038 -8.8154278 -13.449474 -6.7859144 -23.317076
-8.8125191 -13.464965 -15.181035 169.49712 -6.8238158 156.41481
-6.77845 -23.378313 -6.8199763 156.36165 -22.333334 145.72867
249800000 -15.368619 169.29939 -8.8049622 -14.385492 -6.7825756 -24.838125
-8.803937 -14.393723 -15.212153 169.08611 -6.8226199 154.89227
-6.7760496 -24.882891 -6.8191915 154.85109 -22.37328 143.77562
264787500 -15.399109 168.92613 -8.79743 -15.32486 -6.7800303 -26.348312
-8.7970858 -15.338159 -15.23716 168.68576 -6.8232536 153.38292
-6.7737856 -26.397465 -6.8187795 153.33788 -22.404751 141.87381
279775000 -15.419668 168.56514 -8.7900333 -16.271734 -6.7767944 -27.865284
-8.7890425 -16.28318 -15.254051 168.27998 -6.8226204 151.86215
-6.7708693 -27.908003 -6.8196502 151.82129 -22.422998 139.97728
294762500 -15.438052 168.24771 -8.7851715 -17.214674 -6.7745652 -29.383678
-8.7841873 -17.224344 -15.268855 167.90663 -6.82306 150.34291
-6.7688775 -29.41993 -6.8206143 150.31294 -22.434929 138.12367
309750000 -15.450212 167.94353 -8.7812901 -18.152201 -6.7735286 -30.893534
-8.7809849 -18.163816 -15.28185 167.53842 -6.824163 148.83885
-6.7666678 -30.922548 -6.8217502 148.80348 -22.438963 136.35677
324737500 -15.459123 167.6429 -8.7815466 -19.090364 -6.7731419 -32.410484
-8.7796736 -19.102116 -15.291361 167.17233 -6.8259673 147.32478
-6.7657313 -32.428967 -6.8243723 147.29997 -22.436481 134.55392
339725000 -15.467625 167.34105 -8.7816067 -20.029186 -6.7711906 -33.916054
-8.7792759 -20.034678 -15.295554 166.79857 -6.8263535 145.82143
-6.7655864 -33.937836 -6.8273687 145.79842 -22.433048 132.74037
354712500 -15.465051 167.03879 -8.7827425 -20.966898 -6.7715144 -35.426292
-8.7803268 -20.976835 -15.293808 166.40057 -6.8303351 144.31828
-6.7670512 -35.448872 -6.8301892 144.28789 -22.429293 130.90231
369700000 -15.465496 166.71532 -8.7852182 -21.897366 -6.7727118 -36.939266
-8.7835445 -21.916872 -15.293962 165.98373 -6.8330684 142.81184
-6.7684388 -36.957661 -6.8336287 142.7867 -22.416832 129.10942
384687500 -15.459172 166.38094 -8.7878771 -22.836418 -6.773953 -38.445774
-8.7847595 -22.849003 -15.289412 165.55659 -6.8354006 141.31323
-6.7698379 -38.470333 -6.8368964 141.27084 -22.39975 127.30276
399675000 -15.452208 166.06828 -8.7910347 -23.764006 -6.7740436 -39.950424
-8.7887173 -23.781628 -15.283473 165.12265 -6.8378792 139.81412
-6.7704439 -39.98547 -6.8397231 139.76558 -22.37779 125.51918
414662500 -15.442831 165.71985 -8.7959261 -24.689793 -6.7743702 -41.452312
-8.7922306 -24.705265 -15.272794 164.6526 -6.8411217 138.31917
-6.7699561 -41.497746 -6.8423772 138.26024 -22.350056 123.70119
429650000 -15.428757 165.38072 -8.8002491 -25.607357 -6.7747822 -42.962502
-8.7952557 -25.622274 -15.261514 164.18333 -6.8434134 136.81389
-6.7702832 -43.007862 -6.8458891 136.76172 -22.327772 121.84155
444637500 -15.416877 165.02521 -8.8055105 -26.516184 -6.7766809 -44.466484
-8.802103 -26.535418 -15.249834 163.72281 -6.847342 135.32121
-6.7716112 -44.516861 -6.8490252 135.26857 -22.29669 120.05872
459625000 -15.403177 164.64832 -8.8111935 -27.43535 -6.7782116 -45.978226
-8.8064604 -27.452484 -15.236135 163.20528 -6.8504024 133.8194
-6.7729959 -46.017063 -6.8520503 133.77037 -22.262535 118.24991
474612500 -15.385877 164.25424 -8.8175249 -28.363476 -6.7793193 -47.490749
-8.8119545 -28.364153 -15.219051 162.67117 -6.8532677 132.31662
-6.7748151 -47.529705 -6.8547316 132.26358 -22.236032 116.37491
489600000 -15.369129 163.8409 -8.8217716 -29.275913 -6.7808332 -48.999737
-8.8179817 -29.287567 -15.200426 162.11989 -6.8561406 130.82367
-6.776628 -49.049118 -6.8571706 130.76381 -22.208832 114.51023
504587500 -15.351129 163.43217 -8.8275957 -30.180294 -6.7838535 -50.511276
-8.8244848 -30.202141 -15.179753 161.54742 -6.8606648 129.32297
-6.7783394 -50.565151 -6.8597937 129.26541 -22.172922 112.62745
519575000 -15.334177 163.01036 -8.8336535 -31.082207 -6.7849174 -52.023312
-8.8307076 -31.10675 -15.16051 160.99559 -6.8621483 127.82703
-6.7804446 -52.069103 -6.8623843 127.77608 -22.130869 110.73943
534562500 -15.312535 162.56726 -8.8413372 -31.985065 -6.7855277 -53.535927
-8.8360634 -32.00465 -15.137225 160.42957 -6.8642759 126.32764
-6.781806 -53.576412 -6.8660769 126.27888 -22.088614 108.84988
549550000 -15.294123 162.14503 -8.8480606 -32.874401 -6.7875314 -55.044109
-8.8433123 -32.89278 -15.112686 159.86862 -6.866323 124.82598
-6.7840638 -55.081257 -6.8683143 124.7957 -22.045498 106.94332
564537500 -15.27073 161.68004 -8.8542042 -33.776043 -6.7900219 -56.553699
-8.8508396 -33.790966 -15.089516 159.2753 -6.8703012 123.32588
-6.7863784 -56.580284 -6.8709054 123.31594 -22.007978 105.04289
579525000 -15.248583 161.23863 -8.8622398 -34.668144 -6.7931318 -58.053329
-8.8575344 -34.687214 -15.06781 158.68544 -6.8739543 121.83434
-6.7893147 -58.085564 -6.8750081 121.82552 -21.976894 103.18183
594512500 -15.224545 160.77805 -8.8708096 -35.563011 -6.7962656 -59.558479
-8.8658934 -35.577126 -15.043493 158.07573 -6.8760643 120.34399
-6.791903 -59.585964 -6.8777308 120.33054 -21.930294 101.28721
609500000 -15.202219 160.29608 -8.8789206 -36.45602 -6.7991328 -61.06955
-8.8734636 -36.473164 -15.019416 157.45558 -6.8795433 118.84916
-6.7952967 -61.091595 -6.8806829 118.84143 -21.899076 99.339935
624487500 -15.177821 159.79022 -8.8871241 -37.344532 -6.8028502 -62.564915
-8.8824654 -37.359291 -14.994076 156.8409 -6.8837824 117.369
-6.796803 -62.596294 -6.8839517 117.3553 -21.86347 97.39518
639475000 -15.152511 159.27101 -8.8943701 -38.218456 -6.8055496 -64.066574
-8.8894939 -38.246319 -14.965433 156.21657 -6.8867593 115.87703
-6.7999263 -64.098007 -6.8877821 115.8758 -21.825363 95.422195
654462500 -15.124677 158.76186 -8.9022312 -39.106133 -6.807385 -65.566109
-8.8975735 -39.125252 -14.93977 155.60133 -6.8896985 114.37894
-6.8018341 -65.594055 -6.8890328 114.38499 -21.780828 93.435677
669450000 -15.099056 158.23953 -8.9104996 -39.989185 -6.8093014 -67.071068
-8.9063816 -40.002846 -14.916297 154.98367 -6.8918419 112.8877
-6.8059225 -67.088455 -6.8915844 112.89275 -21.738668 91.476913
684437500 -15.071589 157.69826 -8.9181051 -40.871273 -6.812849 -68.572441
-8.913312 -40.876495 -14.889891 154.33113 -6.8954401 111.395
-6.8076711 -68.590385 -6.8944097 111.40593 -21.698719 89.463432
699425000 -15.04481 157.17828 -8.9252195 -41.740978 -6.8157616 -70.068565
-8.9224882 -41.746315 -14.865836 153.7005 -6.9000015 109.90936
-6.8118854 -70.082954 -6.8960218 109.9281 -21.660141 87.479477
714412500 -15.016767 156.63911 -8.9329338 -42.612877 -6.8190107 -71.564178
-8.929841 -42.618793 -14.841885 153.05304 -6.9035025 108.42804
-6.8134027 -71.576721 -6.8988914 108.44167 -21.620781 85.512901
729400000 -14.990868 156.07687 -8.9414377 -43.479408 -6.8230567 -73.058823
-8.9365845 -43.480095 -14.813869 152.39127 -6.9058776 106.94653
-6.8147068 -73.073883 -6.9019146 106.94647 -21.577505 83.496651
744387500 -14.966436 155.49782 -8.9494591 -44.348667 -6.8267217 -74.560371
-8.9447136 -44.343372 -14.787615 151.73737 -6.9083676 105.45627
-6.8188443 -74.563347 -6.9043388 105.46316 -21.532269 81.541809
759375000 -14.945161 154.91609 -8.9555054 -45.209274 -6.8294678 -76.056183
-8.9522104 -45.216019 -14.763065 151.07555 -6.9125113 103.96278
-6.8225722 -76.064301 -6.9062152 103.98533 -21.492949 79.583733
774362500 -14.918699 154.33784 -8.9620886 -46.067421 -6.8322678 -77.540833
-8.959712 -46.071751 -14.738215 150.41452 -6.9147978 102.48556
-6.8253198 -77.55735 -6.9089227 102.50403 -21.449308 77.585922
789350000 -14.894399 153.75749 -8.96978 -46.924992 -6.8347435 -79.038689
-8.9669695 -46.931038 -14.714601 149.7473 -6.91538 100.99908
-6.8296123 -79.048508 -6.9106412 101.01711 -21.407293 75.572166
804337500 -14.872857 153.17377 -8.9779978 -47.77861 -6.8382854 -80.530525
-8.9764109 -47.787601 -14.694089 149.07605 -6.917634 99.513062
-6.8330564 -80.538605 -6.913239 99.536133 -21.361572 73.578415
819325000 -14.853852 152.57043 -8.9856491 -48.62616 -6.8424077 -82.022827
-8.9846144 -48.639191 -14.673055 148.38835 -6.9203582 98.040665
-6.8376865 -82.027405 -6.9162621 98.057861 -21.319929 71.575401
834312500 -14.830079 151.9568 -8.9922438 -49.469589 -6.8469405 -83.509804
-8.9908962 -49.491192 -14.654026 147.70544 -6.9239149 96.559898
-6.8401084 -83.523308 -6.9184046 96.584442 -21.28373 69.604744
849300000 -14.808627 151.34811 -8.9993124 -50.31374 -6.8500557 -84.990921
-8.9981632 -50.34507 -14.635725 147.03566 -6.9258718 95.090126
-6.8435693 -85.009491 -6.9207349 95.104881 -21.240095 67.626228
864287500 -14.786894 150.71164 -9.005085 -51.166729 -6.8524971 -86.480034
-9.003768 -51.204708 -14.619051 146.3383 -6.9256716 93.613533
-6.8458953 -86.502541 -6.9229383 93.624527 -21.194351 65.610344
879275000 -14.765643 150.06696 -9.0113316 -52.01804 -6.8547459 -87.972473
-9.0107536 -52.058849 -14.602837 145.61192 -6.9272623 92.128777
-6.8495669 -87.994003 -6.9250298 92.147446 -21.146406 63.586098
894262500 -14.749801 149.43475 -9.0189238 -52.860172 -6.8571725 -89.461014
-9.0183516 -52.914951 -14.591081 144.90376 -6.9292297 90.652138
-6.8550315 -89.481163 -6.9271345 90.671844 -21.104734 61.600063
909250000 -14.730357 148.78523 -9.0249453 -53.706722 -6.8597207 -90.95002
-9.0238323 -53.763515 -14.577286 144.17862 -6.9309478 89.179298
-6.8574109 -90.977226 -6.9288206 89.191658 -21.065617 59.540119
924237500 -14.709758 148.13826 -9.0315313 -54.549419 -6.8629842 -92.437088
-9.0293293 -54.603722 -14.563564 143.48283 -6.9321017 87.709351
-6.8603363 -92.456253 -6.9303689 87.722565 -21.017538 57.509415
939225000 -14.689895 147.48727 -9.0378761 -55.392796 -6.8657246 -93.925652
-9.0342932 -55.444901 -14.551953 142.74426 -6.932723 86.228973
-6.8633099 -93.937408 -6.9317412 86.245895 -20.972366 55.487167
954212500 -14.67402 146.8299 -9.0415268 -56.228416 -6.8677616 -95.410767
-9.0397139 -56.291401 -14.53949 142.02945 -6.9345717 84.751144
-6.8667169 -95.428024 -6.932797 84.777679 -20.928453 53.49073
969200000 -14.655564 146.16237 -9.0467043 -57.064892 -6.8711605 -96.90078
-9.0419855 -57.13129 -14.529464 141.30338 -6.9358115 83.278778
-6.8689289 -96.91671 -6.9337053 83.31321 -20.886578 51.504471
984187500 -14.636408 145.49655 -9.0510178 -57.906242 -6.8732591 -98.387772
-9.0459766 -57.967289 -14.520503 140.57303 -6.9370971 81.802734
-6.8711948 -98.404114 -6.934886 81.837257 -20.843493 49.512024
999175000 -14.62186 144.83305 -9.0566883 -58.752579 -6.8766079 -99.870605
-9.0501814 -58.808823 -14.510662 139.84258 -6.9371409 80.331039
-6.8743849 -99.891823 -6.9369516 80.358231 -20.803253 47.528194
1014162500 -14.603758 144.1664 -9.0603161 -59.58186 -6.8790069 -101.34653
-9.0537004 -59.636539 -14.500527 139.11125 -6.9382415 78.856689
-6.8770723 -101.37413 -6.937892 78.890968 -20.764393 45.570808
1029150000 -14.588649 143.48732 -9.0641718 -60.420879 -6.8826432 -102.83499
-9.0581989 -60.468533 -14.489535 138.3542 -6.9393411 77.375397
-6.879806 -102.8623 -6.9392281 77.412323 -20.731009 43.558357
1044137500 -14.57653 142.82608 -9.0680332 -61.251961 -6.8855395 -104.32033
-9.0613737 -61.30323 -14.482694 137.62947 -6.9397173 75.90432
-6.8828516 -104.34556 -6.9405589 75.93853 -20.70105 41.570255
1059125000 -14.561392 142.17683 -9.0712252 -62.085388 -6.8888659 -105.80674
-9.064003 -62.132805 -14.475308 136.90129 -6.9405522 74.426239
-6.885747 -105.83384 -6.9419174 74.460655 -20.668432 39.559483
1074112500 -14.547699 141.49817 -9.0740061 -62.920818 -6.8910537 -107.29182
-9.0677137 -62.974686 -14.470293 136.16823 -6.9405026 72.953415
-6.8872938 -107.31897 -6.9419713 72.989609 -20.632931 37.574471
1089100000 -14.534335 140.81458 -9.0766945 -63.754333 -6.8935609 -108.77467
-9.0704994 -63.812363 -14.466685 135.42043 -6.9404111 71.475502
-6.8896728 -108.80756 -6.9428492 71.509186 -20.604858 35.564857
1104087500 -14.524379 140.13783 -9.0800686 -64.584175 -6.8967886 -110.25571
-9.0739584 -64.645332 -14.462868 134.70326 -6.9412622 69.996254
-6.8925471 -110.29109 -6.9435577 70.033035 -20.570049 33.575306
1119075000 -14.508421 139.45699 -9.0828142 -65.420204 -6.8992195 -111.74292
-9.0749149 -65.473221 -14.458588 133.94768 -6.9401016 68.519119
-6.8946691 -111.7751 -6.9452305 68.553726 -20.53689 31.534752
1134062500 -14.498804 138.78728 -9.0849705 -66.260406 -6.9010296 -113.22393
-9.0793009 -66.313423 -14.456068 133.20479 -6.9404607 67.044327
-6.8981256 -113.26109 -6.9450026 67.06559 -20.507259 29.534424
1149050000 -14.488138 138.12274 -9.0877476 -67.084724 -6.9033866 -114.70838
-9.0810442 -67.150642 -14.453228 132.46463 -6.9391718 65.563507
-6.9011626 -114.73793 -6.9464703 65.594139 -20.475189 27.547649
1164037500 -14.476628 137.46278 -9.0883703 -67.912552 -6.9044399 -116.19547
-9.0830126 -67.984184 -14.450233 131.73221 -6.9391928 64.085182
-6.9029169 -116.21578 -6.9447465 64.124588 -20.442545 25.541912
1179025000 -14.470277 136.79083 -9.0904818 -68.755127 -6.9066482 -117.68616
-9.0853577 -68.823448 -14.446975 130.98381 -6.9380608 62.606903
-6.9052429 -117.69984 -6.9442453 62.64032 -20.414566 23.531029
1194012500 -14.4638 136.12413 -9.0932493 -69.586922 -6.9085579 -119.16101
-9.0866308 -69.663116 -14.447406 130.25616 -6.9383564 61.140774
-6.9077635 -119.18805 -6.9441738 61.164165 -20.386909 21.546772
1209000000 -14.455967 135.44717 -9.0953712 -70.420792 -6.9108715 -120.64208
-9.0879679 -70.501122 -14.446085 129.52556 -6.9373384 59.665848
-6.910624 -120.68141 -6.9440656 59.690781 -20.358061 19.561306
1223987500 -14.449746 134.75613 -9.0958681 -71.258514 -6.9124508 -122.12037
-9.088726 -71.339516 -14.445644 128.79787 -6.9361506 58.189754
-6.9125061 -122.16357 -6.9430323 58.213409 -20.331377 17.581829
1238975000 -14.440833 134.10852 -9.0957136 -72.086182 -6.9143953 -123.59779
-9.0893841 -72.16729 -14.443823 128.08627 -6.9363542 56.710453
-6.9154921 -123.63894 -6.9416561 56.735447 -20.302328 15.634214
1253962500 -14.435019 133.45369 -9.09622 -72.918671 -6.9175272 -125.07474
-9.0900068 -72.998741 -14.443087 127.36327 -6.9353623 55.235573
-6.9179931 -125.12105 -6.9404726 55.257828 -20.275005 13.683533
1268950000 -14.427213 132.78905 -9.0962 -73.75528 -6.9188871 -126.56256
-9.0899811 -73.837898 -14.443305 126.63306 -6.9334211 53.757435
-6.9198847 -126.60861 -6.93928 53.781796 -20.249525 11.730648
1283937500 -14.423605 132.14745 -9.0968781 -74.590622 -6.9212465 -128.04005
-9.090621 -74.67424 -14.445601 125.91379 -6.9328604 52.279987
-6.922411 -128.0869 -6.9371343 52.301994 -20.232597 9.7813864
1298925000 -14.418851 131.49338 -9.0967302 -75.422813 -6.9232121 -129.51855
-9.0898457 -75.504326 -14.446872 125.20565 -6.9313521 50.803123
-6.9250817 -129.56522 -6.9370775 50.827991 -20.217312 7.8134017
1313912500 -14.417188 130.82253 -9.0965166 -76.266922 -6.9257379 -130.99576
-9.0901594 -76.341652 -14.450068 124.48566 -6.9314346 49.32338
-6.9270177 -131.05563 -6.9358783 49.341106 -20.199778 5.8442397
1328900000 -14.414069 130.14694 -9.0970116 -77.099617 -6.9279881 -132.47243
-9.0901985 -77.178131 -14.452917 123.7671 -6.9296517 47.844746
-6.9295402 -132.53455 -6.9353185 47.85812 -20.182312 3.859261
1343887500 -14.411013 129.48642 -9.0966196 -77.939079 -6.9302025 -133.9572
-9.0908651 -78.015755 -14.45752 123.05338 -6.9297161 46.3615
-6.9324131 -134.02155 -6.9336672 46.374687 -20.162813 1.8717412
1358875000 -14.40654 128.83597 -9.0955057 -78.777603 -6.9331722 -135.44574
-9.0892048 -78.848282 -14.459259 122.33724 -6.9285088 44.871063
-6.9334669 -135.49579 -6.9314451 44.890759 -20.140121 -0.087777607
1373862500 -14.401822 128.19344 -9.094677 -79.611931 -6.9356623 -136.92845
-9.0873947 -79.677628 -14.461224 121.64992 -6.9284496 43.387123
-6.9346461 -136.96648 -6.9304175 43.408913 -20.122137 -2.0292585
1388850000 -14.395699 127.54356 -9.0924702 -80.44841 -6.9374266 -138.40517
-9.0862083 -80.515617 -14.460504 120.93988 -6.9278784 41.908951
-6.9348397 -138.44727 -6.9283113 41.931458 -20.102571 -3.9323087
1403837500 -14.392118 126.90248 -9.0924616 -81.284386 -6.9395404 -139.88744
-9.0845613 -81.351524 -14.463241 120.25712 -6.9250855 40.426395
-6.9365582 -139.92731 -6.9283962 40.455906 -20.089828 -5.8690553
1418825000 -14.387871 126.2475 -9.0912027 -82.119995 -6.9403172 -141.37152
-9.0823002 -82.193611 -14.463346 119.56876 -6.9236732 38.938862
-6.9371266 -141.40781 -6.9269185 38.97826 -20.078356 -7.7887807
1433812500 -14.387917 125.60325 -9.0901031 -82.956871 -6.9422755 -142.84428
-9.0804825 -83.040138 -14.466641 118.89339 -6.9228601 37.457703
-6.9387531 -142.88385 -6.9254131 37.491241 -20.067659 -9.7249193
