! MARKI MICROWAVE INC.
! Email:             	info@markimicrowave.com   				Phone:   408-778-4200
! Model Number:      	BAL-0208						Date:    10/14
! Filename:		BAL-0208SMG.S3P						Version: 1.0
! Description:       	3-port S-parameter data for Balun BAL-0208SMG
! Frequency Range: 	10 MHz to 26.5 GHz		
! Port Configuration:	PORT 1: OUTPUT (0 DEGREE), PORT 2: OUTPUT (180 DEGREE), PORT 3: COMMON


! S3P File: Measurements: Mag<S11> Ang<S11> Mag<S12> Ang<S12> Mag<S13> Ang<S13>! row 1 
!			  Mag<S21> Ang<S21> Mag<S22> Ang<S22> Mag<S23> Ang<S23>! row 2 
!			  Mag<S31> Ang<S31> Mag<S32> Ang<S32> Mag<S33> Ang<S33>! row 3 

# Hz S  dB   R 50
10000000 -3.4405866 171.33403 -40.043594 86.718643 -13.814435 -6.453692
-40.266705 86.905403 -1.3494341 170.84384 -41.40062 -92.909111
-13.850702 -5.5511389 -39.337616 -92.980301 -3.1964254 171.34471
43112500 -3.4747899 168.24513 -36.941509 83.794815 -13.861203 -8.0865526
-37.122078 83.920624 -1.3713113 167.51891 -37.999935 -95.783165
-13.884562 -7.3783631 -36.336323 -95.856636 -3.2328873 168.256
76225000 -3.5136878 164.55823 -33.672112 80.196167 -13.909953 -10.070884
-33.810642 80.27523 -1.3988124 163.53203 -34.431782 -99.309128
-13.923865 -9.563056 -33.175995 -99.356575 -3.2732899 164.57654
109337500 -3.5584948 160.2608 -30.269726 75.967102 -13.965022 -12.429922
-30.368433 75.996254 -1.4309868 158.89233 -30.72818 -103.48291
-13.967428 -12.115794 -29.877048 -103.49262 -3.3210216 160.30254
142450000 -3.6075177 155.36246 -26.752884 71.114349 -14.02297 -15.126501
-26.811113 71.095078 -1.4676725 153.60657 -26.907356 -108.21935
-14.010114 -15.044197 -26.460913 -108.24158 -3.3762531 155.42764
175562500 -3.6618466 149.88702 -23.134525 65.668312 -14.083765 -18.218981
-23.15066 65.58918 -1.512429 147.68225 -22.982893 -113.58482
-14.060251 -18.321913 -22.94356 -113.57083 -3.4357202 149.9577
208675000 -3.7131822 144.46097 -21.082462 59.552719 -14.134253 -21.414631
-21.090704 59.527885 -1.5579079 141.78084 -20.890865 -119.43242
-14.112475 -21.490623 -20.867044 -119.53008 -3.4886761 144.54895
241787500 -3.7614903 139.07642 -19.563959 53.652382 -14.175952 -24.627138
-19.570314 53.67905 -1.6054996 135.89648 -19.364294 -125.18834
-14.155824 -24.690794 -19.339405 -125.29019 -3.5425854 139.16927
274900000 -3.8074214 133.73543 -18.350142 48.016193 -14.216388 -27.85862
-18.355255 47.994762 -1.6548789 130.05829 -18.132885 -130.75827
-14.197766 -27.913456 -18.108082 -130.88634 -3.5934727 133.83029
308012500 -3.8526449 128.44247 -17.334929 42.496197 -14.262743 -31.123264
-17.341509 42.496674 -1.7054204 124.28024 -17.099594 -136.17386
-14.245939 -31.185593 -17.074526 -136.30994 -3.6456008 128.52951
341125000 -3.8976235 123.19614 -16.4606 37.093731 -14.31268 -34.414467
-16.469152 37.111317 -1.7588774 118.52959 -16.203806 -141.49873
-14.297468 -34.482388 -16.186195 -141.61696 -3.69801 123.27953
374237500 -3.9422793 117.97316 -15.703197 31.804445 -14.372586 -37.731766
-15.709026 31.818171 -1.8137887 112.83354 -15.419804 -146.73889
-14.356222 -37.795135 -15.40187 -146.84676 -3.752424 118.06344
407350000 -3.9848115 112.80614 -15.027804 26.611309 -14.436172 -41.04467
-15.03205 26.626158 -1.8703238 107.18435 -14.721915 -151.87726
-14.421562 -41.097416 -14.704381 -151.99265 -3.805208 112.88042
440462500 -4.0255461 107.68312 -14.423036 21.490854 -14.511224 -44.3895
-14.425639 21.497189 -1.9291308 101.57076 -14.093662 -156.99709
-14.501368 -44.406338 -14.077357 -157.07246 -3.8561709 107.74405
473575000 -4.0640016 102.59387 -13.877657 16.424875 -14.59464 -47.69421
-13.879192 16.442995 -1.9859997 96.003708 -13.522566 -162.01671
-14.585575 -47.717056 -13.505269 -162.104 -3.905163 102.64944
506687500 -4.0998912 97.540024 -13.380491 11.415015 -14.687384 -50.994015
-13.382612 11.44806 -2.0451591 90.480949 -12.998987 -167.02354
-14.680707 -51.024132 -12.983702 -167.09061 -3.9545629 97.595963
539800000 -4.1326122 92.532272 -12.93022 6.4871411 -14.790846 -54.261028
-12.931557 6.501832 -2.1041534 85.011246 -12.519864 -171.95523
-14.785725 -54.288666 -12.508128 -172.00739 -4.0023379 92.590172
572912500 -4.1638589 87.568085 -12.515003 1.6010549 -14.905489 -57.545219
-12.518196 1.6317546 -2.163625 79.586174 -12.082579 -176.84561
-14.900652 -57.541878 -12.068605 -176.90953 -4.0481963 87.620117
606025000 -4.1933184 82.632133 -12.134654 -3.243289 -15.029614 -60.771404
-12.137541 -3.2117717 -2.2231922 74.190681 -11.675283 178.28484
-15.027102 -60.752293 -11.662797 178.22343 -4.0915194 82.693787
639137500 -4.2177625 77.722237 -11.780237 -8.0511789 -15.165225 -63.93919
-11.780628 -8.0147009 -2.2811234 68.84893 -11.297588 173.45067
-15.165211 -63.942661 -11.28416 173.37936 -4.1321511 77.810478
672250000 -4.2404594 72.859215 -11.450382 -12.810328 -15.31153 -67.075859
-11.452757 -12.764524 -2.3381503 63.554718 -10.946676 168.6432
-15.310012 -67.076004 -10.931347 168.57346 -4.1721797 72.959045
705362500 -4.2603359 68.023415 -11.147634 -17.538153 -15.466865 -70.149864
-11.148911 -17.502876 -2.3984294 58.310909 -10.61982 163.86731
-15.466422 -70.16346 -10.60546 163.79855 -4.2104268 68.150993
738475000 -4.2771072 63.225517 -10.862678 -22.214088 -15.630338 -73.1436
-10.863777 -22.177738 -2.4573231 53.129581 -10.311972 159.11424
-15.629773 -73.167648 -10.298294 159.04744 -4.2439337 63.363297
771587500 -4.2925673 58.462444 -10.59929 -26.859818 -15.80661 -76.07093
-10.601227 -26.828156 -2.5177391 47.97736 -10.028537 154.38028
-15.804844 -76.106285 -10.014992 154.31525 -4.2780957 58.630913
804700000 -4.3035445 53.729763 -10.353593 -31.463438 -15.990564 -78.936104
-10.355376 -31.439756 -2.5783548 42.881451 -9.7658262 149.68135
-15.985289 -78.966492 -9.7504511 149.62572 -4.3117046 53.926811
837812500 -4.3138709 49.016369 -10.122193 -36.050652 -16.175833 -81.695282
-10.124618 -36.030476 -2.6377316 37.828434 -9.516449 144.98735
-16.171204 -81.729095 -9.5014229 144.94095 -4.3404236 49.234169
870925000 -4.3196816 44.316494 -9.902854 -40.615181 -16.369135 -84.335526
-9.9072084 -40.596539 -2.6974545 32.818619 -9.280592 140.33078
-16.363556 -84.396187 -9.2670679 140.28975 -4.3668504 44.589161
904037500 -4.3219132 39.657524 -9.6962042 -45.139 -16.562323 -86.865738
-9.7015324 -45.114143 -2.7579222 27.865555 -9.0609093 135.69525
-16.55542 -86.931343 -9.0459404 135.66075 -4.39113 39.986851
937150000 -4.3257713 35.011631 -9.5054445 -49.635601 -16.755758 -89.297577
-9.5111074 -49.631893 -2.8196125 22.951818 -8.8548746 131.06998
-16.748993 -89.357185 -8.8417206 131.04768 -4.4175959 35.407654
970262500 -4.3257203 30.384958 -9.3241091 -54.109066 -16.943913 -91.598
-9.3305864 -54.108109 -2.8813322 18.077866 -8.6591911 126.48367
-16.939537 -91.678169 -8.6485138 126.43824 -4.4385557 30.839844
1003375000 -4.3227038 25.776524 -9.1517992 -58.554897 -17.131456 -93.793091
-9.1578369 -58.541565 -2.9406912 13.246434 -8.4739494 121.91521
-17.123852 -93.875473 -8.4631186 121.86924 -4.4551573 26.297916
1036487500 -4.3206553 21.183372 -8.9910374 -62.98188 -17.310722 -95.888954
-8.997057 -62.960171 -3.0008087 8.4583883 -8.3011875 117.37251
-17.305429 -95.980331 -8.2896452 117.32895 -4.4712763 21.80965
1069600000 -4.3166337 16.58812 -8.8354759 -67.374329 -17.480392 -97.867302
-8.8432055 -67.344246 -3.0592694 3.7405348 -8.1391106 112.8499
-17.475021 -97.963921 -8.1246099 112.80745 -4.4880643 17.326538
1102712500 -4.3123469 12.018375 -8.6895494 -71.748611 -17.635149 -99.732117
-8.6978455 -71.718605 -3.1174462 -0.94636559 -7.9841609 108.33464
-17.628901 -99.818588 -7.9698777 108.29552 -4.5016284 12.854423
1135825000 -4.3074546 7.4518485 -8.5503168 -76.097572 -17.775557 -101.54366
-8.5579166 -76.057098 -3.1764657 -5.5764251 -7.8370514 103.8726
-17.770742 -101.61797 -7.8236041 103.81775 -4.5115995 8.4238939
1168937500 -4.3036609 2.9112852 -8.4193287 -80.404991 -17.896177 -103.25033
-8.4264622 -80.364334 -3.2369063 -10.1622 -7.6980925 99.424149
-17.891459 -103.34262 -7.6872444 99.357086 -4.5203886 4.0068564
1202050000 -4.3016505 -1.6336797 -8.2950964 -84.701637 -17.998671 -104.95468
-8.3021183 -84.668121 -3.2979746 -14.714053 -7.5686135 94.997223
-17.993107 -105.05576 -7.5570588 94.91317 -4.5300498 -0.38813329
1235162500 -4.2980342 -6.1659741 -8.1732903 -88.97776 -18.077589 -106.63975
-8.1803122 -88.937401 -3.3581061 -19.216543 -7.4438863 90.572395
-18.072565 -106.72401 -7.4327908 90.494827 -4.5361834 -4.7923207
1268275000 -4.2969246 -10.672471 -8.0592318 -93.218857 -18.140038 -108.31624
-8.0662851 -93.183266 -3.4183016 -23.677418 -7.3305016 86.184166
-18.135643 -108.39242 -7.3165221 86.12043 -4.5436606 -9.1633415
1301387500 -4.3008547 -15.165202 -7.9496708 -97.461723 -18.180077 -109.99095
-7.9564867 -97.424629 -3.4776938 -28.11404 -7.2197237 81.815361
-18.176807 -110.07792 -7.2068458 81.73941 -4.5512214 -13.50259
1334500000 -4.304997 -19.648354 -7.84376 -101.679 -18.198338 -111.73759
-7.8502455 -101.6483 -3.5380785 -32.515026 -7.1169271 77.467491
-18.192808 -111.80757 -7.1054559 77.385925 -4.5603514 -17.837027
1367612500 -4.3119159 -24.11459 -7.742775 -105.88292 -18.1966 -113.58942
-7.7469707 -105.86092 -3.5984702 -36.885456 -7.0168223 73.131424
-18.193911 -113.63963 -7.0082726 73.047218 -4.5676775 -22.166901
1400725000 -4.3241739 -28.558529 -7.6465359 -110.08015 -18.176304 -115.53724
-7.6520085 -110.04572 -3.6618574 -41.210728 -6.9265084 68.829926
-18.178488 -115.61034 -6.9179335 68.734528 -4.5735478 -26.466328
1433837500 -4.3399806 -32.983971 -7.5541806 -114.24355 -18.149366 -117.57779
-7.5574598 -114.21975 -3.7239976 -45.507545 -6.841115 64.534935
-18.149551 -117.68193 -6.8317537 64.448532 -4.5829835 -30.748245
1466950000 -4.3602753 -37.385849 -7.4645424 -118.40919 -18.10895 -119.78193
-7.4676747 -118.39054 -3.7848477 -49.776306 -6.7598052 60.255245
-18.110491 -119.85955 -6.7506695 60.178394 -4.5939546 -34.999607
1500062500 -4.3836112 -41.769421 -7.3771653 -122.57577 -18.066292 -122.159
-7.3825197 -122.55392 -3.8461051 -53.998272 -6.6851869 55.993443
-18.068584 -122.2146 -6.6767759 55.921047 -4.6077123 -39.25156
1533175000 -4.4143581 -46.10318 -7.2958374 -126.71375 -18.027874 -124.63109
-7.3011107 -126.6852 -3.9073288 -58.190418 -6.6137614 51.778515
-18.031084 -124.69962 -6.6051507 51.698353 -4.6220131 -43.468643
1566287500 -4.4490218 -50.419277 -7.2143841 -130.85162 -17.987343 -127.2849
-7.217905 -130.83134 -3.9696169 -62.35038 -6.5433731 47.559769
-17.987309 -127.35696 -6.5372972 47.474236 -4.6366863 -47.66576
1599400000 -4.488903 -54.697941 -7.1361461 -134.96895 -17.955048 -130.09419
-7.1408925 -134.95787 -4.0308638 -66.473366 -6.4807167 43.359276
-17.954357 -130.15823 -6.472712 43.284252 -4.6565118 -51.852688
1632512500 -4.5347629 -58.921455 -7.0620356 -139.0798 -17.933043 -132.99341
-7.0672941 -139.06367 -4.0937414 -70.571014 -6.4210143 39.184341
-17.934162 -133.09039 -6.4110589 39.1022 -4.6777067 -56.004227
1665625000 -4.5862646 -63.109001 -6.9912744 -143.18187 -17.92576 -136.00595
-6.9975014 -143.17171 -4.1571636 -74.643028 -6.3641105 35.041718
-17.92415 -136.11644 -6.355319 34.960297 -4.7018094 -60.112183
1698737500 -4.642086 -67.253807 -6.9211969 -147.27213 -17.936802 -139.11528
-6.9268217 -147.2704 -4.2191362 -78.680855 -6.3088951 30.916992
-17.935186 -139.23048 -6.3003273 30.832434 -4.7297091 -64.204002
1731850000 -4.6999497 -71.331985 -6.854825 -151.36676 -17.964491 -142.36427
-6.8606319 -151.35741 -4.2829127 -82.685516 -6.2580209 26.807156
-17.962923 -142.47325 -6.2507839 26.715492 -4.7593188 -68.260521
1764962500 -4.7643604 -75.365784 -6.7912927 -155.45845 -18.015047 -145.67896
-6.7989397 -155.4348 -4.3477011 -86.660881 -6.2096472 22.708696
-18.010065 -145.81259 -6.2010002 22.614508 -4.7930322 -72.291298
1798075000 -4.8316612 -79.339729 -6.7308073 -159.52086 -18.080694 -149.02583
-6.7370229 -159.50136 -4.4119463 -90.617958 -6.1609778 18.643572
-18.080126 -149.16304 -6.1527472 18.54287 -4.8275423 -76.284302
1831187500 -4.9008484 -83.277367 -6.6703858 -163.58157 -18.167547 -152.43648
-6.6771607 -163.58148 -4.4776163 -94.551056 -6.1155581 14.584827
-18.166286 -152.56573 -6.1073828 14.495872 -4.8648243 -80.230492
1864300000 -4.9733725 -87.146591 -6.6153631 -167.63817 -18.28068 -155.89525
-6.6234231 -167.6326 -4.5442743 -98.468941 -6.0740147 10.555025
-18.280437 -155.99164 -6.066803 10.456003 -4.9052978 -84.140892
1897412500 -5.0485229 -90.962059 -6.5615702 -171.68529 -18.413771 -159.33124
-6.5700979 -171.66675 -4.6129241 -102.354 -6.0307941 6.5527334
-18.419935 -159.42303 -6.026547 6.4276552 -4.9469314 -88.023872
1930525000 -5.123847 -94.724251 -6.5094438 -175.72975 -18.56918 -162.7924
-6.5176988 -175.70523 -4.6816564 -106.21642 -5.9907556 2.5375443
-18.572254 -162.84641 -5.9872966 2.4116912 -4.9909897 -91.883034
1963637500 -5.1985264 -98.416573 -6.4599433 -179.76494 -18.752728 -166.22302
-6.4681334 -179.72948 -4.7523141 -110.06705 -5.9546814 -1.4630967
-18.749352 -166.26559 -5.948791 -1.5855367 -5.0358615 -95.688469
1996750000 -5.2747593 -102.06187 -6.4121046 176.21475 -18.951969 -169.61423
-6.4192281 176.25266 -4.8222609 -113.89922 -5.9166546 -5.4439192
-18.952438 -169.67012 -5.9116354 -5.5777016 -5.082921 -99.446945
2029862500 -5.354239 -105.65674 -6.3667092 172.19611 -19.178841 -172.94991
-6.3752928 172.24142 -4.8935938 -117.71943 -5.8803368 -9.414609
-19.178417 -172.99074 -5.8757696 -9.5619488 -5.1341739 -103.17473
2062975000 -5.4316316 -109.19994 -6.3223639 168.20537 -19.424622 -176.21257
-6.3295159 168.23419 -4.9664564 -121.52715 -5.8465538 -13.37455
-19.42334 -176.24826 -5.8423219 -13.509919 -5.1857786 -106.88358
2096087500 -5.5104599 -112.69067 -6.2814193 164.20598 -19.695789 -179.43352
-6.2868962 164.23868 -5.0427532 -125.31519 -5.8131328 -17.334757
-19.685938 -179.46831 -5.810843 -17.452118 -5.2375417 -110.5478
2129200000 -5.5878987 -116.12745 -6.2409315 160.21758 -19.984838 177.42612
-6.2466884 160.27278 -5.1187301 -129.08041 -5.7838292 -21.265146
-19.974436 177.37668 -5.7782321 -21.395428 -5.291522 -114.17857
2162312500 -5.6659579 -119.52987 -6.2018471 156.23433 -20.296808 174.40331
-6.2089963 156.30515 -5.1967392 -132.83888 -5.7530479 -25.192209
-20.290558 174.32408 -5.7453122 -25.319574 -5.3476558 -117.76544
2195425000 -5.7408304 -122.89063 -6.1640325 152.27042 -20.629616 171.48328
-6.1716313 152.32814 -5.2765942 -136.57214 -5.7251973 -29.121519
-20.621262 171.42584 -5.7159357 -29.217262 -5.4045377 -121.31655
2228537500 -5.8179789 -126.21589 -6.1267219 148.30591 -20.986225 168.69879
-6.1357694 148.36217 -5.3578887 -140.2995 -5.6956096 -33.014729
-20.975891 168.63416 -5.6866994 -33.114742 -5.4612985 -124.82392
2261650000 -5.8950458 -129.50172 -6.091609 144.35812 -21.363939 166.0459
-6.1015892 144.41351 -5.4406838 -144.01729 -5.6668768 -36.899899
-21.361065 165.94283 -5.6587224 -37.006596 -5.5193286 -128.31012
2294762500 -5.9704556 -132.73976 -6.0583792 140.41887 -21.76659 163.55058
-6.0691295 140.47942 -5.526547 -147.73212 -5.6399932 -40.783848
-21.760809 163.51814 -5.6303267 -40.87653 -5.5783253 -131.76567
2327875000 -6.0427408 -135.9447 -6.0270114 136.49559 -22.187849 161.2515
-6.0374241 136.55226 -5.6140819 -151.43745 -5.6135883 -44.647686
-22.191782 161.21577 -5.6035733 -44.738617 -5.6370859 -135.19608
2360987500 -6.1149096 -139.10898 -5.9984412 132.58759 -22.636562 159.12305
-6.0083861 132.64641 -5.702992 -155.12654 -5.5877156 -48.49577
-22.644014 159.08707 -5.5785918 -48.596962 -5.6952195 -138.57883
2394100000 -6.185586 -142.25491 -5.9682937 128.67215 -23.096382 157.2258
-5.9781971 128.73602 -5.7928963 -158.81427 -5.562902 -52.340977
-23.115097 157.22427 -5.5519772 -52.450291 -5.7562304 -141.94376
2427212500 -6.255897 -145.37714 -5.9404774 124.76731 -23.576292 155.62192
-5.9507871 124.82861 -5.8857098 -162.49748 -5.535471 -56.187119
-23.598726 155.58511 -5.5273476 -56.286072 -5.8160062 -145.28488
2460325000 -6.3253961 -148.45413 -5.9121375 120.88367 -24.071228 154.3848
-5.9221354 120.93235 -5.9808884 -166.17467 -5.5114083 -60.027576
-24.090954 154.30885 -5.5021243 -60.117146 -5.8775101 -148.59807
2493437500 -6.3940291 -151.50169 -5.8863983 117.00265 -24.585333 153.42441
-5.8957233 117.05891 -6.0802193 -169.87195 -5.4865346 -63.851101
-24.607811 153.2773 -5.4785194 -63.950611 -5.9372416 -151.88638
2526550000 -6.460875 -154.54141 -5.8612232 113.13167 -25.094944 152.84616
-5.8688226 113.18258 -6.1804233 -173.56725 -5.463244 -67.674294
-25.121611 152.69977 -5.4549966 -67.764938 -6.0000305 -155.15027
2559662500 -6.5272918 -157.55101 -5.8364892 109.26289 -25.601641 152.65088
-5.8441453 109.31219 -6.283905 -177.25383 -5.4400272 -71.494064
-25.636173 152.52222 -5.4306479 -71.58287 -6.062315 -158.3933
2592775000 -6.59338 -160.53224 -5.8116508 105.40602 -26.105919 152.88811
-5.818686 105.44765 -6.3886261 179.07245 -5.4173055 -75.295067
-26.134298 152.73567 -5.4084802 -75.388451 -6.125474 -161.60098
2625887500 -6.6609988 -163.49847 -5.7850289 101.54152 -26.576267 153.58476
-5.7929192 101.58245 -6.4987545 175.37622 -5.3951311 -79.109024
-26.591816 153.37939 -5.3851647 -79.195526 -6.1882257 -164.78949
2659000000 -6.7281294 -166.45819 -5.7584963 97.677658 -27.001762 154.72728
-5.7682652 97.720009 -6.6121731 171.69098 -5.3724546 -82.906151
-27.019619 154.55447 -5.3608479 -82.987656 -6.2521653 -167.95634
2692112500 -6.7946601 -169.3739 -5.734684 93.83419 -27.385292 156.32555
-5.7461071 93.874008 -6.727869 167.98206 -5.350431 -86.701744
-27.393557 156.0899 -5.3391304 -86.7882 -6.3164787 -171.08133
2725225000 -6.8609133 -172.26955 -5.7116361 89.993439 -27.715033 158.21672
-5.7241869 90.029602 -6.8493438 164.25975 -5.3297777 -90.493088
-27.714909 158.02554 -5.3177681 -90.577194 -6.3814468 -174.18448
2758337500 -6.9270287 -175.14703 -5.6881914 86.153763 -27.943235 160.34525
-5.7007303 86.193924 -6.9701357 160.53603 -5.3072515 -94.276573
-27.948635 160.17813 -5.2963719 -94.358368 -6.4469633 -177.26138
2791450000 -6.9922948 -178.01416 -5.6653447 82.314468 -28.089939 162.70398
-5.677855 82.358154 -7.0943899 156.82762 -5.2871089 -98.056915
-28.09716 162.62978 -5.2749343 -98.135338 -6.5129514 179.67918
2824562500 -7.0570445 179.15984 -5.6429105 78.489098 -28.152674 165.16432
-5.657618 78.539108 -7.2224264 153.09503 -5.2663774 -101.82221
-28.163465 165.04944 -5.2541828 -101.91125 -6.5795984 176.65082
2857675000 -7.1227198 176.37032 -5.6211147 74.659874 -28.135012 167.50162
-5.6359625 74.713905 -7.3575082 149.33438 -5.2447648 -105.60004
-28.133652 167.3837 -5.2353401 -105.68614 -6.6472549 173.65735
2890787500 -7.1871204 173.57101 -5.5998888 70.837463 -28.023109 169.79964
-5.6149259 70.894592 -7.4955387 145.56822 -5.2245026 -109.38473
-28.024506 169.64204 -5.2154131 -109.46298 -6.7159157 170.66104
2923900000 -7.2514076 170.80246 -5.5803413 67.023605 -27.83465 171.81285
-5.5945511 67.089165 -7.6339035 141.80463 -5.2042074 -113.1444
-27.836046 171.62686 -5.1949883 -113.23022 -6.7852468 167.70917
2957012500 -7.3138433 168.06299 -5.5604267 63.215302 -27.585711 173.57361
-5.5746517 63.284954 -7.7766304 137.99515 -5.1864023 -116.91045
-27.58214 173.3269 -5.1758752 -117.00301 -6.8548589 164.77975
2990125000 -7.3788605 165.34311 -5.5382686 59.414738 -27.265862 174.92441
-5.5529752 59.489666 -7.926136 134.17155 -5.1677318 -120.67133
-27.267532 174.70381 -5.1557803 -120.76433 -6.9268537 161.86099
3023237500 -7.4421601 162.65248 -5.5184531 55.602356 -26.912689 175.83121
-5.5316157 55.697052 -8.078599 130.34097 -5.1505704 -124.43076
-26.920048 175.66077 -5.1386909 -124.54086 -6.9990039 158.9765
3056350000 -7.506248 159.96086 -5.4983716 51.798611 -26.540037 176.34291
-5.512116 51.896423 -8.2372742 126.47341 -5.1328135 -128.18056
-26.546808 176.19984 -5.1206365 -128.31261 -7.0695 156.1082
3089462500 -7.5700126 157.30576 -5.4786019 48.001705 -26.161062 176.51276
-5.4933467 48.095623 -8.3953552 122.56506 -5.1171784 -131.94862
-26.157946 176.31331 -5.1019855 -132.08498 -7.1422706 153.28503
3122575000 -7.635653 154.66074 -5.4586239 44.204308 -25.766041 176.22224
-5.4738388 44.302723 -8.5612211 118.67458 -5.1009154 -135.71497
-25.763296 176.06303 -5.0851746 -135.85406 -7.2151756 150.47437
3155687500 -7.7003865 152.01251 -5.4393764 40.405209 -25.362162 175.74223
