! MARKI MICROWAVE INC.
! Email:             	support@markimicrowave.com   				Phone:   408-778-4200
! Model Number:      	BAL-0416SMG						Date:    10/14
! Filename:		BAL-0416.S3P						Version: 1.0
! Description:       	3-port S-parameter data for Balun BAL-0413SMG
! Frequency Range: 	10 MHz to 26.5 GHz		
! Port Configuration:	PORT 1: OUTPUT (0 DEGREE), PORT 2: COMMON, PORT 3: OUTPUT (180 DEGREE)


! S3P File: Measurements: Mag<S11> Ang<S11> Mag<S12> Ang<S12> Mag<S13> Ang<S13>! row 1 
!			  Mag<S21> Ang<S21> Mag<S22> Ang<S22> Mag<S23> Ang<S23>! row 2 
!			  Mag<S31> Ang<S31> Mag<S32> Ang<S32> Mag<S33> Ang<S33>! row 3 

# Hz S  dB   R 50
10000000 -7.7662964 173.79164 -47.593304 97.772163 -5.679749 -5.6015067
-46.920708 89.181854 -1.0181062 174.20262 -49.959538 -112.53182
-5.6599541 -4.3530011 -47.10004 -42.909447 -7.7052794 173.97578
43112500 -7.7861018 171.76517 -44.843735 94.366875 -5.6939874 -7.1988001
-44.291241 87.648941 -1.0310643 172.21083 -46.73912 -109.79947
-5.6752629 -6.2172751 -44.439129 -54.051201 -7.7236991 171.92229
76225000 -7.8084621 169.34044 -41.9235 90.520294 -5.7093687 -9.1434183
-41.487236 85.638268 -1.0453677 169.80595 -43.337631 -107.54221
-5.6911583 -8.4254513 -41.616325 -65.67765 -7.7407479 169.49281
109337500 -7.8350749 166.50772 -38.856606 86.250244 -5.7261119 -11.445648
-38.548386 83.226196 -1.0622864 167.00212 -39.798977 -105.71471
-5.7104988 -10.994378 -38.649937 -77.721176 -7.763402 166.666
142450000 -7.8626995 163.27298 -35.668015 81.556175 -5.7455797 -14.086416
-35.485352 80.31926 -1.0795332 163.79712 -36.136097 -104.34261
-5.7317662 -13.903822 -35.565121 -90.229454 -7.7901316 163.43883
175562500 -7.8931241 159.63954 -32.373047 76.453079 -5.7674942 -17.081604
-32.317364 77.016014 -1.1015033 160.19987 -32.364265 -103.35851
-5.7551398 -17.157999 -32.367359 -103.12883 -7.8169942 159.78078
208675000 -7.9225178 155.98643 -30.216059 72.218506 -5.7895989 -20.239651
-30.161451 72.301659 -1.1211085 156.57678 -30.296038 -107.27275
-5.77812 -20.272753 -30.246656 -107.52057 -7.8433294 156.14493
241787500 -7.9471493 152.35637 -28.59536 68.182129 -5.809411 -23.386175
-28.573856 68.344658 -1.1411402 152.93581 -28.684286 -111.43189
-5.7968893 -23.386721 -28.649551 -111.59511 -7.8700471 152.53397
274900000 -7.9665828 148.74342 -27.292498 64.304649 -5.8282914 -26.491621
-27.297541 64.412987 -1.1614244 149.30969 -27.378017 -115.44743
-5.8146181 -26.506895 -27.343458 -115.50496 -7.8934102 148.92932
308012500 -7.9843459 145.13347 -26.19359 60.509644 -5.8468885 -29.600449
-26.1933 60.573719 -1.1799992 145.70763 -26.273367 -119.22623
-5.8343887 -29.626728 -26.254086 -119.39971 -7.9140444 145.32498
341125000 -8.002965 141.54181 -25.236021 56.810871 -5.8647165 -32.723419
-25.244669 56.834621 -1.2006459 142.09956 -25.309679 -123.00287
-5.8517342 -32.738197 -25.312513 -123.14917 -7.9315391 141.74095
374237500 -8.0213852 137.93646 -24.391405 53.165112 -5.8843122 -35.845165
-24.409275 53.177849 -1.2212746 138.51096 -24.464664 -126.69792
-5.8708124 -35.858768 -24.464628 -126.79029 -7.9521174 138.14845
407350000 -8.0364676 134.3391 -23.635635 49.581165 -5.9043088 -38.945641
-23.64887 49.556034 -1.2422171 134.93398 -23.704693 -130.33876
-5.8903475 -38.95546 -23.701542 -130.38145 -7.9706264 134.55766
440462500 -8.0515842 130.75343 -22.946648 46.017975 -5.9236403 -42.054234
-22.958817 46.03368 -1.2643067 131.35405 -23.008703 -133.89565
-5.9105363 -42.056835 -23.002222 -133.90504 -7.9848647 130.95328
473575000 -8.0655003 127.16776 -22.305733 42.49205 -5.9441934 -45.151936
-22.321051 42.548874 -1.2824684 127.78246 -22.367395 -137.43855
-5.9297752 -45.15789 -22.361309 -137.40317 -8.000556 127.37281
506687500 -8.0801687 123.58069 -21.725887 39.009693 -5.9632401 -48.261745
-21.737486 39.075054 -1.3023989 124.22516 -21.772913 -140.98825
-5.949955 -48.254738 -21.776577 -140.90981 -8.0143766 123.78852
539800000 -8.0939274 119.98875 -21.183851 35.594177 -5.9840312 -51.343468
-21.195107 35.636845 -1.320504 120.67522 -21.22653 -144.47038
-5.9734731 -51.339382 -21.231678 -144.39006 -8.0291004 120.20405
572912500 -8.1074133 116.39829 -20.675858 32.161198 -6.004879 -54.437393
-20.686886 32.22316 -1.3405055 117.13067 -20.721546 -147.9043
-5.9948254 -54.42551 -20.71907 -147.86159 -8.0397701 116.61082
606025000 -8.1208916 112.82247 -20.199169 28.762115 -6.0282521 -57.524464
-20.213732 28.813267 -1.3592162 113.58321 -20.246344 -151.34288
-6.0183263 -57.513821 -20.237808 -151.27646 -8.0517693 113.04179
639137500 -8.1323919 109.23544 -19.755268 25.379541 -6.0512686 -60.599678
-19.766016 25.409679 -1.3750407 110.04585 -19.794361 -154.75143
-6.0428286 -60.606133 -19.780081 -154.69795 -8.062417 109.47208
672250000 -8.1415873 105.659 -19.331945 22.003487 -6.0749688 -63.687862
-19.341438 22.035383 -1.3919177 106.51503 -19.367968 -158.15123
-6.0680308 -63.684719 -19.353384 -158.13187 -8.073225 105.8927
705362500 -8.1511164 102.08347 -18.927851 18.623549 -6.0990481 -66.779419
-18.940544 18.646265 -1.4085114 102.97569 -18.956499 -161.55585
-6.0915985 -66.773735 -18.947206 -161.54547 -8.0814524 102.30889
738475000 -8.15872 98.501541 -18.54405 15.280474 -6.1230421 -69.861305
-18.557899 15.293806 -1.4254528 99.459099 -18.569574 -164.9527
-6.1153393 -69.864952 -18.559324 -164.94005 -8.0898466 98.735443
771587500 -8.1645985 94.918861 -18.186035 11.929345 -6.1479559 -72.946136
-18.198517 11.914648 -1.4442878 95.9244 -18.2031 -168.36487
-6.1419392 -72.954277 -18.192171 -168.36647 -8.0965319 95.178902
804700000 -8.1688728 91.337631 -17.840536 8.5870314 -6.1741023 -76.024391
-17.853336 8.559988 -1.4635026 92.40097 -17.855717 -171.72391
-6.1675787 -76.035706 -17.843048 -171.73907 -8.1059275 91.623909
837812500 -8.1752806 87.756691 -17.513866 5.2173986 -6.2009573 -79.118912
-17.524853 5.1935472 -1.481566 88.877022 -17.51936 -175.10365
-6.1949315 -79.126884 -17.508581 -175.14804 -8.1136036 88.036888
870925000 -8.1782494 84.170898 -17.200272 1.8843346 -6.2286582 -82.20639
-17.207443 1.8373166 -1.4971595 85.362206 -17.196447 -178.46907
-6.2226906 -82.219681 -17.185219 -178.54846 -8.1183834 84.460083
904037500 -8.1801119 80.599472 -16.896709 -1.4623429 -6.255466 -85.295868
-16.905016 -1.4638381 -1.5151633 81.854195 -16.889219 178.16061
-6.2495055 -85.287498 -16.873634 178.07463 -8.1224508 80.901268
937150000 -8.1831102 77.01355 -16.605305 -4.8007493 -6.2859793 -88.389633
-16.615461 -4.8138447 -1.5321649 78.348228 -16.594809 174.7838
-6.2798042 -88.380661 -16.577141 174.69991 -8.1309061 77.343864
970262500 -8.1847754 73.436424 -16.325558 -8.1412868 -6.3144612 -91.465569
-16.336586 -8.1384459 -1.5498033 74.844269 -16.309307 171.42169
-6.3082781 -91.477295 -16.29011 171.33269 -8.1369762 73.773079
1003375000 -8.1846895 69.867126 -16.057911 -11.475155 -6.3437858 -94.544792
-16.066128 -11.452933 -1.5663297 71.350685 -16.035374 168.06595
-6.3382182 -94.563591 -16.016088 167.95241 -8.139679 70.201225
1036487500 -8.1833181 66.307098 -15.798684 -14.808713 -6.374598 -97.633545
-15.807743 -14.77965 -1.5829738 67.858002 -15.770436 164.69571
-6.3692474 -97.644081 -15.75186 164.57245 -8.1404696 66.64817
1069600000 -8.1835432 62.7435 -15.549314 -18.1294 -6.406426 -100.72373
-15.557505 -18.085991 -1.5999045 64.390694 -15.517228 161.3452
-6.3999963 -100.73343 -15.497244 161.22025 -8.1445417 63.091572
1102712500 -8.1831665 59.181034 -15.306725 -21.464859 -6.4391575 -103.80557
-15.313417 -21.423386 -1.6136193 60.905582 -15.269585 157.9623
-6.4331045 -103.82174 -15.248138 157.83521 -8.1487179 59.52034
1135825000 -8.1790848 55.614017 -15.072945 -24.776001 -6.4706206 -106.89086
-15.077785 -24.732719 -1.6298646 57.445328 -15.028757 154.61237
-6.4642801 -106.9168 -15.008135 154.49178 -8.1462803 55.955322
1168937500 -8.1753359 52.075592 -14.846432 -28.090796 -6.5024514 -109.98183
-14.854041 -28.013332 -1.6468862 53.982571 -14.798645 151.25159
-6.498035 -109.99848 -14.777953 151.12737 -8.1442633 52.406322
1202050000 -8.1724558 48.522717 -14.630147 -31.380569 -6.5374312 -113.06456
-14.636599 -31.342083 -1.6642108 50.526405 -14.575686 147.90337
-6.5309563 -113.09518 -14.557149 147.78316 -8.1442451 48.864529
1235162500 -8.165761 44.974796 -14.420065 -34.689953 -6.5688009 -116.1498
-14.422652 -34.626534 -1.6804608 47.077229 -14.357498 144.55011
-6.5630312 -116.18316 -14.340267 144.42383 -8.140501 45.303684
1268275000 -8.1590042 41.425499 -14.216696 -37.980721 -6.6050973 -119.24393
-14.218657 -37.939648 -1.6972764 43.634026 -14.150013 141.19493
-6.599318 -119.27159 -14.132173 141.08699 -8.1368475 41.738644
1301387500 -8.1527233 37.877991 -14.019056 -41.283215 -6.6427202 -122.33227
-14.021827 -41.247528 -1.7125776 40.188686 -13.946458 137.84938
-6.6367283 -122.36311 -13.92727 137.73656 -8.1324749 38.199776
1334500000 -8.1479101 34.333073 -13.828465 -44.569397 -6.6813011 -125.41807
-13.829797 -44.536865 -1.7287771 36.745136 -13.749264 134.50163
-6.6746745 -125.4495 -13.731743 134.40369 -8.1316605 34.657715
1367612500 -8.1402836 30.790258 -13.643451 -47.86116 -6.7171412 -128.50288
-13.641291 -47.832535 -1.7441771 33.298496 -13.555644 131.15369
-6.7120519 -128.53291 -13.542489 131.05972 -8.1269102 31.113503
1400725000 -8.1298447 27.251223 -13.463685 -51.162769 -6.7562065 -131.5898
-13.463658 -51.118526 -1.7610565 29.858524 -13.369793 127.8125
-6.7513485 -131.62097 -13.358407 127.72085 -8.1203251 27.565306
1433837500 -8.1202135 23.723053 -13.289039 -54.442146 -6.796977 -134.67146
-13.289836 -54.404205 -1.7774502 26.439308 -13.193295 124.48021
-6.7920771 -134.7079 -13.178203 124.38929 -8.1136198 24.039629
1466950000 -8.1133575 20.17477 -13.11859 -57.728615 -6.8396115 -137.755
-13.119309 -57.713234 -1.7927179 23.020414 -13.017039 121.15044
-6.8339643 -137.8 -13.00542 121.06463 -8.1095839 20.522049
1500062500 -8.10215 16.623413 -12.952256 -61.052097 -6.8796859 -140.85199
-12.95475 -61.013206 -1.8074955 19.599756 -12.84622 117.80071
-6.8769765 -140.90627 -12.83488 117.7066 -8.1028395 16.987295
1533175000 -8.0938368 13.091132 -12.792447 -64.342842 -6.9232087 -143.94557
-12.796514 -64.295601 -1.8228586 16.185947 -12.682842 114.4696
-6.9216704 -143.99136 -12.671951 114.37589 -8.0942097 13.455424
1566287500 -8.0844421 9.576951 -12.635355 -67.632507 -6.9653926 -147.03572
-12.639552 -67.5793 -1.8367929 12.781009 -12.520287 111.13748
-6.9651794 -147.07954 -12.51148 111.0441 -8.0824099 9.9555054
1599400000 -8.0747089 6.0509844 -12.483975 -70.902245 -7.0103207 -150.13339
-12.488929 -70.859116 -1.8519253 9.4008141 -12.366239 107.80171
-7.0099392 -150.17532 -12.357467 107.72214 -8.0742064 6.4406128
1632512500 -8.0646667 2.5248771 -12.338158 -74.185997 -7.057045 -153.22203
-12.343657 -74.139488 -1.8661332 6.0226502 -12.217243 104.48449
-7.0560713 -153.26361 -12.206438 104.39489 -8.0645933 2.9283769
1665625000 -8.0538406 -0.98790854 -12.193956 -77.464439 -7.1042242 -156.30725
-12.201889 -77.423843 -1.8803903 2.6479459 -12.072538 101.16545
-7.1055632 -156.35313 -12.059467 101.07792 -8.0533762 -0.58691305
1698737500 -8.0437403 -4.4825697 -12.05612 -80.722908 -7.1518712 -159.40234
-12.064283 -80.698578 -1.8954287 -0.70500511 -11.930796 97.857117
-7.1537595 -159.4449 -11.916487 97.768745 -8.0395794 -4.079679
1731850000 -8.0320568 -7.9829946 -11.922681 -84.008385 -7.2004957 -162.49713
-11.930712 -83.980247 -1.9108319 -4.0794477 -11.792102 94.533829
-7.2038255 -162.52991 -11.781317 94.43573 -8.0283203 -7.5711126
1764962500 -8.017374 -11.473229 -11.793109 -87.293068 -7.2497692 -165.59386
-11.800686 -87.258949 -1.9251437 -7.4305329 -11.659316 91.213928
-7.2526231 -165.6259 -11.644262 91.116798 -8.0145407 -11.059351
1798075000 -8.0019531 -14.937909 -11.668674 -90.547371 -7.3010416 -168.67992
-11.675043 -90.520134 -1.9416806 -10.768963 -11.529687 87.917236
-7.3030124 -168.71025 -11.514914 87.816734 -8.0001926 -14.541847
1831187500 -7.9865274 -18.406969 -11.545054 -93.793396 -7.3534393 -171.76549
-11.552329 -93.789146 -1.9572539 -14.082878 -11.401983 84.621574
-7.3543768 -171.79675 -11.387283 84.538795 -7.98561 -17.992323
1864300000 -7.9720531 -21.889595 -11.425865 -97.058578 -7.4063177 -174.84799
-11.436049 -97.059792 -1.9729892 -17.407734 -11.278915 81.315536
-7.4094729 -174.8936 -11.265381 81.21698 -7.9739261 -21.44595
1897412500 -7.9569588 -25.349043 -11.310914 -100.31712 -7.4582095 -177.93517
-11.32119 -100.30807 -1.9890858 -20.723667 -11.156703 78.034271
-7.4643283 -177.99045 -11.144856 77.914467 -7.9615321 -24.894787
1930525000 -7.9392715 -28.800272 -11.196495 -103.58218 -7.5090351 178.96703
-11.20612 -103.56749 -2.0046165 -24.036327 -11.037173 74.73159
-7.518188 178.91136 -11.026834 74.610207 -7.9450865 -28.344988
1963637500 -7.9208112 -32.244507 -11.087817 -106.84468 -7.5647135 175.86911
-11.095083 -106.82242 -2.0194776 -27.336887 -10.92273 71.432213
-7.5707512 175.81418 -10.911472 71.30629 -7.9287982 -31.775488
1996750000 -7.9036956 -35.681744 -10.97994 -110.10731 -7.6212969 172.78052
-10.986559 -110.06055 -2.0338881 -30.623926 -10.811465 68.144447
-7.6277771 172.72476 -10.800702 68.004562 -7.9133787 -35.196884
2029862500 -7.8866816 -39.101208 -10.874255 -113.35953 -7.6775575 169.68529
-10.88011 -113.30952 -2.0475316 -33.891258 -10.702594 64.864479
-7.6826386 169.63409 -10.690005 64.721581 -7.898726 -38.599926
2062975000 -7.8704524 -42.511097 -10.770666 -116.58555 -7.7363939 166.59734
-10.777316 -116.55223 -2.0620923 -37.147556 -10.596807 61.588417
-7.741529 166.54279 -10.586392 61.450714 -7.8850665 -42.013363
2096087500 -7.8549857 -45.924221 -10.669121 -119.82779 -7.7967849 163.50546
-10.675126 -119.78448 -2.0741959 -40.395126 -10.491946 58.309559
-7.8004088 163.45834 -10.48242 58.176601 -7.8691578 -45.409702
2129200000 -7.8360658 -49.313534 -10.571822 -123.07858 -7.8559961 160.41196
-10.578084 -123.01675 -2.0900953 -43.640347 -10.393459 55.026054
-7.8597045 160.3604 -10.380807 54.885605 -7.8528824 -48.795288
2162312500 -7.818244 -52.699509 -10.478197 -126.30746 -7.9171257 157.32063
-10.481965 -126.24029 -2.1052895 -46.872326 -10.296881 51.769753
-7.9179277 157.27289 -10.282269 51.630116 -7.8360934 -52.166412
2195425000 -7.7993402 -56.074944 -10.38496 -129.54015 -7.9787745 154.23326
-10.388089 -129.47714 -2.1207168 -50.093021 -10.203233 48.499981
-7.977356 154.1936 -10.187747 48.371395 -7.8179193 -55.523148
2228537500 -7.7810955 -59.435062 -10.293689 -132.75613 -8.0422983 151.13635
-10.298029 -132.70038 -2.1350865 -53.291771 -10.110373 45.241665
-8.0377617 151.10068 -10.093778 45.118046 -7.8000841 -58.873501
2261650000 -7.7658033 -62.784904 -10.205332 -135.97264 -8.1052742 148.04794
-10.212072 -135.90822 -2.1500206 -56.478939 -10.019778 41.993839
-8.102725 148.01714 -10.004442 41.866856 -7.7829137 -62.192898
2294762500 -7.7477765 -66.145287 -10.120414 -139.17931 -8.1694365 144.95123
-10.127073 -139.12968 -2.1663139 -59.651772 -9.9318857 38.74688
-8.1648569 144.91849 -9.9154387 38.628338 -7.7665315 -65.50592
2327875000 -7.730865 -69.485313 -10.03708 -142.37701 -8.2354202 141.87202
-10.045917 -142.33876 -2.1834991 -62.823029 -9.8456526 35.506294
-8.230341 141.81714 -9.829833 35.388504 -7.7492313 -68.82048
2360987500 -7.713305 -72.802666 -9.957531 -145.58476 -8.2991714 138.79083
-9.9674759 -145.53786 -2.2015707 -65.995842 -9.7618198 32.264412
-8.2953701 138.73233 -9.7474623 32.142681 -7.7295399 -72.11586
2394100000 -7.6972079 -76.111725 -9.8789434 -148.77852 -8.3627234 135.68924
-9.8909998 -148.73438 -2.2189543 -69.154366 -9.6809502 29.018042
-8.3618574 135.64116 -9.6660118 28.917904 -7.711606 -75.395027
2427212500 -7.682663 -79.441902 -9.8027573 -151.97173 -8.4296131 132.59641
-9.8138227 -151.93329 -2.2346878 -72.29776 -9.5992718 25.798666
-8.428606 132.54097 -9.5888538 25.693239 -7.6955004 -78.670319
2460325000 -7.6650372 -82.740227 -9.7269278 -155.14809 -8.4979076 129.50072
-9.739255 -155.12029 -2.2502754 -75.416107 -9.5222225 22.571865
-8.4974184 129.44809 -9.5106096 22.483028 -7.6801853 -81.953583
2493437500 -7.6491208 -86.021965 -9.6547709 -158.3316 -8.565443 126.41853
-9.6687517 -158.30898 -2.2668312 -78.538239 -9.4463139 19.348125
-8.5663633 126.3577 -9.4353828 19.265205 -7.6629748 -85.208412
2526550000 -7.6334176 -89.310165 -9.5856047 -161.51225 -8.6341372 123.33889
-9.5989418 -161.49167 -2.2862561 -81.644676 -9.374177 16.147482
-8.6363935 123.26092 -9.3634644 16.0627 -7.6471133 -88.445343
2559662500 -7.6166849 -92.58474 -9.5160522 -164.68784 -8.7050848 120.25078
-9.529644 -164.67635 -2.3053963 -84.750114 -9.3032064 12.94161
-8.7049522 120.16453 -9.291604 12.857303 -7.6317701 -91.691818
2592775000 -7.6008215 -95.83313 -9.4488077 -167.85739 -8.7754478 117.16905
-9.4621296 -167.85445 -2.3222249 -87.846359 -9.2333565 9.7477474
-8.7758389 117.08099 -9.2230663 9.6713896 -7.616364 -94.920074
2625887500 -7.5864391 -99.077232 -9.3812265 -171.0251 -8.8460646 114.08536
-9.394454 -171.01591 -2.3375082 -90.919113 -9.1641569 6.5635509
-8.8471737 113.9998 -9.1538143 6.4913268 -7.600193 -98.131737
2659000000 -7.5714769 -102.32674 -9.3150587 -174.18088 -8.9162292 110.97598
-9.3280296 -174.17249 -2.3551035 -93.963295 -9.0958414 3.3884602
-8.9174604 110.89529 -9.0851889 3.3231909 -7.5835619 -101.33583
2692112500 -7.5579929 -105.57265 -9.251832 -177.33192 -8.9900246 107.88815
-9.2634573 -177.33113 -2.3731608 -97.003807 -9.0285864 0.22415489
-8.9909744 107.79324 -9.018672 0.14276852 -7.568006 -104.53818
2725225000 -7.544138 -108.77673 -9.1906376 179.52129 -9.0631847 104.7981
-9.2033758 179.51268 -2.3931999 -100.05463 -8.9663658 -2.9532514
-9.0652685 104.70987 -8.9551077 -3.0220675 -7.5536733 -107.72547
2758337500 -7.5326147 -111.98223 -9.1282701 176.3674 -9.1371908 101.69865
-9.1417103 176.37599 -2.4119804 -103.08617 -8.9023352 -6.1064625
-9.1391735 101.61829 -8.8916378 -6.1841497 -7.5376225 -110.89888
2791450000 -7.5195527 -115.18687 -9.0668325 173.21494 -9.2129421 98.586494
-9.0808496 173.24632 -2.4317212 -106.11182 -8.8402214 -9.2631655
-9.2130909 98.521767 -8.8293428 -9.3468866 -7.5226955 -114.07566
2824562500 -7.5088582 -118.38484 -9.0080748 170.07529 -9.2888346 95.481926
-9.0243568 170.11501 -2.4503407 -109.11604 -8.7794199 -12.403759
-9.2905598 95.41732 -8.7691212 -12.504463 -7.50841 -117.23461
2857675000 -7.4966741 -121.56177 -8.9502754 166.94212 -9.3669147 92.378662
-8.9657669 166.99832 -2.4681618 -112.11194 -8.7177811 -15.538204
-9.3686399 92.324341 -8.708312 -15.63481 -7.4968362 -120.37333
2890787500 -7.4873157 -124.73225 -8.8928642 163.81767 -9.4429007 89.267693
-8.9085865 163.88011 -2.4897554 -115.09821 -8.6574564 -18.683214
-9.4451818 89.224373 -8.6482954 -18.776543 -7.48276 -123.51944
2923900000 -7.4767623 -127.91013 -8.8384647 160.70393 -9.5211687 86.142731
-8.8526316 160.77208 -2.5119801 -118.07001 -8.5986919 -21.815439
-9.5228014 86.104874 -8.5900002 -21.909079 -7.4686484 -126.65736
2957012500 -7.4667912 -131.07312 -8.7856674 157.56761 -9.6025066 83.036827
-8.7996082 157.64777 -2.5321949 -121.05663 -8.5447636 -24.950172
-9.6034966 83.006905 -8.5347729 -25.053703 -7.458252 -129.77957
2990125000 -7.4550772 -134.21306 -8.7325001 154.46077 -9.6826038 79.928802
-8.7475271 154.54738 -2.5523698 -124.02066 -8.492404 -28.063198
-9.6816301 79.901123 -8.481081 -28.170797 -7.4483066 -132.89325
3023237500 -7.4472938 -137.3476 -8.6784544 151.34839 -9.7643261 76.806915
-8.6940575 151.45482 -2.5726197 -126.96232 -8.4369068 -31.183018
-9.7633619 76.782928 -8.4245853 -31.3001 -7.4372993 -136.01392
3056350000 -7.438024 -140.47424 -8.6273203 148.2527 -9.8454609 73.688637
-8.6424494 148.35507 -2.5949588 -129.90131 -8.3829041 -34.285942
-9.8438578 73.660896 -8.3712807 -34.410164 -7.4263349 -139.11613
3089462500 -7.4305687 -143.58936 -8.5755653 145.15451 -9.9287186 70.573318
-8.5897856 145.2524 -2.6152899 -132.83508 -8.329072 -37.395851
-9.9260321 70.537628 -8.3172827 -37.519642 -7.416482 -142.20384
3122575000 -7.4222083 -146.6898 -8.5240488 142.0611 -10.012489 67.456863
-8.5369616 142.16248 -2.6373358 -135.77525 -8.2771254 -40.498943
-10.006879 67.421883 -8.2643766 -40.624348 -7.4087324 -145.2832
3155687500 -7.4179125 -149.80655 -8.4731102 138.9687 -10.092996 64.321602
