! MARKI MICROWAVE INC.
! Email:             	info@markimicrowave.com   				Phone:   408-778-4200
! Model Number:      	BAL-0036						Date:    02/14
! Filename:		BAL-0036.S3P						Version: 1.0
! Description:       	3-port S-parameter data for Balun BAL-0036
! Frequency Range: 	10 MHz to 36 GHz		
! Port Configuration:	PORT 1: OUTPUT (0 DEGREE), PORT 2: OUTPUT (180 DEGREE), PORT 3: COMMON


! S3P File: Measurements: Mag<S11> Ang<S11> Mag<S12> Ang<S12> Mag<S13> Ang<S13>! row 1 
!			  Mag<S21> Ang<S21> Mag<S22> Ang<S22> Mag<S23> Ang<S23>! row 2 
!			  Mag<S31> Ang<S31> Mag<S32> Ang<S32> Mag<S33> Ang<S33>! row 3 
# Hz S  dB   R 50
10000000 -27.143744 46.750549 -9.6641798 162.22462 -5.3350487 -12.905145
-9.6915054 161.98598 -18.966919 155.76335 -6.096056 168.83557
-5.354835 -12.999475 -6.1116982 168.77008 -13.717839 174.76953
59987500 -25.420399 41.776878 -9.7712584 154.03754 -5.3790412 -18.132294
-9.7980614 153.83965 -19.262045 154.30995 -6.103332 163.67056
-5.3977199 -18.236591 -6.1128254 163.60504 -13.436836 174.44449
109975000 -23.56324 35.365841 -9.9142456 144.30272 -5.4318471 -24.370035
-9.9429579 144.14526 -19.653749 152.86548 -6.1100106 157.44711
-5.4500217 -24.47875 -6.1140018 157.37994 -13.093526 173.53117
159962500 -21.609745 27.544792 -10.101203 133.03474 -5.4910536 -31.595226
-10.130284 132.91386 -20.08642 151.88211 -6.1185651 150.16293
-5.5089951 -31.713692 -6.117137 150.09222 -12.691444 171.92886
209950000 -19.576557 18.311617 -10.337528 120.27621 -5.5560622 -39.79211
-10.365736 120.19962 -20.496462 151.41843 -6.1319504 141.82883
-5.5727382 -39.918941 -6.1234498 141.75172 -12.24132 169.5668
259937500 -17.483742 7.7173548 -10.62457 106.06935 -5.6237803 -48.96069
-10.652094 106.02499 -20.835415 151.18912 -6.1511512 132.44867
-5.6395659 -49.100315 -6.1373019 132.36945 -11.750528 166.38152
309925000 -15.869136 -4.2219639 -10.930017 92.308411 -5.6748142 -58.040462
-10.956082 92.25325 -21.171526 149.45331 -6.1401191 123.14334
-5.6903958 -58.177464 -6.125268 123.07111 -11.276115 161.62204
359912500 -14.733989 -16.65033 -11.283886 78.697174 -5.721921 -67.04512
-11.309029 78.642059 -21.306589 148.71533 -6.1445761 113.76595
-5.7380672 -67.168709 -6.1322622 113.71138 -10.816386 156.10985
409900000 -13.877276 -29.012663 -11.684892 65.333015 -5.762156 -75.971031
-11.708629 65.257599 -21.239077 148.24017 -6.1704836 104.40462
-5.777669 -76.10112 -6.1565957 104.3427 -10.395611 149.84557
459887500 -13.229645 -41.2738 -12.123823 52.23587 -5.790504 -84.831917
-12.146488 52.163551 -20.965458 147.4949 -6.2083297 95.102676
-5.8072033 -84.972046 -6.1959658 95.037697 -10.036319 143.01015
509875000 -12.740081 -53.267651 -12.594049 39.460201 -5.8067842 -93.675446
-12.617217 39.381874 -20.479635 146.12355 -6.259274 85.866699
-5.8231945 -93.820045 -6.2474394 85.797943 -9.7470007 135.69284
559862500 -12.383924 -65.018517 -13.085342 26.959406 -5.8094549 -102.50304
-13.106611 26.877007 -19.830336 143.90558 -6.3160501 76.731369
-5.8268075 -102.65457 -6.304687 76.653366 -9.5256834 128.07236
609850000 -12.124435 -76.446655 -13.588957 14.753682 -5.8022461 -111.34145
-13.611822 14.666298 -19.092655 140.29811 -6.3752937 67.695084
-5.8170605 -111.49261 -6.362298 67.613823 -9.3739996 120.16492
659837500 -11.954785 -87.580139 -14.100743 2.799161 -5.7839322 -120.21628
-14.125616 2.7052021 -18.332096 135.21341 -6.4340467 58.752701
-5.7983246 -120.37917 -6.4188385 58.668995 -9.2831278 112.09036
709825000 -11.854401 -98.392075 -14.621585 -8.922802 -5.7577481 -129.1344
-14.647591 -9.0104971 -17.608595 128.92538 -6.4857202 49.91
-5.7721577 -129.30786 -6.4694557 49.804291 -9.2564154 103.87891
759812500 -11.816563 -108.80842 -15.144903 -20.419779 -5.7248473 -138.09904
-15.172926 -20.496317 -16.987301 121.79517 -6.5272679 41.141479
-5.740459 -138.27534 -6.5130682 41.025738 -9.2824984 95.508247
809800000 -11.82855 -118.94258 -15.669683 -31.733503 -5.6886592 -147.12112
-15.69746 -31.815062 -16.470167 114.0056 -6.5601873 32.414799
-5.7047944 -147.29736 -6.5453568 32.302814 -9.3625784 87.078194
859787500 -11.877234 -128.7002 -16.192192 -42.886448 -5.6503735 -156.18086
-16.220373 -42.958328 -16.034851 105.75459 -6.5788488 23.742964
-5.666903 -156.37195 -6.5655661 23.618345 -9.4979658 78.500023
909775000 -11.969046 -138.17271 -16.714985 -53.903149 -5.6120753 -165.28947
-16.740383 -53.988182 -15.670691 97.340195 -6.5863194 15.094048
-5.6285858 -165.49242 -6.5731869 14.952724 -9.6716967 69.842644
959762500 -12.08136 -147.34789 -17.235216 -64.829895 -5.5744953 -174.44252
-17.262112 -64.916824 -15.384124 88.815125 -6.5805855 6.4466515
-5.5906467 -174.65262 -6.5666623 6.2955632 -9.8981209 61.115948
1009750000 -12.219626 -156.19353 -17.764277 -75.675858 -5.5385857 176.36028
-17.789745 -75.758324 -15.150505 80.138733 -6.5633392 -2.2235692
-5.5521121 176.14053 -6.5464334 -2.373771 -10.16387 52.214214
1059737500 -12.37505 -164.82646 -18.297441 -86.462967 -5.5045629 167.12683
-18.318529 -86.546791 -14.949238 71.463745 -6.535872 -10.916134
-5.51791 166.89168 -6.5185609 -11.078473 -10.473831 43.271862
1109725000 -12.542825 -173.12865 -18.839331 -97.184799 -5.4732327 157.86641
-18.85989 -97.259453 -14.789027 62.836189 -6.4956341 -19.643412
-5.4868302 157.61884 -6.4817429 -19.822256 -10.830688 34.133129
1159712500 -12.720213 178.74867 -19.392731 -107.85861 -5.4446406 148.57335
-19.412954 -107.93925 -14.662379 54.213673 -6.4490757 -28.428925
-5.4575706 148.32179 -6.4365106 -28.597765 -11.222939 24.878214
1209700000 -12.892494 170.85217 -19.96356 -118.49599 -5.4195886 139.26323
-19.983913 -118.58549 -14.551039 45.610332 -6.3969045 -37.256935
-5.4319305 138.99585 -6.3843226 -37.43964 -11.666173 15.451962
1259687500 -13.069461 163.16745 -20.55525 -129.04753 -5.3973813 129.93581
-20.571972 -129.14746 -14.457575 37.134171 -6.3396578 -46.137161
-5.4103775 129.65184 -6.3275733 -46.333965 -12.145809 5.7701612
1309675000 -13.238227 155.62753 -21.173189 -139.54543 -5.3787384 120.57828
-21.195116 -139.68195 -14.393462 28.708559 -6.2797318 -55.07901
-5.3926401 120.30058 -6.2672625 -55.272324 -12.667459 -4.111002
1359662500 -13.399257 148.29588 -21.828356 -149.9816 -5.3641496 111.21438
-21.854345 -150.1122 -14.347703 20.29435 -6.2184453 -64.086159
-5.3779788 110.94275 -6.2056236 -64.263222 -13.240371 -14.301161
1409650000 -13.554497 141.02525 -22.52203 -160.31432 -5.3530984 101.84479
-22.550087 -160.42941 -14.305128 11.950708 -6.1568713 -73.137566
-5.3669243 101.57578 -6.144093 -73.30748 -13.842573 -24.791796
1459637500 -13.690579 133.88245 -23.26281 -170.4716 -5.345706 92.46907
-23.287682 -170.55484 -14.282619 3.7103171 -6.0956831 -82.236946
-5.3600483 92.202362 -6.0850043 -82.404861 -14.483681 -35.64386
1509625000 -13.822877 126.80965 -24.050493 179.53513 -5.3414464 83.08934
-24.079216 179.48169 -14.277073 -4.5109286 -6.0351548 -91.387863
-5.3573465 82.826477 -6.0256743 -91.538406 -15.152886 -46.927795
1559612500 -13.938789 119.74275 -24.893969 169.80408 -5.341588 73.708084
-24.920843 169.78329 -14.274663 -12.690614 -5.9787383 -100.57985
-5.3578148 73.459999 -5.9691296 -100.71021 -15.839923 -58.638123
1609600000 -14.046357 112.74825 -25.794493 160.5621 -5.3463087 64.338203
-25.833616 160.54961 -14.273852 -20.742748 -5.9254375 -109.80408
-5.362978 64.096588 -5.9148488 -109.92627 -16.529419 -70.881126
1659587500 -14.149083 105.69285 -26.774794 151.80283 -5.354517 54.976349
-26.799492 151.74052 -14.283301 -28.726734 -5.8754754 -119.05725
-5.3719702 54.745346 -5.8653193 -119.1666 -17.202713 -83.636589
1709575000 -14.243713 98.628792 -27.81576 143.74902 -5.3650694 45.628277
-27.820608 143.6638 -14.291852 -36.671097 -5.8288431 -128.33272
-5.3840032 45.411041 -5.8191018 -128.42755 -17.838009 -96.863846
1759562500 -14.337801 91.484871 -28.886189 136.54878 -5.3781924 36.305561
-28.898087 136.48276 -14.290092 -44.489742 -5.7866054 -137.6246
-5.3972592 36.085762 -5.7783256 -137.71831 -18.412346 -110.48394
1809550000 -14.424348 84.260284 -30.01437 130.52704 -5.3922062 26.993855
-29.985149 130.4232 -14.288745 -52.195992 -5.7466202 -146.91945
-5.4132366 26.772005 -5.7406249 -147.02646 -18.905638 -124.45826
1859537500 -14.511253 77.013557 -31.106625 125.87947 -5.407917 17.698961
-31.068903 125.63779 -14.286287 -59.821243 -5.7108068 -156.23143
-5.4308162 17.471727 -5.706049 -156.34688 -19.311483 -138.67598
1909525000 -14.602233 69.620834 -32.103531 122.40788 -5.4248657 8.4214821
-32.087265 122.22061 -14.266468 -67.335213 -5.678503 -165.55095
-5.4497795 8.1951313 -5.6741247 -165.67459 -19.618717 -152.96262
1959512500 -14.691531 62.154293 -32.936081 120.39095 -5.4438534 -0.83682847
-32.92852 120.21108 -14.241315 -74.659149 -5.650743 -174.86423
-5.4685326 -1.070154 -5.6460543 -175.00568 -19.807007 -167.18533
2009500000 -14.78684 54.587208 -33.589424 119.02277 -5.4626307 -10.076887
-33.579029 118.79792 -14.212588 -81.905869 -5.625061 175.81622
-5.4875569 -10.326776 -5.6209292 175.65909 -19.893692 178.7982
2059487500 -14.884184 46.952976 -34.01123 118.07761 -5.4802685 -19.301325
-33.97945 117.84158 -14.172691 -89.078918 -5.6028247 166.49966
-5.5074162 -19.556383 -5.5992289 166.32729 -19.878695 165.13399
2109475000 -14.985889 39.214958 -34.180782 117.43158 -5.498322 -28.512344
-34.162483 117.26359 -14.122983 -96.108017 -5.583847 157.18571
-5.5270395 -28.779638 -5.5795689 156.99202 -19.781702 151.97118
2159462500 -15.088588 31.423113 -34.140984 116.45691 -5.5167422 -37.70681
-34.149139 116.3111 -14.072007 -103.05759 -5.5665536 147.87596
-5.5446959 -37.995991 -5.5622988 147.65704 -19.615114 139.32118
2209450000 -15.199531 23.569212 -33.879551 115.02299 -5.5338898 -46.896667
-33.887722 114.87502 -14.015381 -109.9493 -5.5515523 138.57018
-5.5627413 -47.197449 -5.5451512 138.33043 -19.402599 127.19355
2259437500 -15.310189 15.633737 -33.415668 112.59969 -5.5515275 -56.076992
-33.45039 112.50954 -13.947695 -116.79822 -5.5389948 129.25949
-5.5797439 -56.391228 -5.5314355 129.00296 -19.159952 115.64785
2309425000 -15.42879 7.6706891 -32.813606 108.85416 -5.5684276 -65.248924
-32.864296 108.88609 -13.873769 -123.581 -5.5270772 119.9565
-5.596231 -65.570244 -5.5206914 119.6897 -18.898052 104.63824
2359412500 -15.550739 -0.36040354 -32.14423 103.9302 -5.5845184 -74.407402
-32.181206 103.87742 -13.803779 -130.36778 -5.5168982 110.65664
-5.6120543 -74.753044 -5.5111871 110.37566 -18.625816 94.132462
2409400000 -15.673883 -8.376811 -31.481825 97.55162 -5.5981293 -83.563492
-31.507853 97.469864 -13.723612 -137.19826 -5.5078769 101.35825
-5.6282778 -83.918243 -5.5031834 101.05908 -18.364872 84.054115
2459387500 -15.802088 -16.426485 -30.836931 90.374275 -5.6120934 -92.713974
-30.870832 90.270111 -13.639623 -143.9857 -5.4993739 92.064087
-5.6426716 -93.077087 -5.4958844 91.752159 -18.113214 74.3311
2509375000 -15.923996 -24.517843 -30.270695 82.388687 -5.6254621 -101.86507
-30.314653 82.203415 -13.559157 -150.79059 -5.4925218 82.777649
-5.6548667 -102.24232 -5.4899421 82.452385 -17.877312 64.900459
2559362500 -16.052204 -32.548702 -29.775599 73.667915 -5.6384754 -111.01299
-29.816566 73.471252 -13.474115 -157.65649 -5.4871812 73.485535
-5.6660066 -111.3967 -5.4840584 73.16008 -17.657644 55.717358
2609350000 -16.178772 -40.660385 -29.326765 64.54718 -5.6503987 -120.15585
-29.36577 64.322716 -13.381021 -164.51801 -5.482471 64.200188
-5.6777382 -120.55737 -5.4777036 63.859932 -17.466906 46.668499
2659337500 -16.297014 -48.683514 -28.981218 55.013351 -5.6615167 -129.30312
-29.001308 54.809044 -13.293077 -171.3622 -5.4778738 54.914845
-5.6873622 -129.71021 -5.4746318 54.561985 -17.288099 37.76218
2709325000 -16.422527 -56.721592 -28.664192 45.299763 -5.6718712 -138.44867
-28.706646 45.057217 -13.213341 -178.22725 -5.4735179 45.631519
-5.6973929 -138.86862 -5.4708157 45.270927 -17.142292 28.923878
2759312500 -16.52627 -64.744034 -28.42141 35.474983 -5.6802955 -147.59363
-28.44981 35.246429 -13.134498 174.87611 -5.4706616 36.35577
-5.7065864 -148.02985 -5.4661489 35.981228 -17.006584 20.071827
2809300000 -16.628061 -72.665207 -28.226873 25.578192 -5.6884627 -156.74866
-28.265305 25.367378 -13.059509 168.03897 -5.4674287 27.069269
-5.7151351 -157.18394 -5.4629989 26.695133 -16.910278 11.24073
2859287500 -16.714626 -80.618057 -28.08823 15.490866 -5.6964726 -165.89731
-28.129946 15.273868 -13.001459 161.23103 -5.4625435 17.788349
-5.7223735 -166.34296 -5.4596248 17.414904 -16.839537 2.2431374
2909275000 -16.790518 -88.401398 -27.997356 5.3975267 -5.703897 -175.0526
-28.03203 5.1989741 -12.953417 154.38789 -5.4602494 8.5070295
-5.7292252 -175.49789 -5.4565763 8.1330338 -16.788004 -6.7508869
2959262500 -16.866161 -96.176788 -27.947407 -4.6892266 -5.7109017 175.79704
-27.981691 -4.8285875 -12.906266 147.5612 -5.457006 -0.77973723
-5.7363968 175.33922 -5.4538207 -1.1550714 -16.787085 -15.872677
3009250000 -16.910965 -103.84489 -27.945305 -14.821941 -5.7156153 166.63882
-27.978823 -14.964189 -12.874112 140.80769 -5.4536939 -10.058766
-5.74191 166.17328 -5.4501891 -10.441 -16.793461 -25.177408
3059237500 -16.956446 -111.38052 -27.968365 -24.920418 -5.7192621 157.47679
-28.003181 -25.033192 -12.862285 134.06143 -5.4502177 -19.344902
-5.745975 157.01155 -5.4484229 -19.720947 -16.844193 -34.458317
3109225000 -16.974728 -118.94353 -28.033804 -34.812641 -5.7238827 148.31209
-28.072298 -34.953518 -12.85909 127.25713 -5.4469757 -28.640087
-5.7504807 147.84007 -5.4450727 -29.007462 -16.930731 -44.012501
3159212500 -16.985958 -126.28683 -28.143597 -44.758396 -5.7278833 139.14775
-28.165346 -44.90852 -12.853153 120.48861 -5.4452076 -37.932953
-5.7533584 138.6709 -5.4414606 -38.296337 -17.036676 -53.602028
3209200000 -16.996735 -133.64307 -28.283781 -54.616898 -5.7327719 129.97935
-28.295576 -54.780739 -12.865965 113.78229 -5.4431801 -47.229538
-5.7565012 129.49747 -5.4395027 -47.597355 -17.203548 -63.414818
3259187500 -16.977161 -140.85724 -28.45104 -64.305878 -5.7380791 120.81394
-28.437397 -64.507439 -12.888232 107.02766 -5.4422193 -56.521107
-5.7599211 120.32949 -5.4380736 -56.894909 -17.381128 -73.424141
3309175000 -16.970608 -147.97517 -28.651052 -73.81041 -5.7425895 111.63559
-28.62764 -74.006271 -12.90567 100.23503 -5.4429941 -65.824913
-5.7634602 111.15304 -5.4367595 -66.20182 -17.61138 -83.445229
3359162500 -16.936874 -155.16856 -28.875269 -83.153221 -5.7465715 102.45518
-28.842062 -83.336395 -12.921899 93.515381 -5.443646 -75.133781
-5.7672648 101.96419 -5.4369273 -75.510078 -17.874405 -93.833481
3409150000 -16.895727 -162.16408 -29.109329 -92.365425 -5.7514281 93.265656
-29.077581 -92.529419 -12.949943 86.823959 -5.4456306 -84.441208
-5.7713614 92.786301 -5.4367266 -84.820137 -18.154089 -104.31567
3459137500 -16.858206 -169.24849 -29.359106 -101.30177 -5.7577586 84.079063
-29.338116 -101.40649 -12.978338 80.061119 -5.4483876 -93.76532
-5.7766581 83.606781 -5.4401665 -94.133232 -18.494911 -115.05935
3509125000 -16.797819 -176.23131 -29.632364 -110.03852 -5.7655993 74.884949
-29.607126 -110.13461 -12.991862 73.288971 -5.45397 -103.08597
-5.7834253 74.431824 -5.4441137 -103.44305 -18.843485 -126.04436
3559112500 -16.758518 176.82962 -29.898001 -118.56799 -5.7731128 65.695892
-29.888769 -118.57714 -13.005877 66.62413 -5.4609213 -112.4002
-5.7907448 65.252182 -5.4494548 -112.75278 -19.23255 -137.24529
3609100000 -16.689795 169.78572 -30.170467 -126.63141 -5.7818813 56.503819
-30.167648 -126.63068 -13.030617 59.927696 -5.4680171 -121.72398
-5.7988081 56.077641 -5.4573016 -122.0604 -19.637592 -148.83662
3659087500 -16.628651 162.91791 -30.430056 -134.45792 -5.790565 47.311588
-30.444475 -134.45291 -13.040044 53.138256 -5.4774046 -131.04562
-5.8070073 46.906925 -5.4658084 -131.36389 -20.066973 -160.51675
3709075000 -16.578388 155.87968 -30.683826 -142.05135 -5.7991791 38.118755
-30.706333 -142.10085 -13.038213 46.386204 -5.4879622 -140.36606
-5.816174 37.728844 -5.4764423 -140.67084 -20.507866 -172.52727
3759062500 -16.509871 148.95752 -30.897354 -149.42365 -5.8080826 28.937988
-30.929825 -149.45822 -13.044318 39.63887 -5.5003543 -149.6774
-5.8247199 28.560762 -5.4889183 -149.96667 -20.940462 175.27594
3809050000 -16.470625 142.06003 -31.105021 -156.48953 -5.8194537 19.758999
-31.143093 -156.53545 -13.051838 32.763035 -5.5150042 -158.98393
-5.8353834 19.402538 -5.5029545 -159.25468 -21.402479 162.90573
3859037500 -16.425306 135.0891 -31.270372 -163.46242 -5.8307772 10.579127
-31.301729 -163.52844 -13.043318 25.807158 -5.5302877 -168.28867
-5.8445034 10.244137 -5.5187998 -168.53659 -21.836981 150.36948
3909025000 -16.39702 128.27193 -31.394939 -170.24364 -5.842473 1.4100921
-31.411411 -170.41316 -13.030508 18.873299 -5.5481977 -177.57329
-5.8545704 1.0929142 -5.5339861 -177.80666 -22.278891 137.77888
3959012500 -16.384155 121.32034 -31.482176 -176.8606 -5.8534441 -7.7555742
-31.503242 -177.11177 -13.032043 11.847378 -5.565556 173.13623
-5.8647385 -8.0636806 -5.5517545 172.92059 -22.695803 125.09499
4009000000 -16.369034 114.5334 -31.523968 176.37033 -5.8633943 -16.909189
-31.533926 176.14902 -13.024413 4.6125364 -5.5835876 163.86388
-5.8742361 -17.210941 -5.5704203 163.66061 -23.102695 112.61869
4058987500 -16.400785 107.71511 -31.501642 169.53758 -5.8730917 -26.06303
-31.518171 169.33572 -12.999177 -2.6763015 -5.6040988 154.60248
-5.8832951 -26.355753 -5.5893846 154.41135 -23.487265 100.18152
4108975000 -16.415384 100.82454 -31.460606 162.78621 -5.882616 -35.213417
-31.469877 162.53337 -12.983413 -9.9685984 -5.6244044 145.34517
-5.8914008 -35.502201 -5.6089091 145.16476 -23.810616 88.105278
4158962500 -16.46369 94.137886 -31.38736 155.78313 -5.8913913 -44.359962
-31.405865 155.53499 -12.974378 -17.433464 -5.6457629 136.10318
-5.89853 -44.641148 -5.6291032 135.93166 -24.166803 76.27169
4208950000 -16.526321 87.262581 -31.282532 148.76462 -5.8997288 -53.518875
-31.294647 148.54124 -12.947533 -25.00403 -5.6672134 126.8605
-5.9060254 -53.782219 -5.6498337 126.70525 -24.440508 64.772324
4258937500 -16.589342 80.556068 -31.127663 141.50398 -5.9059644 -62.669212
-31.145008 141.24539 -12.913907 -32.560764 -5.6882348 117.63264
-5.9111323 -62.925159 -5.6699872 117.48503 -24.698648 54.01313
4308925000 -16.683584 73.804131 -30.980408 134.09807 -5.9109888 -71.811798
-31.001078 133.86134 -12.893681 -40.156158 -5.7093234 108.41369
-5.9167676 -72.06971 -5.6900496 108.27176 -24.938055 43.451069
4358912500 -16.773832 67.007881 -30.799999 126.38616 -5.9151044 -80.964569
-30.833559 126.20193 -12.871069 -47.908047 -5.7301598 99.200378
-5.9222798 -81.219238 -5.712369 99.060081 -25.096832 33.816463
4408900000 -16.889084 60.347931 -30.625208 118.58842 -5.918592 -90.117828
-30.656038 118.42492 -12.836 -55.646702 -5.7517748 90.003838
-5.9262872 -90.367706 -5.7336287 89.865349 -25.27343 24.676229
4458887500 -17.012651 53.482559 -30.432083 110.65319 -5.9225755 -99.276718
-30.464731 110.42675 -12.800676 -63.319939 -5.7730107 80.806465
-5.9302731 -99.518661 -5.753756 80.683418 -25.343767 16.080465
4508875000 -17.12372 46.829781 -30.268017 102.47845 -5.9257379 -108.44226
-30.28356 102.2473 -12.781468 -71.035652 -5.7937713 71.613968
-5.9337358 -108.67558 -5.7747202 71.501396 -25.407295 8.4361038
4558862500 -17.277605 40.113518 -30.086786 94.092857 -5.9286599 -117.61481
-30.094435 93.913643 -12.755034 -78.797096 -5.814795 62.436619
-5.9368458 -117.83619 -5.7948647 62.337257 -25.41667 0.96419138
4608850000 -17.409878 33.330341 -29.896793 85.548668 -5.9308271 -126.78473
-29.896729 85.458191 -12.724721 -86.491173 -5.8356843 53.260414
-5.9400997 -127.00433 -5.8136644 53.181316 -25.315367 -5.6495419
4658837500 -17.563866 26.718245 -29.731359 76.814941 -5.9333057 -135.95132
-29.7325 76.688728 -12.709809 -94.150185 -5.8548675 44.094551
-5.9419947 -136.17416 -5.8331461 44.026249 -25.23415 -11.94482
4708825000 -17.717224 19.895435 -29.563532 67.951759 -5.9340014 -145.12953
-29.570929 67.848373 -12.698202 -101.84493 -5.8731494 34.939083
-5.9453387 -145.34804 -5.851685 34.878063 -25.029453 -18.106197
4758812500 -17.860069 13.243544 -29.399258 59.03006 -5.9358501 -154.30917
-29.404724 58.941933 -12.68237 -109.51073 -5.891942 25.784449
