! MARKI MICROWAVE INC.
! Email:             	info@markimicrowave.com   				Phone:   408-778-4200
! Model Number:      	BAL-0006						Date:    06/12
! Filename:		BAL-0006.S3P						Version: 1.0
! Description:       	3-port S-parameter data for Balun BAL-0006
! Frequency Range: 	10 MHz to 6 GHz		
! Port Configuration:	PORT 1: OUTPUT (0 DEGREE), PORT 2: OUTPUT(180 DEGREE), PORT 3: COMMON


! S3P File: Measurements: Mag<S11> Ang<S11> Mag<S12> Ang<S12> Mag<S13> Ang<S13>! row 1 
!			  Mag<S21> Ang<S21> Mag<S22> Ang<S22> Mag<S23> Ang<S23>! row 2 
!			  Mag<S31> Ang<S31> Mag<S32> Ang<S32> Mag<S33> Ang<S33>! row 3 
# Hz S  dB   R 50

10000000 -15.829519 159.71916 -8.4075289 4.6131711 -6.6721282 -0.42390954
-8.3961802 4.3121958 -15.880164 160.34224 -6.7174783 179.15355
-6.6656766 0.71830374 -6.7173033 -179.4778 -22.522594 154.28339
17487500 -16.373047 169.69756 -8.4468603 1.5832728 -6.7179928 -1.3994269
-8.4549761 1.4550637 -16.158964 170.61018 -6.7711515 178.33995
-6.7075958 -0.73687524 -6.7548399 179.13905 -23.451933 166.5401
24975000 -16.159094 173.04877 -8.5151777 0.50120801 -6.7059374 -1.9774017
-8.5168715 0.44449878 -15.897652 173.68758 -6.7697735 177.90062
-6.7100911 -1.7830915 -6.7733235 178.13524 -22.970823 170.75215
32462500 -15.978616 173.15813 -8.5636578 0.024662048 -6.7084799 -2.663974
-8.5605221 0.018463382 -15.742849 173.37939 -6.77595 177.27556
-6.7150178 -2.6842487 -6.7848911 177.27719 -22.641352 169.54309
39950000 -15.924706 171.94287 -8.5616884 -0.26733783 -6.7084894 -3.5006938
-8.5571795 -0.29540288 -15.717706 171.92566 -6.7743735 176.52524
-6.713098 -3.4824767 -6.7849631 176.53712 -22.529514 166.58043
47437500 -15.999026 170.54402 -8.5392056 -0.5597474 -6.7118292 -4.2743921
-8.5332985 -0.56330675 -15.830288 170.44574 -6.7747989 175.79306
-6.7115912 -4.3173366 -6.7833099 175.75299 -22.692825 163.73064
54925000 -16.145519 169.30951 -8.4975481 -0.88614124 -6.7095451 -4.9329863
-8.4995794 -0.91519892 -15.995455 169.18977 -6.7704778 175.16437
-6.709167 -5.1530943 -6.7711101 174.97113 -22.957777 161.75191
62412500 -16.333082 168.68889 -8.4494171 -1.2255621 -6.7038584 -5.5794601
-8.4502926 -1.2430091 -16.167248 168.48798 -6.7577877 174.52495
-6.7008386 -5.8648372 -6.7549305 174.26152 -23.195465 160.86745
69900000 -16.508636 168.2964 -8.3985367 -1.5849456 -6.6913486 -6.2622004
-8.4032106 -1.5748816 -16.335661 168.07408 -6.7391152 173.84871
-6.6896148 -6.5405288 -6.7349043 173.5564 -23.359415 160.27835
77387500 -16.667833 168.11082 -8.3502302 -2.0539227 -6.673315 -7.0174546
-8.3514261 -2.0103128 -16.490881 167.73958 -6.7185073 173.07242
-6.6728086 -7.2811971 -6.7170587 172.76591 -23.462666 159.33783
84875000 -16.811094 168.00916 -8.3100815 -2.5427785 -6.6603446 -7.7931223
-8.3087292 -2.4794052 -16.639194 167.51163 -6.7060747 172.27887
-6.6611109 -8.0235081 -6.7096047 171.98671 -23.594648 158.22443
92362500 -16.946888 167.91873 -8.2744761 -3.0534406 -6.6530962 -8.5874977
-8.2730694 -3.0528347 -16.790344 167.25394 -6.7012582 171.44078
-6.653348 -8.788352 -6.704515 171.22595 -23.752243 157.13002
99850000 -17.084248 167.68314 -8.2425003 -3.6485987 -6.6492023 -9.4349804
-8.2392406 -3.6694937 -16.928961 167.02737 -6.6995654 170.59605
-6.6464748 -9.6241741 -6.6997104 170.4314 -23.93331 155.90942
107337500 -17.217009 167.51225 -8.2149582 -4.2851486 -6.6444402 -10.274383
-8.212039 -4.2277994 -17.048065 167.00438 -6.6921635 169.85092
-6.6401777 -10.453883 -6.6941252 169.60841 -24.092445 154.92754
114825000 -17.352051 167.5802 -8.1874886 -4.8639336 -6.6383915 -11.070154
-8.1878195 -4.8001156 -17.15601 167.11386 -6.6844773 169.05302
-6.6359272 -11.233774 -6.6822095 168.81827 -24.222383 154.52881
122312500 -17.462839 167.82121 -8.1664114 -5.4197345 -6.6322293 -11.831218
-8.1672316 -5.3596239 -17.254478 167.22244 -6.6729717 168.27116
-6.6314669 -11.984062 -6.6734467 168.06465 -24.320719 154.34668
129800000 -17.558788 168.13795 -8.1492186 -5.9327836 -6.6260028 -12.590882
-8.1485529 -5.9209609 -17.351793 167.29776 -6.6669836 167.44769
-6.627255 -12.713646 -6.6690226 167.31194 -24.400799 154.08186
137287500 -17.636377 168.40939 -8.1316996 -6.4694448 -6.6211138 -13.365816
-8.1307898 -6.4571476 -17.448584 167.46153 -6.6637878 166.66135
-6.6223083 -13.482681 -6.6672015 166.52707 -24.485239 153.63049
144775000 -17.704874 168.62573 -8.1169758 -7.0189366 -6.6177249 -14.157778
-8.1142607 -7.0140557 -17.533028 167.64948 -6.6645269 165.87032
-6.6156788 -14.263767 -6.6661792 165.75285 -24.595943 153.02908
152262500 -17.767195 168.7377 -8.1022768 -7.5948014 -6.6151471 -14.964547
-8.1009693 -7.5192719 -17.611877 167.97301 -6.6649308 165.13963
-6.6121879 -15.077745 -6.6627727 164.96481 -24.687851 152.25577
159750000 -17.843321 168.8537 -8.0883465 -8.1518364 -6.6144528 -15.743125
-8.0880442 -8.0816574 -17.670048 168.08539 -6.6608329 164.38152
-6.6120677 -15.869528 -6.6615 164.1864 -24.772732 151.86842
167237500 -17.903671 169.10181 -8.0764303 -8.6977072 -6.6130905 -16.491806
-8.0755615 -8.6376724 -17.725485 168.31198 -6.6566844 163.6235
-6.6095405 -16.633224 -6.6564384 163.42349 -24.822315 151.64688
174725000 -17.961372 169.38861 -8.0673285 -9.2623072 -6.6112165 -17.275396
-8.0685482 -9.180521 -17.777666 168.41606 -6.652298 162.84605
-6.6097202 -17.40251 -6.6518993 162.62241 -24.879255 151.24008
182212500 -18.007195 169.62752 -8.0564919 -9.8027802 -6.6076341 -18.034039
-8.0583057 -9.7222643 -17.815483 168.55074 -6.6500034 162.07034
-6.6064444 -18.175993 -6.6483951 161.83749 -24.912207 150.72278
189700000 -18.033442 169.84625 -8.0498552 -10.369995 -6.6044784 -18.821568
-8.0486393 -10.266859 -17.864241 168.63989 -6.6506586 161.28137
-6.6024704 -18.952143 -6.6503739 161.05098 -24.973944 150.20259
197187500 -18.072773 170.05652 -8.0442638 -10.919229 -6.6020074 -19.613974
-8.0409336 -10.805496 -17.90131 168.80449 -6.6499319 160.50703
-6.5999794 -19.739985 -6.652204 160.26898 -25.012939 149.54173
204675000 -18.107475 170.2124 -8.0363932 -11.480006 -6.6013341 -20.429037
-8.0322742 -11.356802 -17.930511 168.98874 -6.6481609 159.72121
-6.6001911 -20.540665 -6.6513333 159.49342 -25.067781 148.91801
212162500 -18.136459 170.3013 -8.0264349 -12.043193 -6.5997677 -21.251076
-8.0298605 -11.938516 -17.953213 168.96893 -6.6469402 158.90997
-6.6005287 -21.232088 -6.646328 158.79395 -25.09473 148.78455
219650000 -18.177509 170.47768 -8.0230503 -12.636794 -6.5998845 -22.057903
-8.0263653 -12.50792 -17.981289 169.11235 -6.6441984 158.10982
-6.601615 -22.010714 -6.643292 158.03288 -25.110102 148.20763
227137500 -18.205719 170.68695 -8.0185432 -13.167399 -6.5996423 -22.828659
-8.024272 -13.044241 -18.004089 169.24483 -6.6439085 157.31297
-6.6022458 -22.762001 -6.6425228 157.2639 -25.136166 147.84396
234625000 -18.223976 170.98102 -8.016242 -13.698271 -6.5991564 -23.609577
-8.0209045 -13.589035 -18.029953 169.36951 -6.64327 156.52605
-6.6002245 -23.533426 -6.6421385 156.47238 -25.128635 147.31471
242112500 -18.234577 171.20448 -8.0103493 -14.207186 -6.5937905 -24.375669
-8.0162344 -14.095356 -18.045208 169.59792 -6.6419835 155.76025
-6.5959253 -24.304113 -6.6405005 155.715 -25.155926 146.8483
249600000 -18.234163 171.33461 -8.0054388 -14.754353 -6.5935788 -25.165014
-8.0105381 -14.645968 -18.057411 169.76775 -6.6423879 154.97061
-6.5936546 -25.087681 -6.639998 154.94612 -25.182543 146.22809
257087500 -18.233395 171.64981 -8.0072994 -15.2047 -6.5955825 -25.884499
-8.0033283 -15.197924 -18.049259 169.81168 -6.6384044 154.17039
-6.5949588 -25.865997 -6.6412091 154.17757 -25.184275 145.53545
264575000 -18.243729 171.73976 -8.0051708 -15.742934 -6.5961976 -26.657835
-8.0051985 -15.741167 -18.042749 169.93108 -6.6349874 153.4151
-6.5984559 -26.677538 -6.6393619 153.40741 -25.186024 145.02939
272062500 -18.245783 171.87395 -8.0016918 -16.289183 -6.5985017 -27.45153
-7.9999695 -16.274458 -18.0413 170.05272 -6.6336946 152.62733
-6.6004977 -27.442661 -6.6373115 152.62172 -25.191195 144.34674
279550000 -18.255562 172.11156 -7.9986858 -16.83182 -6.5983047 -28.221106
-8.000927 -16.818048 -18.05999 170.10773 -6.6364946 151.85231
-6.5997448 -28.202272 -6.636158 151.85477 -25.199749 143.75969
287037500 -18.248756 172.25992 -8.0002565 -17.357752 -6.5959067 -28.972492
-8.0017118 -17.347605 -18.065184 170.24498 -6.6371679 151.07928
-6.6004138 -28.970194 -6.6412926 151.07521 -25.212511 143.11545
294525000 -18.247492 172.39969 -8.0007811 -17.893465 -6.5934305 -29.765654
-8.0044651 -17.889038 -18.075516 170.33264 -6.6377025 150.29089
-6.6017804 -29.740139 -6.6440115 150.30515 -25.216288 142.68851
302012500 -18.237007 172.55946 -7.9994488 -18.406488 -6.5918527 -30.563799
-7.9998589 -18.393564 -18.064402 170.50182 -6.634532 149.5023
-6.5978494 -30.515602 -6.6418815 149.54129 -25.214361 142.11798
309500000 -18.234818 172.72514 -8.0008202 -18.930782 -6.5983758 -31.350435
-8.0005379 -18.886549 -18.043184 170.59953 -6.6332483 148.73465
-6.5993428 -31.262079 -6.6374021 148.78415 -25.187637 141.39847
316987500 -18.234959 172.80217 -7.9981899 -19.437813 -6.5980859 -32.10701
-7.9975119 -19.415541 -18.038746 170.72119 -6.632031 147.98222
-6.5992694 -32.05917 -6.6360006 148.02057 -25.18446 140.61647
324475000 -18.238852 172.97429 -7.99933 -19.955429 -6.6002083 -32.883396
-7.99511 -19.939896 -18.041634 170.80072 -6.6310024 147.21344
-6.6004167 -32.8367 -6.636971 147.24217 -25.199945 140.10097
331962500 -18.22028 173.1424 -8.0009432 -20.465092 -6.6023779 -33.607925
-7.9980049 -20.447275 -18.047432 170.95326 -6.6353121 146.47665
-6.6020269 -33.591251 -6.6422386 146.45657 -25.224665 139.76982
339450000 -18.202818 173.18419 -7.9992852 -20.993265 -6.5987921 -34.364006
-7.9968333 -20.986975 -18.041782 170.88087 -6.6355295 145.70894
-6.5984206 -34.335068 -6.6381965 145.72324 -25.162737 139.18141
346937500 -18.184206 173.21533 -8.0015078 -21.519209 -6.5978432 -35.144539
-8.0024195 -21.498947 -18.039604 170.9791 -6.6353331 144.91768
-6.599618 -35.113022 -6.6360221 144.93448 -25.144646 138.34978
354425000 -18.161974 173.30264 -8.0030441 -22.008425 -6.6014109 -35.90136
-7.9997067 -21.993164 -18.025997 171.05536 -6.636364 144.16786
-6.5998631 -35.867275 -6.6384621 144.19456 -25.126431 137.64496
361912500 -18.146393 173.28677 -8.0064774 -22.527967 -6.6003714 -36.679897
-8.0014486 -22.499346 -18.014482 171.11772 -6.6331382 143.40779
-6.6003189 -36.641579 -6.6405973 143.43718 -25.114649 137.12529
369400000 -18.120266 173.36064 -8.0077028 -23.024725 -6.6040454 -37.463814
-8.0046568 -23.032391 -18.002874 171.08365 -6.6374702 142.59467
-6.6029344 -37.422768 -6.6401029 142.65355 -25.105776 136.26109
376887500 -18.099741 173.37292 -8.0099916 -23.516079 -6.6043601 -38.213013
-8.005312 -23.529205 -17.977558 171.10037 -6.6361923 141.86159
-6.6064725 -38.196411 -6.6414928 141.88457 -25.078876 135.70039
384375000 -18.06531 173.45895 -8.0129499 -24.044733 -6.6071548 -38.97403
-8.007431 -24.029961 -17.960894 171.03539 -6.6397614 141.10059
-6.6040587 -38.939846 -6.6418633 141.1069 -25.068491 135.04216
391862500 -18.042356 173.5134 -8.0141211 -24.540699 -6.6057963 -39.729301
-8.0098305 -24.531866 -17.943041 171.04758 -6.639287 140.34869
-6.6059113 -39.707268 -6.6458468 140.36755 -25.031864 134.47925
399350000 -17.995808 173.50877 -8.0094366 -25.061031 -6.6010351 -40.483795
-8.0194187 -25.029774 -17.934752 171.08473 -6.6451931 139.60403
-6.603106 -40.476894 -6.6385727 139.5896 -24.976349 133.93274
406837500 -17.966881 173.51855 -8.0161848 -25.546185 -6.6049047 -41.262463
-8.0248775 -25.570602 -17.914186 170.98419 -6.6464648 138.81189
-6.6064887 -41.259418 -6.6407123 138.8373 -24.941387 133.14305
414325000 -17.949711 173.57799 -8.0165119 -26.064381 -6.6047497 -42.029358
-8.0273409 -26.046076 -17.89184 170.89537 -6.6463418 138.06032
-6.6082497 -42.008518 -6.6417961 138.0714 -24.926882 132.44022
421812500 -17.920671 173.54013 -8.0222359 -26.542751 -6.6070738 -42.809227
-8.0315695 -26.541548 -17.868925 170.80658 -6.6492124 137.26738
-6.6102829 -42.753002 -6.6424541 137.30862 -24.936687 131.52475
429300000 -17.89319 173.5233 -8.0259781 -27.07361 -6.6115556 -43.575077
-8.0357008 -27.063528 -17.852524 170.74295 -6.6522756 136.50725
-6.6123624 -43.56773 -6.6452909 136.50969 -24.926022 130.74863
436787500 -17.857296 173.52684 -8.0320463 -27.579735 -6.6135597 -44.339115
-8.0374498 -27.551178 -17.831383 170.62662 -6.6546025 135.74231
-6.6149135 -44.30233 -6.650795 135.74989 -24.910889 130.06978
444275000 -17.834274 173.50348 -8.0338907 -28.088284 -6.6110435 -45.102135
-8.0365791 -28.052044 -17.79788 170.63045 -6.6507697 135.00566
-6.6178079 -45.088253 -6.653069 134.98419 -24.881573 129.45734
451762500 -17.803419 173.44908 -8.0333548 -28.572363 -6.6130748 -45.864006
-8.0433941 -28.563471 -17.76799 170.48524 -6.6560335 134.21991
-6.6124697 -45.822948 -6.6446271 134.26216 -24.809647 128.69304
459250000 -17.779184 173.41014 -8.0376129 -29.069807 -6.6143498 -46.63002
-8.0499706 -29.071136 -17.737045 170.38425 -6.6557117 133.46385
-6.6171684 -46.594723 -6.6462636 133.49889 -24.763283 127.83067
466737500 -17.753639 173.37483 -8.0429478 -29.557928 -6.6152024 -47.403717
-8.0531378 -29.557981 -17.703896 170.26065 -6.6561217 132.69318
-6.6199365 -47.376122 -6.6492467 132.73174 -24.757328 126.8232
474225000 -17.719465 173.2979 -8.0470457 -30.073221 -6.6170354 -48.181526
-8.05618 -30.055569 -17.678259 170.10538 -6.6572995 131.9202
-6.6199551 -48.127121 -6.6497416 131.94724 -24.73748 126.08274
481712500 -17.678864 173.22096 -8.0464468 -30.563713 -6.6197257 -48.953819
-8.0592089 -30.572737 -17.650515 170.08612 -6.6589646 131.16096
-6.6235852 -48.931019 -6.6520939 131.189 -24.719076 125.2233
489200000 -17.64217 173.22389 -8.0519123 -31.062346 -6.6211524 -49.680965
-8.0620956 -31.040874 -17.621328 169.93866 -6.6607184 130.42429
-6.6212811 -49.633682 -6.6512699 130.4223 -24.679647 124.68834
496687500 -17.61326 173.20061 -8.0546541 -31.54126 -6.6185389 -50.443165
-8.06534 -31.554279 -17.586052 169.88188 -6.6572647 129.65244
-6.624474 -50.422733 -6.6511297 129.6918 -24.617693 123.91975
504175000 -17.574467 173.12009 -8.0540609 -32.055264 -6.6181321 -51.203693
-8.069046 -32.063129 -17.56278 169.76451 -6.6563816 128.90352
-6.6229639 -51.176891 -6.6504617 128.91786 -24.564543 123.16838
511662500 -17.550144 173.02916 -8.0620785 -32.545185 -6.6203532 -51.986546
-8.0730143 -32.579765 -17.535118 169.66647 -6.6597199 128.11523
-6.6226978 -51.956505 -6.6535192 128.16006 -24.524523 122.07404
519150000 -17.512409 172.93671 -8.0660658 -33.052338 -6.6225014 -52.745995
-8.0807095 -33.047489 -17.508869 169.52901 -6.6621604 127.35468
-6.6254191 -52.715237 -6.6561704 127.37447 -24.508646 121.19391
526637500 -17.490889 172.8456 -8.0728617 -33.530922 -6.6248837 -53.509624
-8.0892096 -33.548443 -17.480963 169.3985 -6.6644197 126.58338
-6.6325235 -53.48362 -6.6594911 126.62334 -24.483616 120.17027
534125000 -17.456013 172.80515 -8.0795145 -34.036045 -6.6280093 -54.267433
-8.0927305 -34.019119 -17.44593 169.24915 -6.6657538 125.83131
-6.6340976 -54.246075 -6.6634283 125.84005 -24.432701 119.4297
541612500 -17.409864 172.73276 -8.0805397 -34.489635 -6.6289077 -55.023163
-8.0971603 -34.498249 -17.409431 169.15141 -6.6659484 125.07869
-6.6318941 -54.983875 -6.65941 125.12151 -24.366219 118.58834
549100000 -17.378136 172.64371 -8.0847111 -34.970959 -6.6308522 -55.776825
-8.1018887 -34.984226 -17.372429 169.01274 -6.6707978 124.33968
-6.6349077 -55.740437 -6.6592565 124.3716 -24.299261 117.9922
556587500 -17.331596 172.54271 -8.0899582 -35.473747 -6.6311345 -56.540413
-8.1053286 -35.478565 -17.338442 168.78993 -6.6681461 123.5602
-6.6356602 -56.503517 -6.6631017 123.6088 -24.253347 117.13506
564075000 -17.30475 172.43005 -8.0946665 -35.96534 -6.6319518 -57.308613
-8.1117239 -35.973248 -17.309685 168.6322 -6.6719522 122.79313
-6.6374259 -57.261784 -6.6626005 122.82643 -24.193218 116.2053
571562500 -17.278128 172.30011 -8.1026602 -36.464485 -6.6354566 -58.09037
-8.117321 -36.459076 -17.284302 168.48943 -6.6732235 122.01744
-6.6400485 -58.035713 -6.6659284 122.06872 -24.144075 115.15186
579050000 -17.26133 172.19374 -8.1113033 -36.952255 -6.6402812 -58.849957
-8.1237717 -36.946167 -17.259909 168.33287 -6.6782198 121.25647
-6.6432495 -58.808128 -6.6683278 121.28683 -24.124844 114.19632
586537500 -17.236015 172.035 -8.1194363 -37.446556 -6.6441932 -59.614746
-8.1310339 -37.456203 -17.234768 168.17502 -6.6772966 120.48894
-6.648253 -59.570301 -6.6717477 120.53478 -24.079554 113.5376
594025000 -17.189243 171.93175 -8.1190023 -37.91061 -6.6438313 -60.359974
-8.1337795 -37.914513 -17.187607 168.06976 -6.6766872 119.75777
-6.6468077 -60.328083 -6.6694069 119.78174 -23.998808 112.7226
601512500 -17.149851 171.80246 -8.1231422 -38.377403 -6.6428995 -61.109329
-8.1358995 -38.394215 -17.152086 167.89021 -6.6767941 118.99833
-6.6460872 -61.073223 -6.6704545 119.04649 -23.93206 111.9668
609000000 -17.115107 171.63058 -8.1270838 -38.886723 -6.6413651 -61.869335
-8.1416578 -38.882992 -17.123695 167.69951 -6.6773758 118.23702
-6.6458168 -61.827374 -6.6680312 118.26766 -23.859123 111.24018
616487500 -17.091532 171.48624 -8.1326389 -39.360943 -6.6443448 -62.625706
-8.1488714 -39.362873 -17.099051 167.54118 -6.6803374 117.45964
-6.6486573 -62.598465 -6.6687489 117.50248 -23.807547 110.24204
623975000 -17.050028 171.27274 -8.1398802 -39.866875 -6.6497021 -63.391376
-8.1544657 -39.850323 -17.07548 167.35802 -6.6828589 116.70948
-6.6518273 -63.351448 -6.672823 116.73221 -23.774988 109.48554
631462500 -17.018999 171.10551 -8.1463881 -40.328827 -6.6503782 -64.144287
-8.1597261 -40.327099 -17.045361 167.20712 -6.6806474 115.95381
-6.6540999 -64.112228 -6.6748357 115.98731 -23.723177 108.62527
638950000 -16.978077 171.01443 -8.1487827 -40.799473 -6.6514688 -64.907921
-8.1643696 -40.803192 -17.012976 167.05403 -6.6844668 115.21783
-6.6541824 -64.862144 -6.6731243 115.2411 -23.641596 107.84579
646437500 -16.936567 170.80659 -8.1561632 -41.25713 -6.6524725 -65.651207
-8.1677675 -41.25655 -16.980669 166.82709 -6.6834378 114.45773
-6.6548543 -65.60656 -6.6777196 114.47945 -23.585787 106.98866
653925000 -16.897877 170.65891 -8.1613016 -41.744015 -6.6546764 -66.40258
-8.1747398 -41.736382 -16.948481 166.65628 -6.6844802 113.71436
-6.6592927 -66.399071 -6.6782169 113.70311 -23.544315 106.16328
661412500 -16.853228 170.4269 -8.166151 -42.219185 -6.6560307 -67.165276
-8.1799173 -42.220753 -16.923086 166.38011 -6.6860375 112.94199
-6.6626511 -67.135834 -6.6818223 112.97497 -23.511417 105.42474
668900000 -16.826321 170.24051 -8.176322 -42.697811 -6.6562223 -67.941658
-8.1879082 -42.70105 -16.896338 166.13922 -6.6871881 112.15746
-6.6627369 -67.902733 -6.6851511 112.20036 -23.4583 104.37066
676387500 -16.78857 170.05348 -8.1801329 -43.176655 -6.6565056 -68.69738
-8.1938438 -43.181099 -16.868155 165.94427 -6.6911387 111.41032
-6.6616287 -68.668633 -6.6829395 111.42828 -23.410259 103.3984
683875000 -16.76115 169.88904 -8.1854324 -43.651089 -6.6629953 -69.466721
-8.1983337 -43.638153 -16.836426 165.68665 -6.6949611 110.66802
-6.6639481 -69.448509 -6.6838775 110.66485 -23.395187 102.47712
691362500 -16.727383 169.74605 -8.1945648 -44.13308 -6.6638761 -70.223038
-8.2050009 -44.136501 -16.806274 165.47516 -6.6943583 109.90947
-6.6710496 -70.203529 -6.691525 109.91901 -23.337788 101.78612
698850000 -16.685192 169.65503 -8.1982164 -44.585938 -6.6666527 -70.972282
-8.2118912 -44.599461 -16.764528 165.2336 -6.6943154 109.1632
-6.6713252 -70.9328 -6.6899786 109.18981 -23.27243 101.09402
706337500 -16.643642 169.53519 -8.200634 -45.063007 -6.6680765 -71.715942
-8.2147694 -45.062626 -16.724188 164.95416 -6.6927214 108.40867
-6.6729507 -71.667145 -6.6876273 108.43717 -23.192604 100.27053
713825000 -16.60239 169.33443 -8.2040577 -45.526611 -6.6690116 -72.450844
-8.2170267 -45.527054 -16.693226 164.7074 -6.6936679 107.64119
-6.6730123 -72.425316 -6.6895852 107.68707 -23.15399 99.480644
721312500 -16.569002 169.07088 -8.2106981 -45.991375 -6.6697006 -73.22509
-8.2240047 -46.016407 -16.662302 164.42528 -6.6962938 106.87643
-6.6769238 -73.183121 -6.6936865 106.9278 -23.113119 98.623909
