! MARKI MICROWAVE INC.
! Email:             	info@markimicrowave.com   				Phone:   408-778-4200
! Model Number:      	BAL-0106						Date:    11/13
! Filename:		BAL-0106.S3P						Version: 1.0
! Description:       	3-port S-parameter data for Balun BAL-0106
! Frequency Range: 	10 MHz to 7 GHz		
! Port Configuration:	PORT 1: OUTPUT (0 DEGREE), PORT 2: OUTPUT (180 DEGREE), PORT 3: COMMON


! S3P File: Measurements: Mag<S11> Ang<S11> Mag<S12> Ang<S12> Mag<S13> Ang<S13>! row 1 
!			  Mag<S21> Ang<S21> Mag<S22> Ang<S22> Mag<S23> Ang<S23>! row 2 
!			  Mag<S31> Ang<S31> Mag<S32> Ang<S32> Mag<S33> Ang<S33>! row 3 

# Hz S  dB   R 50
10000000 -44.738174 71.647346 -0.0026124676 -1.4356188 -60.321796 -97.961311
-0.020211466 -1.4842505 -43.5009 72.541779 -69.127991 -149.07094
-64.997421 53.200394 -69.509384 -129.26138 0.0015380873 -1.8791519
54950000 -35.085045 75.540672 -0.032963689 -6.8303776 -55.433559 9.4034576
-0.029333057 -6.7197413 -35.214073 73.063637 -56.02803 161.32278
-55.694286 3.7406256 -56.744167 162.1356 -0.0095774187 -10.520514
99900000 -30.256311 71.111809 -0.035734732 -12.260019 -45.912762 -8.7908592
-0.039296485 -12.265804 -30.445812 70.440292 -45.687542 156.23767
-45.844875 -8.1886768 -45.822376 155.5668 -0.0059579802 -18.656382
144850000 -27.171268 66.776169 -0.040802084 -17.739449 -39.375229 -18.699289
-0.038244825 -17.713402 -27.302938 66.822731 -39.240612 152.02525
-39.41011 -18.840492 -39.270058 151.73706 -0.013575187 -26.33939
189800000 -24.949594 62.593323 -0.061527453 -23.227121 -34.63393 -27.224184
-0.063451305 -23.202576 -25.019552 61.389202 -34.541325 144.81561
-34.587467 -27.403568 -34.544125 144.78452 -0.016486326 -35.493256
234750000 -22.719625 57.857944 -0.074091382 -28.750599 -30.845064 -35.747787
-0.073080733 -28.766998 -23.184017 56.00642 -30.777847 138.09642
-30.877569 -35.65041 -30.79199 138.44841 -0.025178036 -44.087978
279700000 -21.399483 51.643818 -0.092555538 -34.284081 -27.738493 -43.748505
-0.097444169 -34.301315 -21.476507 50.19194 -27.66144 131.16438
-27.736803 -43.699486 -27.672987 131.0994 -0.042307559 -52.755836
324650000 -19.902933 46.478886 -0.11875021 -39.928066 -25.037167 -51.805882
-0.11260081 -39.926109 -20.026123 44.516647 -24.97476 123.69747
-25.035997 -51.8904 -24.979532 123.73038 -0.067389444 -61.563793
369600000 -18.589211 41.016891 -0.14937922 -45.591454 -22.66736 -60.019272
-0.1502527 -45.59547 -18.699501 38.750004 -22.608547 116.18514
-22.689762 -59.985592 -22.611362 116.21461 -0.10155401 -70.519402
414550000 -17.319347 34.744541 -0.19104294 -51.326508 -20.555933 -68.330025
-0.19264026 -51.356041 -17.481503 32.629158 -20.494572 108.41256
-20.572495 -68.239433 -20.497553 108.42931 -0.14617319 -79.658684
459500000 -16.162476 28.298092 -0.24302945 -57.157471 -18.645901 -76.755272
-0.24263114 -57.145145 -16.328548 26.623983 -18.575981 100.33902
-18.652559 -76.77829 -18.591303 100.36153 -0.20886339 -89.025673
504450000 -15.059559 21.950377 -0.30889857 -63.053444 -16.892467 -85.307663
-0.30746329 -63.045128 -15.212453 19.964558 -16.834011 92.112183
-16.901915 -85.340294 -16.84197 92.088997 -0.30150819 -98.568909
549400000 -14.034142 15.044417 -0.3971664 -68.994408 -15.291438 -94.098579
-0.39508107 -69.005417 -14.171109 13.173897 -15.241668 83.576721
-15.296946 -94.159431 -15.237415 83.522148 -0.41446978 -108.32462
594350000 -13.026215 7.9612184 -0.50894827 -75.042412 -13.817389 -103.15706
-0.50548416 -75.03672 -13.166497 6.1127276 -13.749517 74.797195
-13.827092 -103.1604 -13.76862 74.759888 -0.56140739 -118.34218
639300000 -12.107413 0.5002203 -0.64468455 -81.091484 -12.458329 -112.34109
-0.64889377 -81.092934 -12.23879 -1.3420794 -12.397185 65.795219
-12.471227 -112.3456 -12.403432 65.785561 -0.74738854 -128.62688
684250000 -11.226041 -7.2069049 -0.82252198 -87.213356 -11.206589 -121.8263
-0.81956422 -87.214539 -11.351235 -8.8111601 -11.141171 56.49934
-11.217646 -121.83527 -11.148836 56.459747 -0.9897539 -139.1711
729200000 -10.415823 -15.034436 -1.0315998 -93.297348 -10.059906 -131.52425
-1.0308546 -93.289185 -10.541973 -16.897617 -9.9988289 46.988449
-10.065368 -131.48955 -10.00545 46.990673 -1.2958245 -149.98402
774150000 -9.6890793 -23.219706 -1.2873737 -99.34024 -9.0115538 -141.34689
-1.2847035 -99.321037 -9.7849092 -25.083241 -8.9511738 37.290562
-9.0243845 -141.36787 -8.9613676 37.256878 -1.657472 -161.02681
819100000 -9.0180798 -31.646336 -1.5831931 -105.25848 -8.0733786 -151.40886
-1.5846934 -105.2448 -9.1032495 -33.527836 -8.0178289 27.367954
-8.0857716 -151.407 -8.0237207 27.364223 -2.1082065 -172.26379
864050000 -8.4220877 -40.291843 -1.9298779 -110.97863 -7.2383909 -161.56155
-1.9274769 -110.97717 -8.4952803 -41.948097 -7.1761155 17.349344
-7.2474413 -161.55217 -7.1885781 17.342371 -2.6444788 176.35403
909000000 -7.9019909 -48.99612 -2.3126354 -116.41277 -6.5139518 -171.80513
-2.3170941 -116.40805 -7.9754114 -50.5247 -6.4509711 7.2703137
-6.5195274 -171.80659 -6.4522862 7.2613645 -3.2766974 164.77985
953950000 -7.4620557 -57.67495 -2.7338858 -121.52979 -5.8857398 177.97839
-2.7304821 -121.52482 -7.5244036 -59.152245 -5.8168631 -2.8525355
-5.8838429 177.95273 -5.8183908 -2.8800805 -4.0156693 153.20978
998900000 -7.1027145 -66.450424 -3.1699831 -126.26376 -5.3372569 167.86272
-3.1729116 -126.26147 -7.1502833 -67.699425 -5.2721553 -12.793303
-5.3497629 167.8502 -5.2827554 -12.811119 -4.8546085 141.73929
1043850000 -6.8077936 -74.891739 -3.620333 -130.48402 -4.9004102 157.82773
-3.6218524 -130.46727 -6.8449874 -76.230263 -4.8301988 -22.776491
-4.9036274 157.82419 -4.8371267 -22.795086 -5.8029914 130.16055
1088800000 -6.5828137 -83.28344 -4.0573611 -134.27483 -4.5283537 148.05119
-4.0588484 -134.24603 -6.6031351 -84.466187 -4.4575629 -32.499901
-4.5372596 148.05435 -4.4720435 -32.511883 -6.8538761 118.7054
1133750000 -6.4097829 -91.464149 -4.4720716 -137.62085 -4.2352228 138.51064
-4.473475 -137.60498 -6.4227762 -92.522705 -4.1689267 -41.989468
-4.241888 138.5029 -4.1764841 -41.979332 -8.014966 107.40149
1178700000 -6.2856803 -99.360001 -4.8430405 -140.60625 -3.9992003 129.19688
-4.8405218 -140.61334 -6.2932062 -100.34126 -3.9312966 -51.215298
-4.0075879 129.21965 -3.944093 -51.211483 -9.2827024 96.175285
1223650000 -6.2051806 -107.06218 -5.1672425 -143.29706 -3.8167522 120.17228
-5.1654558 -143.29402 -6.2035837 -107.94437 -3.7512894 -60.161503
-3.8264711 120.1807 -3.7566304 -60.165108 -10.671702 85.063477
1268600000 -6.1519589 -114.40923 -5.4288583 -145.83354 -3.6811802 111.44807
-5.4226928 -145.80699 -6.1445756 -115.19309 -3.6142991 -68.832436
-3.6868699 111.45647 -3.6216705 -68.857193 -12.196848 73.887901
1313550000 -6.1291981 -121.52617 -5.6411004 -148.23376 -3.5806916 102.95405
-5.6329918 -148.19296 -6.1264791 -122.19019 -3.5051417 -77.251839
-3.5828593 102.96227 -3.5151839 -77.271645 -13.853559 62.828522
1358500000 -6.1521883 -128.34615 -5.7892427 -150.63957 -3.4989216 94.8172
-5.7844644 -150.70224 -6.1172643 -128.89331 -3.4333878 -85.474922
-3.5021381 94.829994 -3.4361696 -85.407013 -15.724707 51.266453
1403450000 -6.1572814 -134.94624 -5.8957262 -153.09064 -3.4526904 86.803848
-5.899097 -153.08354 -6.1323524 -135.39899 -3.375087 -93.292648
-3.4621582 86.803535 -3.3865733 -93.307526 -17.665188 39.013885
1448400000 -6.1843204 -141.2822 -5.9617338 -155.71509 -3.4145293 79.074776
-5.9572215 -155.70604 -6.1617599 -141.65327 -3.3455648 -100.98158
-3.4192336 79.093575 -3.35256 -100.97469 -19.962774 25.591127
1493350000 -6.2230163 -147.33946 -5.9943972 -158.44005 -3.3930514 71.676857
-5.9986248 -158.42566 -6.1832604 -147.79886 -3.3217356 -108.43011
-3.3991063 71.550125 -3.3238206 -108.56225 -22.522394 9.9798717
1538300000 -6.2709908 -153.40602 -6.013958 -161.25362 -3.3795776 64.249336
-6.0106392 -161.23914 -6.226615 -153.53964 -3.3139856 -115.71641
-3.3857725 64.23954 -3.3145683 -115.71783 -25.384178 -9.8543596
1583250000 -6.3166389 -159.13243 -5.9958892 -164.33849 -3.373261 57.114922
-5.9995556 -164.33055 -6.2741523 -159.14529 -3.29864 -122.80762
-3.3796153 57.087875 -3.3035426 -122.82045 -28.302013 -37.471916
1628200000 -6.3585162 -164.70247 -5.9811168 -167.53615 -3.3713005 50.125721
-5.9684958 -167.48941 -6.3208828 -164.59724 -3.2938809 -129.71408
-3.3762312 50.137875 -3.3058274 -129.73984 -29.746365 -75.543205
1673150000 -6.4173884 -170.12277 -5.9480562 -170.82414 -3.3738146 43.288029
-5.9460726 -170.81065 -6.3714132 -169.88803 -3.3010421 -136.54395
-3.3799808 43.285175 -3.3101902 -136.5545 -28.948006 -111.24767
1718100000 -6.4783754 -175.44493 -5.9157796 -174.26843 -3.3771782 36.565872
-5.9203091 -174.27618 -6.4140859 -175.08279 -3.3100212 -143.24374
-3.3852878 36.578297 -3.3085976 -143.23175 -27.273949 -137.23451
1763050000 -6.5210552 179.47087 -5.8807588 -177.84969 -3.3882065 29.964357
-5.8825188 -177.83737 -6.4620476 179.99048 -3.3127244 -149.78333
-3.3912981 29.979563 -3.3137763 -149.7863 -25.666212 -154.56668
1808000000 -6.5689778 174.42261 -5.8400645 178.53677 -3.3913276 23.473576
-5.8424249 178.55525 -6.5109539 175.01933 -3.3230329 -156.25046
-3.3978133 23.471579 -3.3304553 -156.25169 -24.231592 -168.74326
1852950000 -6.6172314 169.53194 -5.8117151 174.76645 -3.4063194 17.08209
-5.8074369 174.79271 -6.5605626 170.29465 -3.3252361 -162.6367
-3.4080355 17.081793 -3.3292077 -162.66103 -23.28586 178.9906
1897900000 -6.6587205 164.72037 -5.7850118 170.97978 -3.4089663 10.745986
-5.7762332 170.98758 -6.6056561 165.52774 -3.3355484 -168.9248
-3.415396 10.754762 -3.3437548 -168.914 -22.483774 168.32269
1942850000 -6.6974182 160.02707 -5.7475367 167.13339 -3.4172573 4.5327721
-5.7437305 167.10396 -6.6446157 160.98842 -3.3384669 -175.1544
-3.422492 4.5299501 -3.3502471 -175.16174 -21.875551 158.9169
1987800000 -6.745945 155.45361 -5.7262602 163.18385 -3.4238861 -1.6691235
-5.7257466 163.18805 -6.6906796 156.48747 -3.3545575 178.69284
-3.4313357 -1.6668073 -3.3583016 178.6833 -21.474052 149.57904
2032750000 -6.7750025 150.93692 -5.7043772 159.21622 -3.4279099 -7.7837334
-5.6963668 159.21622 -6.7235923 152.07346 -3.3521707 172.6178
-3.4370279 -7.7778721 -3.3706167 172.61891 -21.081768 140.8782
2077700000 -6.813766 146.48734 -5.6801572 155.23907 -3.4379826 -13.836692
-5.6792164 155.23825 -6.7584586 147.70518 -3.3666141 166.5779
-3.443197 -13.836052 -3.3752708 166.56142 -20.827652 132.51219
2122650000 -6.8355975 142.14612 -5.6632924 151.15604 -3.440136 -19.864433
-5.6610522 151.1604 -6.7862434 143.47372 -3.3686235 160.62892
-3.4487824 -19.861662 -3.3778834 160.62909 -20.678856 124.29245
2167600000 -6.8700833 137.91769 -5.6493082 147.07506 -3.4460037 -25.792877
-5.6499386 147.0638 -6.8117976 139.34441 -3.3774364 154.66176
-3.4565957 -25.794294 -3.3882415 154.66187 -20.577017 116.53719
2212550000 -6.895144 133.73555 -5.6406884 142.96379 -3.4497523 -31.71929
-5.6432109 142.97618 -6.8361506 135.21207 -3.3790834 148.79942
-3.4599264 -31.731375 -3.3921015 148.77367 -20.569277 108.72296
2257500000 -6.9130254 129.48729 -5.6389914 138.83463 -3.454783 -37.599075
-5.6383901 138.85741 -6.868 131.12839 -3.3878384 142.91588
-3.4626641 -37.598797 -3.3937581 142.91907 -20.591747 100.80042
2302450000 -6.9290204 125.41412 -5.6355667 134.73253 -3.4530985 -43.436279
-5.6332359 134.70689 -6.8837271 127.09248 -3.3898633 137.08005
-3.4601297 -43.428299 -3.4003224 137.08981 -20.690205 93.08252
2347400000 -6.9316421 121.42006 -5.640213 130.5723 -3.4596527 -49.249947
-5.6441092 130.54364 -6.8944683 123.167 -3.3990324 131.30472
-3.4628973 -49.263397 -3.400604 131.31784 -20.799774 85.867699
2392350000 -6.9608369 117.39432 -5.6397538 126.39439 -3.4580121 -55.042606
-5.6384969 126.39461 -6.916378 119.19112 -3.4022553 125.52469
-3.4688225 -55.042919 -3.4121583 125.53326 -20.983425 78.144875
2437300000 -6.9514599 113.44753 -5.6650381 122.22867 -3.4607906 -60.789249
-5.6597085 122.20674 -6.9057498 115.32337 -3.4030206 119.78432
-3.4666531 -60.790318 -3.4107523 119.81232 -21.185305 70.780746
2482250000 -6.955605 109.51117 -5.6597939 118.01659 -3.4580688 -66.536896
-5.6615219 118.01917 -6.9242625 111.50305 -3.4085355 114.08533
-3.4633136 -66.524055 -3.4067349 114.10407 -21.441082 63.406647
2527200000 -6.9658122 105.68141 -5.6767564 113.79023 -3.4594843 -72.270523
-5.6802149 113.83021 -6.9198456 107.63685 -3.4117968 108.41672
-3.4631612 -72.254807 -3.4140222 108.39716 -21.725309 55.893158
2572150000 -6.954968 101.79958 -5.6963987 109.6246 -3.4616511 -77.957535
-5.6944237 109.64845 -6.9036632 103.78665 -3.4085798 102.76583
-3.4615798 -77.953011 -3.4150279 102.74664 -22.038725 48.492107
2617100000 -6.9561572 98.013809 -5.7051597 105.45365 -3.4548705 -83.611763
-5.7071848 105.44958 -6.9160929 100.12349 -3.4137421 97.070473
-3.4604557 -83.603966 -3.4152129 97.081772 -22.418543 41.407425
2662050000 -6.9473772 94.122444 -5.7322106 101.25359 -3.4536891 -89.262627
-5.7330308 101.25768 -6.9050169 96.321877 -3.4124188 91.45739
-3.4626923 -89.265671 -3.4187601 91.450531 -22.786797 33.877964
2707000000 -6.9231639 90.402634 -5.7571168 97.063866 -3.4595847 -94.8927
-5.7532921 97.05246 -6.8898802 92.605934 -3.4180014 85.823334
-3.4567404 -94.911911 -3.4197927 85.837654 -23.227791 26.851192
2751950000 -6.9011521 86.690781 -5.781601 92.908318 -3.4486098 -100.5033
-5.7841353 92.904839 -6.8642793 88.926125 -3.4175265 80.24823
-3.4599819 -100.5188 -3.4199758 80.241493 -23.71487 19.993484
2796900000 -6.9002538 82.860466 -5.8111777 88.764282 -3.4552016 -106.13447
-5.8089023 88.759094 -6.8547406 85.083473 -3.4131134 74.676567
-3.459996 -106.12895 -3.4216924 74.693237 -24.26116 11.868124
2841850000 -6.8725305 79.205116 -5.8430715 84.532585 -3.4543183 -111.70821
-5.8415809 84.547668 -6.825316 81.470825 -3.4285071 69.074844
-3.4509161 -111.71587 -3.4257951 69.055511 -24.842497 5.4136868
2886800000 -6.8306689 75.518929 -5.8766127 80.376022 -3.444556 -117.27099
-5.8799229 80.359116 -6.7927804 77.805954 -3.4267061 63.472847
-3.4548182 -117.29567 -3.4272647 63.468666 -25.535128 -1.8729092
2931750000 -6.8047304 71.743187 -5.9153605 76.197197 -3.4499278 -122.88456
-5.9080763 76.213852 -6.7611823 74.035774 -3.4244871 57.987488
-3.4594047 -122.87342 -3.4362173 57.990498 -26.17029 -8.8675108
2976700000 -6.7810321 68.088486 -5.9421144 72.059746 -3.4447923 -128.40381
-5.9434881 72.049889 -6.7338629 70.360832 -3.4363546 52.442032
-3.4522302 -128.42043 -3.4426682 52.432102 -26.974838 -16.340639
3021650000 -6.772366 64.366837 -5.9779878 67.851547 -3.4476373 -133.98901
-5.9824586 67.876274 -6.7134724 66.67437 -3.4425988 46.942974
-3.4528661 -133.95471 -3.4440515 46.947971 -27.712496 -24.235306
3066600000 -6.7204967 60.711224 -6.0214787 63.769501 -3.4461818 -139.49005
-6.0195794 63.752666 -6.6711926 62.978252 -3.4430149 41.406929
-3.4504828 -139.50764 -3.4407334 41.401981 -28.770138 -31.439201
3111550000 -6.6796122 56.997795 -6.0557442 59.61861 -3.449152 -145.0118
-6.0568767 59.621902 -6.6358047 59.249302 -3.4474974 35.892685
-3.4497168 -144.99844 -3.446157 35.90213 -29.699146 -38.763233
3156500000 -6.6343002 53.328754 -6.1066785 55.556534 -3.4480758 -150.5273
-6.0953526 55.57151 -6.5933876 55.548779 -3.444999 30.412733
-3.4566004 -150.52171 -3.4580383 30.396204 -31.014019 -44.890068
3201450000 -6.5943389 48.130981 -6.1465292 51.545486 -3.4455276 -155.95178
-6.1408706 51.563835 -6.5566592 53.258846 -3.4502008 26.174751
-3.4507611 -155.98318 -3.4617653 26.130047 -32.604092 -56.201809
3246400000 -6.5519247 45.849579 -6.1726732 47.399204 -3.4417486 -161.52309
-6.1716552 47.39505 -6.5165796 48.113083 -3.4414334 19.451014
-3.4513171 -161.52446 -3.455833 19.464476 -33.686935 -60.858299
3291350000 -6.5142879 42.121765 -6.2114367 43.319721 -3.4432888 -167.01485
-6.2168417 43.328365 -6.4689803 44.335575 -3.455477 13.968405
-3.4546344 -166.99251 -3.460582 13.98455 -35.524918 -68.391861
3336300000 -6.4694748 38.439281 -6.2544508 39.276196 -3.4463761 -172.48123
-6.2513175 39.270836 -6.4282913 40.667587 -3.4603436 8.5076056
-3.4538279 -172.49915 -3.4674859 8.5243578 -38.189751 -74.877838
3381250000 -6.4228039 34.688416 -6.2964282 35.236229 -3.457309 -177.91959
-6.2856021 35.224159 -6.3914113 36.897476 -3.4628699 3.0581253
-3.4591994 -177.92569 -3.4717267 3.0721083 -40.684486 -83.57119
3426200000 -6.3987632 30.98847 -6.3237514 31.207203 -3.447674 176.63203
-6.324254 31.201981 -6.3551927 33.123619 -3.4707429 -2.4042768
-3.4584002 176.61104 -3.4822898 -2.3854356 -45.701778 -91.177216
3471150000 -6.3492713 27.154648 -6.3702435 27.25588 -3.4528415 171.16167
-6.370399 27.2465 -6.3113804 29.25808 -3.4759834 -7.8117385
-3.4656379 171.15236 -3.4839945 -7.8169408 -57.868324 -99.581657
3516100000 -6.3262587 23.452915 -6.4042158 23.203875 -3.4576702 165.71191
-6.3939738 23.191549 -6.2815895 25.52146 -3.4728744 -13.250599
-3.4655504 165.71246 -3.4884841 -13.240609 -51.97813 93.578079
3561050000 -6.2805505 19.604839 -6.4421449 19.267683 -3.451896 160.28223
-6.4411826 19.257368 -6.2345748 21.666069 -3.483994 -18.661797
-3.469157 160.27351 -3.4990785 -18.644728 -44.162582 75.461441
3606000000 -6.2493615 15.841987 -6.4739909 15.269217 -3.4661286 154.86778
-6.4755201 15.261149 -6.1925244 17.907873 -3.493489 -24.056517
-3.4756179 154.85045 -3.4980075 -24.072216 -40.788193 64.251793
3650950000 -6.2257004 12.060723 -6.4981761 11.295691 -3.4727676 149.45387
-6.5086985 11.293095 -6.1620955 14.067067 -3.505054 -29.479521
-3.4773703 149.45157 -3.5028672 -29.47245 -38.222652 56.212753
3695900000 -6.1860337 8.1962223 -6.5321546 7.3708267 -3.4711087 144.04289
-6.5320582 7.359107 -6.1247511 10.11721 -3.5129609 -34.881935
-3.4795835 144.04524 -3.5177147 -34.864777 -36.22876 49.46851
3740850000 -6.1633234 4.3227944 -6.5721979 3.4013171 -3.4803538 138.63849
-6.5669117 3.3948526 -6.0932713 6.2817836 -3.5117579 -40.27425
-3.4886386 138.63548 -3.5235074 -40.269501 -34.536911 42.872353
3785800000 -6.1375146 0.59418422 -6.5946946 -0.52685493 -3.4752545 133.28604
-6.5924234 -0.53786898 -6.0580759 2.4488034 -3.5238197 -45.679028
-3.4884801 133.2589 -3.5312371 -45.676907 -33.290535 34.389751
3830750000 -6.1146531 -3.2691827 -6.615633 -4.4932823 -3.490412 127.86963
-6.6118331 -4.5081487 -6.032927 -1.4265224 -3.520144 -51.055393
-3.493058 127.8661 -3.5238867 -51.044796 -32.251881 28.1763
3875700000 -6.0905943 -7.1328864 -6.6380701 -8.3341837 -3.4982381 122.52467
-6.6363616 -8.3866472 -6.0023956 -5.3796949 -3.5302134 -56.448017
-3.5022919 122.5182 -3.5372202 -56.424442 -31.222685 21.05954
3920650000 -6.0792227 -11.028384 -6.6607885 -12.313381 -3.5066345 117.11243
-6.6560168 -12.311059 -5.9809604 -9.3099632 -3.5419333 -61.81218
-3.5089555 117.12289 -3.5428894 -61.801834 -30.574162 13.801061
3965600000 -6.051928 -14.85399 -6.6720958 -16.249233 -3.5028837 111.72538
-6.6718483 -16.235344 -5.9473104 -13.211792 -3.5499177 -67.175179
-3.5043261 111.73223 -3.5486603 -67.170387 -29.954773 5.9834166
4010550000 -6.0470138 -18.775229 -6.6953549 -20.161428 -3.5077298 106.3934
-6.6985173 -20.139591 -5.9224129 -17.200615 -3.5516839 -72.540794
-3.5210724 106.41949 -3.5627224 -72.526848 -29.496294 -0.22730717
4055500000 -6.0292554 -22.654041 -6.7040114 -24.079103 -3.5173209 101.02354
-6.7018642 -24.089344 -5.9105606 -21.118076 -3.5586171 -77.925377
-3.5208008 101.02621 -3.5627055 -77.90152 -28.85288 -8.3567247
4100450000 -6.0311537 -26.461061 -6.7116103 -27.98477 -3.5354536 95.668365
-6.7046719 -27.974726 -5.8941317 -25.031092 -3.5599408 -83.27552
-3.5348344 95.652672 -3.569021 -83.292351 -28.251066 -16.589664
4145400000 -6.0248718 -30.436111 -6.7210116 -31.948265 -3.5328283 90.305542
-6.7167211 -31.942486 -5.8808389 -29.07312 -3.5721595 -88.610985
-3.5358634 90.313583 -3.5805223 -88.619598 -28.034172 -22.557173
4190350000 -6.0125494 -34.352364 -6.7228646 -35.830807 -3.5419798 85.055107
-6.7132354 -35.899296 -5.8602386 -32.976784 -3.5725706 -94.061249
-3.5434537 85.059059 -3.5808904 -93.974815 -27.878006 -30.870672
4235300000 -6.0217052 -38.194065 -6.7195759 -39.855652 -3.5408835 79.6446
-6.7190351 -39.838413 -5.84935 -36.981091 -3.5823729 -99.343521
-3.5454628 79.625267 -3.5844185 -99.370651 -27.316055 -38.190052
4280250000 -6.0381565 -42.063141 -6.7188945 -43.813431 -3.5530283 74.305069
