! MARKI MICROWAVE INC.
! Email:             	info@markimicrowave.com   				Phone:   408-778-4200
! Model Number:      	BAL-0009SMG						Date:    11/13
! Filename:		BAL-0009SMG.S3P						Version: 2.0
! Description:       	3-port S-parameter data for Balun BAL-0009SMG
! Frequency Range: 	10 MHz to 10 GHz		
! Port Configuration:	PORT 1: OUTPUT (0 DEGREE), PORT 2: OUTPUT (180 DEGREE), PORT 3:COMMON 


! S3P File: Measurements: Mag<S11> Ang<S11> Mag<S12> Ang<S12> Mag<S13> Ang<S13>! row 1 
!			  Mag<S21> Ang<S21> Mag<S22> Ang<S22> Mag<S23> Ang<S23>! row 2 
!			  Mag<S31> Ang<S31> Mag<S32> Ang<S32> Mag<S33> Ang<S33>! row 3 

# Hz S  dB   R 50
10000000 -12.702748 166.72392 -9.6961145 3.0707681 -7.0150247 -2.1491086
-9.6937227 3.0572422 -12.605824 165.88 -7.0569706 177.72464
-7.0161915 -0.70602757 -7.0812297 179.09366 -19.145847 162.30318
24987500 -12.78044 167.8374 -9.6981583 1.6384164 -7.0198798 -2.9592757
-9.6931763 1.62617 -12.686905 167.07787 -7.0633898 176.88663
-7.0206666 -1.7928555 -7.0847979 177.98401 -19.262112 164.04443
39975000 -12.853864 168.8631 -9.7031994 0.10886709 -7.0271068 -3.8944616
-9.6963062 0.097598925 -12.762787 168.18758 -7.072 175.91589
-7.0270152 -3.0038111 -7.0902066 176.75853 -19.380838 165.71034
54962500 -12.922565 169.80109 -9.7103634 -1.5114046 -7.0346742 -4.9477386
-9.702548 -1.5214367 -12.832452 169.1873 -7.081892 174.82896
-7.0340629 -4.3282027 -7.0957875 175.41251 -19.494825 167.30353
69950000 -12.988507 170.64476 -9.719799 -3.2210867 -7.0429206 -6.1235471
-9.710247 -3.2290006 -12.899999 170.06541 -7.0925355 173.61528
-7.0414934 -5.7721109 -7.1029296 173.9369 -19.601294 168.7188
84937500 -13.05303 171.39598 -9.731781 -5.0140324 -7.0523195 -7.414897
-9.7210321 -5.0189729 -12.965957 170.84012 -7.1054454 172.28625
-7.0509515 -7.3317037 -7.1115246 172.35435 -19.711678 170.02806
99925000 -13.118014 172.04158 -9.7438335 -6.8840017 -7.0630779 -8.8178644
-9.7330017 -6.8942165 -13.028909 171.49854 -7.1195655 170.83644
-7.0611019 -9.0066309 -7.1206098 170.65099 -19.817474 171.24295
114912500 -13.078304 171.65782 -9.7772465 -8.2751513 -7.0758119 -10.295893
-9.7657223 -8.283905 -12.983936 170.99426 -7.1363173 169.32953
-7.0712848 -10.441684 -7.136312 169.19119 -19.758238 170.82605
129900000 -13.036291 170.90569 -9.8101387 -9.4553671 -7.092773 -11.684058
-9.8010693 -9.46733 -12.93686 170.12155 -7.1564689 167.91811
-7.0865393 -11.807474 -7.1549892 167.79567 -19.732986 170.08977
144887500 -12.996328 169.97377 -9.8360195 -10.541262 -7.1050611 -13.034234
-9.8301249 -10.556629 -12.890395 169.05176 -7.1716399 166.54286
-7.0987258 -13.126111 -7.16994 166.44531 -19.695541 169.23714
159875000 -12.96336 168.91 -9.8566227 -11.588187 -7.1146002 -14.36501
-9.850316 -11.599945 -12.856053 167.86609 -7.1837912 165.17662
-7.1083727 -14.43422 -7.1830711 165.10417 -19.665594 168.13045
174862500 -12.944811 167.79413 -9.8739243 -12.589423 -7.1244349 -15.697184
-9.8679123 -12.59947 -12.833737 166.6358 -7.1961823 163.82251
-7.11763 -15.738703 -7.1943874 163.77762 -19.656374 166.93216
189850000 -12.933894 166.67953 -9.8857574 -13.557538 -7.1338778 -16.992887
-9.8813114 -13.573394 -12.820609 165.40025 -7.2073455 162.49747
-7.124887 -17.031191 -7.2041574 162.47081 -19.657261 165.75716
204837500 -12.927732 165.53404 -9.8940153 -14.522859 -7.1400857 -18.294649
-9.8890886 -14.543681 -12.812175 164.13062 -7.2156839 161.17441
-7.1308661 -18.32839 -7.2111945 161.15521 -19.653418 164.47058
219825000 -12.930014 164.37558 -9.8988314 -15.488496 -7.144443 -19.593157
-9.8941288 -15.511948 -12.811419 162.86067 -7.2227039 159.85013
-7.1357198 -19.628565 -7.2184362 159.82903 -19.65192 163.12407
234812500 -12.935183 163.20256 -9.9004545 -16.456806 -7.1496224 -20.885885
-9.8952169 -16.475002 -12.814913 161.60632 -7.229815 158.53807
-7.1413026 -20.922947 -7.2249155 158.52386 -19.661175 161.84987
249800000 -12.945375 162.02441 -9.8991861 -17.423744 -7.1546035 -22.175455
-9.8942804 -17.44503 -12.822321 160.33292 -7.2341995 157.22072
-7.1450381 -22.214186 -7.2299538 157.20592 -19.663963 160.5408
264787500 -12.956983 160.85078 -9.8968239 -18.404905 -7.1576385 -23.465199
-9.8902159 -18.427496 -12.833967 159.06169 -7.2378144 155.90933
-7.1494193 -23.502209 -7.2358537 155.89499 -19.674023 159.29124
279775000 -12.970609 159.70401 -9.8919106 -19.370785 -7.161643 -24.751284
-9.8848524 -19.394178 -12.850478 157.82085 -7.242415 154.59935
-7.152679 -24.784441 -7.2397389 154.59032 -19.689188 158.03604
294762500 -12.987509 158.55606 -9.8853397 -20.349424 -7.1646824 -26.038998
-9.878767 -20.369726 -12.866491 156.58801 -7.2458563 153.2925
-7.1555619 -26.068773 -7.243784 153.28772 -19.705721 156.81757
309750000 -13.007157 157.40155 -9.8785257 -21.340801 -7.1668973 -27.328039
-9.871541 -21.357758 -12.888494 155.37521 -7.249166 151.98576
-7.1581249 -27.350897 -7.2467089 151.98065 -19.725815 155.59621
324737500 -13.026844 156.26999 -9.872839 -22.324883 -7.1692042 -28.618929
-9.8645172 -22.345341 -12.914431 154.16508 -7.252357 150.67921
-7.1612458 -28.643875 -7.2504416 150.67274 -19.750479 154.35077
339725000 -13.049288 155.13063 -9.8645954 -23.312384 -7.1712666 -29.89513
-9.8565216 -23.339718 -12.941854 152.98178 -7.2550478 149.38599
-7.1629782 -29.926279 -7.2529535 149.3709 -19.774187 153.1377
354712500 -13.070147 154.00307 -9.8556795 -24.30736 -7.1720624 -31.188301
-9.8466949 -24.335566 -12.968904 151.79175 -7.2569909 148.07567
-7.1655021 -31.211645 -7.2548299 148.06366 -19.791853 151.85924
369700000 -13.094201 152.89438 -9.845685 -25.310543 -7.1740737 -32.462215
-9.8385534 -25.339739 -12.998765 150.61081 -7.2601519 146.78098
-7.1686811 -32.488155 -7.2587247 146.75443 -19.813692 150.61734
384687500 -13.114021 151.79358 -9.8359165 -26.324877 -7.1773067 -33.743893
-9.8283024 -26.343838 -13.03067 149.4333 -7.2626004 145.48419
-7.170929 -33.77042 -7.2617211 145.45518 -19.831587 149.43239
399675000 -13.136116 150.68648 -9.8251057 -27.338663 -7.1794057 -35.028133
-9.8203249 -27.361788 -13.062877 148.24809 -7.2651982 144.17717
-7.1723232 -35.056946 -7.2641997 144.1424 -19.843752 148.23822
414662500 -13.156779 149.59294 -9.8145437 -28.355639 -7.180315 -36.31797
-9.8093681 -28.375401 -13.097777 147.06703 -7.2684007 142.86957
-7.1728525 -36.336628 -7.2661209 142.84082 -19.863249 147.11546
429650000 -13.178018 148.50795 -9.8038969 -29.377829 -7.1813631 -37.610241
-9.7989073 -29.3936 -13.136751 145.89574 -7.271193 141.56238
-7.1720839 -37.625366 -7.2674432 141.52608 -19.882851 145.97141
444637500 -13.201521 147.41534 -9.7943735 -30.413973 -7.18116 -38.903133
-9.7896776 -30.432096 -13.173702 144.69586 -7.272182 140.25072
-7.1733069 -38.928246 -7.2694283 140.21054 -19.915218 144.81166
459625000 -13.225174 146.34967 -9.7846794 -31.446184 -7.1818304 -40.196777
-9.7789297 -31.460152 -13.21295 143.50276 -7.2744474 138.93405
-7.1729374 -40.218292 -7.270803 138.89516 -19.94842 143.62949
474612500 -13.250537 145.30238 -9.7748566 -32.476322 -7.1822643 -41.480968
-9.768302 -32.482094 -13.25028 142.31343 -7.2756171 137.63237
-7.1730285 -41.513145 -7.2733045 137.58397 -19.985622 142.45131
489600000 -13.277802 144.26413 -9.7625618 -33.508156 -7.1820655 -42.776684
-9.7565746 -33.515648 -13.283556 141.13016 -7.2751689 136.31952
-7.1719985 -42.803753 -7.273993 136.28012 -20.011944 141.2392
504587500 -13.303787 143.2455 -9.7507973 -34.552441 -7.1824393 -44.075802
-9.744504 -34.550415 -13.313951 139.93208 -7.2758789 134.9993
-7.172152 -44.105934 -7.2752132 134.96092 -20.038754 140.03711
519575000 -13.330362 142.21049 -9.7379913 -35.600533 -7.1824961 -45.368172
-9.7337141 -35.596172 -13.341999 138.74399 -7.2765651 133.68794
-7.1725593 -45.403259 -7.2761588 133.64467 -20.062101 138.90802
534562500 -13.356624 141.19312 -9.7267675 -36.644947 -7.1829195 -46.666756
-9.7213039 -36.633675 -13.368288 137.56499 -7.2766447 132.37411
-7.171824 -46.699162 -7.2764549 132.3302 -20.083708 137.84969
549550000 -13.385256 140.18002 -9.7152042 -37.690418 -7.1830831 -47.96172
-9.7088261 -37.685017 -13.393884 136.4084 -7.2773004 131.05695
-7.1718864 -47.99015 -7.277298 131.02299 -20.111053 136.81461
564537500 -13.412985 139.18147 -9.7048883 -38.733551 -7.1833744 -49.248871
-9.6957464 -38.725819 -13.419181 135.28337 -7.2771187 129.74864
-7.1723824 -49.281307 -7.2776375 129.71382 -20.147547 135.79231
579525000 -13.443054 138.19235 -9.6929922 -39.787807 -7.1827931 -50.546989
-9.6844673 -39.776936 -13.445311 134.18945 -7.2777772 128.43309
-7.173851 -50.58049 -7.2789693 128.40126 -20.184717 134.79887
594512500 -13.472009 137.20547 -9.6815491 -40.846512 -7.1829429 -51.841595
-9.6720428 -40.829063 -13.467876 133.10022 -7.2767239 127.1226
-7.1742907 -51.874477 -7.2790456 127.0913 -20.226257 133.74348
609500000 -13.499775 136.22916 -9.6695833 -41.902756 -7.1839628 -53.13343
-9.660059 -41.882248 -13.490243 132.04985 -7.2778058 125.81263
-7.1744022 -53.158592 -7.2792192 125.78146 -20.265471 132.72513
624487500 -13.527238 135.25542 -9.6574364 -42.959488 -7.1825943 -54.419266
-9.6475277 -42.942829 -13.513245 131.01663 -7.2760148 124.50687
-7.1755085 -54.449677 -7.2785935 124.46958 -20.300997 131.69098
639475000 -13.551051 134.28799 -9.6436453 -44.012344 -7.1821656 -55.712738
-9.6342335 -44.004177 -13.537489 130.00067 -7.2749362 123.18999
-7.1761642 -55.730801 -7.2786121 123.16226 -20.326561 130.61084
654462500 -13.57622 133.30261 -9.6303978 -45.071301 -7.1824322 -57.000011
-9.6220331 -45.069515 -13.56686 128.97432 -7.2750735 121.87987
-7.176157 -57.023346 -7.2773566 121.85203 -20.352102 129.59174
669450000 -13.600657 132.3338 -9.6172915 -46.142509 -7.1812034 -58.294209
-9.6086016 -46.135906 -13.598349 127.96008 -7.2744384 120.57362
-7.175952 -58.303692 -7.2767053 120.54211 -20.378283 128.60916
684437500 -13.627786 131.38489 -9.6053839 -47.206161 -7.1805129 -59.585224
-9.5958862 -47.195709 -13.632477 126.95634 -7.2730751 119.26103
-7.1759014 -59.586544 -7.2757869 119.23125 -20.401522 127.6261
699425000 -13.651672 130.4151 -9.5914259 -48.271526 -7.1785483 -60.879177
-9.5826349 -48.26651 -13.66722 125.9526 -7.2723722 117.94596
-7.1744685 -60.876232 -7.2735972 117.92531 -20.425795 126.64159
714412500 -13.675271 129.45221 -9.5780153 -49.332001 -7.1779876 -62.161827
-9.5708752 -49.325401 -13.7055 124.94808 -7.2719083 116.64332
-7.1740136 -62.162296 -7.2725968 116.61555 -20.46002 125.67831
729400000 -13.700943 128.48502 -9.5652142 -50.407867 -7.1764631 -63.460026
-9.5595608 -50.409512 -13.741914 123.91119 -7.2714415 115.32612
-7.1734424 -63.454678 -7.2714853 115.30308 -20.497177 124.72165
744387500 -13.723959 127.52346 -9.5532112 -51.490856 -7.1764865 -64.748672
-9.5466576 -51.485321 -13.775079 122.86963 -7.2691693 114.02155
-7.1726756 -64.750641 -7.269999 113.97793 -20.535763 123.6679
759375000 -13.748057 126.57732 -9.5410738 -52.564926 -7.175849 -66.04026
-9.5351067 -52.561253 -13.810205 121.84208 -7.2688441 112.70364
-7.1717067 -66.046745 -7.2681479 112.66667 -20.572958 122.6593
774362500 -13.773522 125.64872 -9.52707 -53.633778 -7.1738257 -67.334404
-9.5212269 -53.629848 -13.844795 120.80167 -7.2661014 111.39488
-7.1702781 -67.340118 -7.2664933 111.35533 -20.601057 121.62656
789350000 -13.80012 124.689 -9.5142374 -54.714378 -7.1736221 -68.632759
-9.5105648 -54.712242 -13.878839 119.76694 -7.2664557 110.08015
-7.169827 -68.638481 -7.2651181 110.03893 -20.628168 120.62942
804337500 -13.827064 123.74278 -9.5014038 -55.7896 -7.1720362 -69.9272
-9.498661 -55.799713 -13.91232 118.7255 -7.2652817 108.76345
-7.1682024 -69.940933 -7.2627368 108.72634 -20.650463 119.63641
819325000 -13.85043 122.80575 -9.4890766 -56.86956 -7.1695042 -71.218697
-9.4862099 -56.880482 -13.944118 117.70244 -7.2637901 107.45233
-7.1669259 -71.23349 -7.2613516 107.41142 -20.674374 118.68298
834312500 -13.875242 121.84407 -9.4760323 -57.944233 -7.1688628 -72.513573
-9.4748583 -57.963089 -13.97787 116.6781 -7.2630062 106.13754
-7.1664023 -72.538177 -7.2599092 106.10126 -20.701988 117.73488
849300000 -13.897753 120.87777 -9.4626179 -59.037792 -7.1673837 -73.813858
-9.4612741 -59.057476 -14.011164 115.64139 -7.2617936 104.8154
-7.1638184 -73.843842 -7.2584925 104.78657 -20.734236 116.80016
864287500 -13.923375 119.9365 -9.4509983 -60.127884 -7.1666341 -75.10685
-9.4504929 -60.148075 -14.044959 114.61311 -7.2613163 103.49809
-7.162818 -75.139023 -7.2574282 103.47099 -20.77009 115.86837
879275000 -13.947642 118.97687 -9.440033 -61.225365 -7.1647019 -76.409378
-9.4379997 -61.251984 -14.076382 113.56422 -7.2587123 102.17749
-7.1607485 -76.440552 -7.2550697 102.15119 -20.799051 114.86724
894262500 -13.971712 118.0621 -9.4268312 -62.313244 -7.1621985 -77.69973
-9.424058 -62.336246 -14.109231 112.54815 -7.2554617 100.86859
-7.1580367 -77.738075 -7.2520437 100.83821 -20.823271 113.8653
909250000 -13.996498 117.11114 -9.4135265 -63.391956 -7.159894 -79.002785
-9.4106703 -63.435661 -14.141792 111.52677 -7.2540994 99.54982
-7.1552658 -79.033669 -7.2497673 99.534142 -20.849226 112.85699
924237500 -14.018138 116.16018 -9.3990974 -64.480156 -7.1571512 -80.298851
-9.3969336 -64.524475 -14.171066 110.50315 -7.2517018 98.240707
-7.1528144 -80.332016 -7.2473602 98.221451 -20.86385 111.84573
939225000 -14.041547 115.1895 -9.3869772 -65.57782 -7.1550236 -81.596886
-9.3848724 -65.628441 -14.20295 109.47449 -7.2495317 96.917923
-7.1503973 -81.636841 -7.2449312 96.901543 -20.880005 110.85395
954212500 -14.06291 114.2526 -9.3739252 -66.668068 -7.1531096 -82.895309
-9.3708143 -66.719528 -14.234015 108.43515 -7.2467113 95.600777
-7.1474824 -82.934837 -7.2426953 95.589951 -20.897711 109.8656
969200000 -14.088611 113.30097 -9.3614378 -67.76664 -7.1516585 -84.19368
-9.3583069 -67.811119 -14.263657 107.39584 -7.2437778 94.288567
-7.1460977 -84.233574 -7.2403159 94.276802 -20.919767 108.95887
984187500 -14.112695 112.35329 -9.349288 -68.867744 -7.1507959 -85.499893
-9.3445301 -68.904671 -14.291204 106.35903 -7.2418704 92.965584
-7.1428037 -85.530632 -7.2380495 92.957993 -20.94458 108.06319
999175000 -14.135356 111.42485 -9.3373871 -69.961891 -7.1486478 -86.797798
-9.3321018 -70.004776 -14.315869 105.33362 -7.2382979 91.642258
-7.1406775 -86.828125 -7.2355742 91.641113 -20.972406 107.13409
1014162500 -14.159952 110.49957 -9.3260374 -71.057159 -7.1474304 -88.095825
-9.3208199 -71.092247 -14.341092 104.32764 -7.2371011 90.330193
-7.1394601 -88.118324 -7.2328978 90.324532 -21.00275 106.21424
1029150000 -14.180137 109.57715 -9.3136196 -72.154984 -7.1450424 -89.400284
-9.3069067 -72.182709 -14.367004 103.33041 -7.2324557 89.012794
-7.1364741 -89.418297 -7.2301908 89.009125 -21.034203 105.24259
1044137500 -14.205939 108.65918 -9.3013344 -73.249069 -7.1424708 -90.702393
-9.2949057 -73.273239 -14.392484 102.34637 -7.2296424 87.69117
-7.1349411 -90.720192 -7.2279763 87.690102 -21.066185 104.25937
1059125000 -14.230614 107.72031 -9.2887506 -74.350937 -7.1410961 -92.011421
-9.2828264 -74.375702 -14.419723 101.36811 -7.2278762 86.367706
-7.1330485 -92.020241 -7.226439 86.369255 -21.093571 103.27928
1074112500 -14.254972 106.80508 -9.2769966 -75.452118 -7.1396413 -93.302017
-9.2715216 -75.466232 -14.448904 100.39542 -7.2249656 85.053223
-7.1312938 -93.317932 -7.2239566 85.050217 -21.11215 102.3526
1089100000 -14.283507 105.88331 -9.2660179 -76.554848 -7.1373582 -94.602028
-9.2604198 -76.566254 -14.480392 99.412735 -7.2215667 83.736778
-7.1299567 -94.612366 -7.2220826 83.730476 -21.125963 101.43877
1104087500 -14.309146 104.95605 -9.2538471 -77.656914 -7.1350327 -95.903236
-9.2492447 -77.666077 -14.511268 98.428627 -7.2192044 82.421753
-7.1287937 -95.913223 -7.2197919 82.413635 -21.142906 100.57195
1119075000 -14.332847 104.03067 -9.2421484 -78.764687 -7.1308284 -97.200668
-9.2371292 -78.766716 -14.541326 97.460236 -7.2149167 81.103775
-7.1267943 -97.213966 -7.2165036 81.092186 -21.160385 99.720367
1134062500 -14.354236 103.11057 -9.2300987 -79.880692 -7.1283183 -98.507339
-9.2248039 -79.880394 -14.573389 96.485565 -7.2121658 79.777435
-7.12322 -98.519875 -7.2131491 79.762573 -21.184446 98.854446
1149050000 -14.377797 102.19859 -9.2192545 -80.990189 -7.1260581 -99.806129
-9.2138891 -80.982117 -14.608585 95.520554 -7.2082019 78.464249
-7.1219134 -99.823448 -7.2108541 78.434837 -21.207914 97.984375
1164037500 -14.402665 101.27779 -9.2071047 -82.099258 -7.1223521 -101.10707
-9.2020149 -82.083511 -14.641955 94.550766 -7.2052689 77.147964
-7.1186466 -101.12559 -7.2072453 77.112144 -21.230341 97.101791
1179025000 -14.425143 100.3601 -9.1951504 -83.211739 -7.1188736 -102.41042
-9.1895113 -83.195107 -14.674931 93.565407 -7.2010622 75.828072
-7.1156583 -102.43257 -7.2039647 75.786461 -21.25173 96.195564
1194012500 -14.452078 99.439201 -9.1833553 -84.325226 -7.1158395 -103.71416
-9.1786366 -84.311928 -14.70666 92.563896 -7.1980338 74.509247
-7.1149211 -103.73742 -7.2008142 74.457619 -21.267748 95.28746
1209000000 -14.476712 98.510468 -9.1701946 -85.43689 -7.1140618 -105.02721
-9.1667957 -85.419823 -14.737586 91.572968 -7.1962957 73.184433
-7.1132545 -105.04147 -7.1973462 73.133568 -21.28039 94.366547
1223987500 -14.503593 97.593277 -9.1592188 -86.548225 -7.1113257 -106.32568
-9.1559563 -86.527054 -14.768164 90.580872 -7.1928816 71.86763
-7.112114 -106.33951 -7.1946626 71.812866 -21.289045 93.537163
1238975000 -14.525173 96.661186 -9.1455784 -87.666794 -7.1073904 -107.63423
-9.1426773 -87.656837 -14.793531 89.592285 -7.1884675 70.539536
-7.1087689 -107.65665 -7.1899242 70.490738 -21.295967 92.740593
1253962500 -14.547898 95.737045 -9.1343689 -88.784294 -7.1047893 -108.94429
-9.1308079 -88.780106 -14.821026 88.616928 -7.1856985 69.21244
-7.1057515 -108.96786 -7.1862459 69.162537 -21.31526 91.924767
1268950000 -14.570041 94.820885 -9.1229868 -89.901093 -7.1025629 -110.25394
-9.1176805 -89.899086 -14.850389 87.657021 -7.182168 67.885498
-7.1020708 -110.2761 -7.1828485 67.845215 -21.332716 91.111816
1283937500 -14.595286 93.905815 -9.1112404 -91.014992 -7.1008782 -111.56165
-9.1065245 -91.016991 -14.878831 86.68615 -7.1800337 66.558914
-7.0993605 -111.58667 -7.179081 66.520981 -21.355555 90.305489
1298925000 -14.619022 92.997688 -9.0994949 -92.125404 -7.0976467 -112.86839
-9.0946541 -92.127136 -14.907994 85.736801 -7.1767163 65.229103
-7.0969524 -112.89312 -7.1764398 65.198265 -21.374397 89.478188
1313912500 -14.644285 92.082176 -9.0864725 -93.235809 -7.0942903 -114.17786
-9.0823803 -93.249802 -14.934856 84.788284 -7.1738462 63.897324
-7.0940681 -114.20292 -7.1723633 63.882004 -21.395752 88.6213
1328900000 -14.669692 91.174416 -9.076087 -94.356743 -7.0925002 -115.48515
-9.0701036 -94.369476 -14.964698 83.834183 -7.1700325 62.573685
-7.0916343 -115.51546 -7.1695018 62.555141 -21.412889 87.745239
1343887500 -14.693364 90.265747 -9.0637741 -95.470261 -7.0892868 -116.79651
-9.0579443 -95.490952 -14.993134 82.889359 -7.1666846 61.244591
-7.0887275 -116.82402 -7.1664367 61.234245 -21.426291 86.887123
1358875000 -14.717771 89.344254 -9.0514984 -96.582031 -7.0866132 -118.10311
-9.0463963 -96.603096 -15.021973 81.956383 -7.163249 59.916332
-7.0855336 -118.13799 -7.1624932 59.907188 -21.435272 86.066269
1373862500 -14.738944 88.439713 -9.0402317 -97.704834 -7.0830131 -119.40433
-9.0334454 -97.728073 -15.051055 81.02018 -7.1587539 58.597935
-7.0813165 -119.44808 -7.1593909 58.580315 -21.440622 85.300713
1388850000 -14.755268 87.540108 -9.0277376 -98.823708 -7.0802264 -120.71321
-9.0201426 -98.839088 -15.078483 80.058289 -7.1550398 57.270157
-7.0769019 -120.76224 -7.1547527 57.246876 -21.451204 84.497787
1403837500 -14.777909 86.640144 -9.0172195 -99.942406 -7.0773768 -122.02546
-9.009016 -99.948196 -15.109945 79.116035 -7.1513805 55.945217
-7.0745187 -122.07041 -7.1526589 55.914268 -21.465513 83.712898
1418825000 -14.799197 85.73307 -9.0052166 -101.06177 -7.0742488 -123.33539
-8.9966125 -101.06259 -15.139042 78.183617 -7.1474266 54.616886
-7.0715117 -123.3848 -7.1496644 54.585186 -21.48103 82.968201
1433812500 -14.820883 84.834694 -8.9925537 -102.18142 -7.0710058 -124.64427
-8.985713 -102.17574 -15.163941 77.23867 -7.1435065 53.29311
-7.0682783 -124.69408 -7.1447401 53.248814 -21.501728 82.189484
