! MARKI MICROWAVE INC.
! Email:             	info@markimicrowave.com   				Phone:   408-778-4200
! Model Number:      	BAL-0012SSG						Date:    04/20
! Filename:		BAL-0012SSG.S3P						Version: 1.0
! Description:       	3-port S-parameter data for Balun BAL-0012SMG
! Frequency Range: 	10 MHz to 12 GHz
! Port Configuration:	PORT 1: OUTPUT(0 DEGREE) , PORT 2: OUTPUT (180 DEGREE), PORT 3: COMMON


! S3P File: Measurements: Mag<S11> Ang<S11> Mag<S12> Ang<S12> Mag<S13> Ang<S13>! row 1 
!			  Mag<S21> Ang<S21> Mag<S22> Ang<S22> Mag<S23> Ang<S23>! row 2 
!			  Mag<S31> Ang<S31> Mag<S32> Ang<S32> Mag<S33> Ang<S33>! row 3 
# Hz S  dB   R 50 

10000000 -7.7711926 165.30348 -13.180391 15.467389 -8.0317965 -176.14848
-13.201034 15.464293 -7.7826009 164.84416 -8.1459503 4.0900698
-8.0435801 -176.27245 -8.1388273 4.4622073 -13.016995 160.99092
28737500 -8.7254095 171.19728 -12.666456 5.3409705 -7.9235091 179.69965
-12.663506 4.8883395 -8.6856556 171.06122 -7.9822216 -0.107623
-7.9165568 179.67123 -7.969038 -0.15583105 -14.069688 168.89432
47475000 -8.8339186 171.61945 -12.598596 1.7120329 -7.9079866 177.12842
-12.597412 1.7057203 -8.7893467 171.62019 -7.9792142 -2.5445406
-7.917634 177.16266 -7.9827104 -2.5120671 -14.310113 170.11699
66212500 -8.8780861 170.97374 -12.574678 -0.025732793 -7.9154115 175.26561
-12.564882 -0.30581093 -8.8075991 171.207 -7.9713988 -4.3913937
-7.9209604 175.25089 -7.9645448 -4.3508377 -14.317843 169.94716
84950000 -8.8626766 169.73262 -12.586329 -1.4893498 -7.9313178 173.53682
-12.572483 -1.4793984 -8.8136358 169.91191 -7.9872618 -6.0635343
-7.9144735 173.59554 -7.9675541 -6.0549765 -14.320468 169.26024
103687500 -8.8795366 168.10612 -12.586019 -2.6369812 -7.940588 171.94006
-12.584729 -2.7048047 -8.8097906 168.38319 -7.9938302 -7.5143342
-7.967257 171.99272 -7.9929852 -7.4255085 -14.342176 167.64993
122425000 -8.8888731 166.39693 -12.59067 -3.6321003 -7.9719443 170.37781
-12.594098 -3.8252218 -8.8222399 166.77644 -8.0134869 -9.1615324
-7.9575324 170.47141 -8.0018282 -8.95327 -14.354063 166.19206
141162500 -8.8879423 164.70811 -12.589316 -4.4718761 -7.9859543 168.90581
-12.592052 -4.3825159 -8.8295593 165.20949 -8.0290079 -10.411409
-7.9706759 168.84477 -8.0137768 -10.34808 -14.367592 164.66881
159900000 -8.8973494 162.95045 -12.54402 -5.1442089 -7.9920249 167.44154
-12.576062 -5.1780653 -8.8475218 163.62599 -8.0374975 -11.671541
-7.9898844 167.44467 -8.0292377 -11.762735 -14.362579 162.85965
178637500 -8.9229603 160.99222 -12.502605 -5.9857507 -7.9854698 165.94882
-12.494668 -5.9116435 -8.8657341 161.72781 -8.013711 -13.237497
-7.9868236 165.8887 -8.0131102 -13.342433 -14.35525 161.14337
197375000 -8.9470778 159.13564 -12.478763 -6.7938595 -8.000124 164.50714
-12.475043 -6.8098226 -8.9005461 159.87715 -8.0208359 -14.546881
-8.0084162 164.52052 -8.0275402 -14.586035 -14.391401 159.34132
216112500 -8.9957247 157.40099 -12.421318 -7.5111003 -8.0071335 163.05894
-12.426561 -7.5875897 -8.9156265 158.15981 -8.0335989 -16.041105
-7.9967575 162.99911 -8.0163527 -15.943277 -14.390108 157.42815
234850000 -9.0055304 155.53648 -12.363739 -8.2561531 -8.0081434 161.47913
-12.369672 -8.3367472 -8.9501925 156.37073 -8.0385685 -17.448654
-8.0112057 161.62651 -8.0249262 -17.308268 -14.441501 155.78369
253587500 -9.0512228 153.61188 -12.316172 -9.0292645 -8.008585 160.03845
-12.287164 -9.1364603 -8.9884863 154.69475 -8.0387049 -18.77721
-8.0196018 160.17928 -8.0253897 -18.7472 -14.489341 153.91547
272325000 -9.0723639 151.90929 -12.264351 -10.116334 -8.0066118 158.70198
-12.231649 -10.143342 -9.020442 152.80611 -8.0374126 -20.02816
-8.0034561 158.67247 -8.016201 -20.166187 -14.506714 152.03001
291062500 -9.1236162 150.09236 -12.16479 -10.956635 -8.0125828 157.31227
-12.184494 -10.858918 -9.0535011 151.11572 -8.0310574 -21.473145
-7.999485 157.31383 -8.0328856 -21.522663 -14.517629 150.47542
309800000 -9.1687889 148.29567 -12.113204 -11.870274 -8.0078421 155.75502
-12.11598 -11.738621 -9.0995617 149.37247 -8.0173759 -22.856724
-8.0138817 155.8119 -8.0160599 -22.79142 -14.566769 148.45299
328537500 -9.2269936 146.46997 -12.036393 -12.682116 -8.0261488 154.45752
-12.041203 -12.723195 -9.144474 147.77577 -8.0240965 -24.176268
-8.0197639 154.39615 -8.0134258 -24.189131 -14.619529 146.89035
347275000 -9.2655029 144.82689 -11.974091 -13.63728 -8.0246944 153.04201
-11.968406 -13.690891 -9.1865387 146.05728 -8.0183535 -25.512365
-8.0251789 152.97968 -8.0115871 -25.491671 -14.665724 145.06757
366012500 -9.3269424 142.93388 -11.916749 -14.649033 -8.0254526 151.6257
-11.91307 -14.586424 -9.2415524 144.39668 -8.0071096 -26.892509
-8.0266972 151.56377 -8.0081024 -26.88793 -14.702446 143.21114
384750000 -9.3685646 141.21724 -11.846622 -15.695804 -8.0251179 150.10744
-11.833881 -15.717679 -9.2918491 142.70329 -8.0092449 -28.348835
-8.0161047 150.13098 -8.0004015 -28.283712 -14.733145 141.30072
403487500 -9.4234781 139.44078 -11.744781 -16.904142 -8.0206327 148.71829
-11.768293 -16.871424 -9.3192511 140.94933 -8.0017338 -29.703606
-8.0249214 148.67012 -7.9867887 -29.740055 -14.747915 139.60767
422225000 -9.4795837 137.6707 -11.700274 -17.949528 -8.0190105 147.22543
-11.694388 -17.9098 -9.3836002 139.28656 -7.9949517 -31.015558
-8.0205364 147.222 -8.0029087 -31.090267 -14.798359 138.04807
440962500 -9.5430984 136.06233 -11.631743 -19.013035 -8.0202913 145.80109
-11.633974 -19.071337 -9.4277439 137.76741 -7.9853058 -32.518341
-8.0192575 145.80878 -7.9765658 -32.483974 -14.83123 136.17432
459700000 -9.5938969 134.31842 -11.550104 -20.129751 -8.0126104 144.38522
-11.556834 -20.080671 -9.4801445 136.1989 -7.9848723 -33.799244
-8.0153933 144.35925 -7.96521 -33.782543 -14.862682 134.49515
478437500 -9.6337357 132.65396 -11.473483 -21.257891 -8.0056267 142.91364
-11.477566 -21.256647 -9.5338192 134.39044 -7.9634151 -35.281761
-8.019784 142.96327 -7.9721456 -35.232399 -14.919544 132.68767
497175000 -9.6926098 130.80078 -11.395786 -22.429361 -7.9983907 141.52573
-11.421153 -22.507027 -9.5821075 132.85962 -7.9513421 -36.654877
-8.0094252 141.49152 -7.9619479 -36.681499 -14.949027 131.0269
515912500 -9.7543135 129.24336 -11.36036 -23.585747 -8.0155582 140.10048
-11.364349 -23.650358 -9.635067 131.21666 -7.9477472 -38.0266
-8.0152464 140.07991 -7.9468179 -38.022968 -15.027384 129.21494
534650000 -9.8214874 127.64294 -11.281827 -24.851061 -7.9988365 138.66
-11.291608 -24.90609 -9.6909819 129.73599 -7.9420204 -39.38781
-8.0060959 138.55165 -7.9405351 -39.428444 -15.049978 127.60432
553387500 -9.8813133 126.00989 -11.228148 -26.004114 -7.9934874 137.16527
-11.236089 -25.998592 -9.7542992 128.24699 -7.9455609 -40.783073
-8.0109186 137.18097 -7.9431157 -40.798714 -15.125401 125.81731
572125000 -9.936862 124.30845 -11.163688 -27.418501 -7.9977036 135.69661
-11.173043 -27.33083 -9.8052473 126.57537 -7.9243293 -42.249985
-8.0055914 135.74948 -7.930388 -42.227505 -15.166953 124.06519
590862500 -9.988719 122.76092 -11.097146 -28.608629 -7.996634 134.30626
-11.101426 -28.568329 -9.8498373 125.02518 -7.9193673 -43.651684
-7.9958453 134.26758 -7.91645 -43.68322 -15.233368 122.37713
609600000 -10.052723 121.11385 -11.042781 -29.925514 -7.9876046 132.85083
-11.041318 -29.878895 -9.9156437 123.60234 -7.9077363 -44.98465
-7.9962234 132.82141 -7.9114552 -45.041382 -15.302876 120.79446
628337500 -10.106052 119.51453 -10.986562 -31.193045 -7.9893026 131.47874
-10.986038 -31.191046 -9.9517126 122.10124 -7.8933463 -46.452206
-7.9816794 131.42711 -7.9068394 -46.45644 -15.320923 118.98343
647075000 -10.173306 117.9575 -10.936407 -32.40012 -7.9856901 129.99811
-10.933087 -32.414471 -10.012856 120.58127 -7.8907552 -47.824081
-7.9888039 130.00877 -7.8966918 -47.761379 -15.410048 117.15448
665812500 -10.229492 116.3801 -10.879544 -33.639679 -7.9824934 128.53551
-10.867166 -33.731419 -10.057959 119.03889 -7.8826981 -49.226044
-7.9874368 128.54662 -7.8833442 -49.213768 -15.441453 115.63583
684550000 -10.292206 114.9574 -10.828207 -35.034515 -7.9868808 127.13003
-10.832361 -35.036964 -10.116907 117.58772 -7.882967 -50.601166
-7.9781451 127.1704 -7.8795977 -50.642467 -15.517878 113.87514
703287500 -10.350733 113.36298 -10.774838 -36.282394 -7.9773974 125.67473
-10.771583 -36.275455 -10.175364 116.05418 -7.8754325 -52.033661
-7.9821391 125.70391 -7.8739829 -52.033504 -15.558407 112.13986
722025000 -10.411978 111.73316 -10.732473 -37.591637 -7.9697433 124.23904
-10.724957 -37.640072 -10.238709 114.67033 -7.8636637 -53.477024
-7.973434 124.26827 -7.8708024 -53.40736 -15.618317 110.48063
740762500 -10.487679 110.26238 -10.677748 -38.928043 -7.9626746 122.84454
-10.673998 -38.958973 -10.288321 113.15145 -7.8496671 -54.824516
-7.9643979 122.77476 -7.8582897 -54.848682 -15.689471 108.97061
759500000 -10.543908 108.7285 -10.626478 -40.300869 -7.9545112 121.39641
-10.63825 -40.240326 -10.344263 111.77419 -7.840507 -56.196922
-7.964602 121.33395 -7.844615 -56.271969 -15.739932 107.31806
778237500 -10.617842 107.23286 -10.582614 -41.549679 -7.9568167 119.9296
-10.585282 -41.614601 -10.405797 110.35516 -7.8424263 -57.649708
-7.9576421 119.96434 -7.8376117 -57.644146 -15.813622 105.56117
796975000 -10.658579 105.74088 -10.53364 -42.939045 -7.9582515 118.52943
-10.544068 -42.947083 -10.448569 108.97581 -7.8348556 -59.034649
-7.9487119 118.48972 -7.8200011 -59.080208 -15.865211 103.99979
815712500 -10.713596 104.27962 -10.486095 -44.274277 -7.9436936 117.00129
-10.504204 -44.306396 -10.497026 107.52271 -7.8204422 -60.523373
-7.9482741 117.01299 -7.8130326 -60.549339 -15.948593 102.33865
834450000 -10.775729 102.77251 -10.45328 -45.652668 -7.9347262 115.59076
-10.447259 -45.715553 -10.563365 106.11056 -7.805357 -61.910763
-7.9436803 115.55965 -7.8195162 -61.976414 -16.007341 100.5619
853187500 -10.838749 101.20338 -10.413516 -47.043812 -7.9348283 114.11244
-10.429076 -47.078003 -10.613216 104.65708 -7.8036423 -63.366631
-7.9399238 114.10028 -7.8070598 -63.354774 -16.072863 98.978348
871925000 -10.885919 99.796204 -10.371426 -48.36224 -7.9257145 112.67977
-10.37851 -48.374916 -10.670103 103.2888 -7.7937551 -64.761452
-7.9263172 112.694 -7.7894258 -64.765984 -16.131945 97.430527
890662500 -10.953712 98.306252 -10.330789 -49.795906 -7.9214635 111.18387
-10.343765 -49.754791 -10.720183 101.87785 -7.7889209 -66.234741
-7.9225836 111.22643 -7.7842107 -66.214119 -16.200518 95.6623
909400000 -11.012964 96.853569 -10.287734 -51.137703 -7.9041243 109.79218
-10.298465 -51.162231 -10.767965 100.51215 -7.7700205 -67.575829
-7.911943 109.77637 -7.7654533 -67.643578 -16.259962 94.310783
928137500 -11.072853 95.392708 -10.26534 -52.484226 -7.9068117 108.33479
-10.265256 -52.438202 -10.822629 99.116356 -7.769382 -69.024368
-7.9149861 108.31749 -7.7734437 -69.098145 -16.338854 92.52169
946875000 -11.131962 94.008461 -10.224713 -53.794678 -7.9005432 106.88449
-10.238032 -53.797405 -10.87984 97.719086 -7.7587085 -70.495499
-7.9146557 106.87727 -7.7586908 -70.478302 -16.397503 91.097969
965612500 -11.193938 92.52887 -10.199199 -55.265079 -7.8927159 105.40494
-10.203518 -55.232082 -10.930188 96.357574 -7.7556038 -71.919342
-7.9012203 105.45385 -7.7540889 -71.914421 -16.44792 89.396584
984350000 -11.256589 91.083733 -10.15694 -56.63232 -7.8953457 103.9486
-10.163406 -56.649982 -10.968987 94.950195 -7.7466388 -73.401962
-7.8923397 103.94462 -7.7411804 -73.374352 -16.543468 87.809975
1003087500 -11.303244 89.673302 -10.129159 -57.993328 -7.8789129 102.47076
-10.133228 -57.972904 -11.0166 93.615105 -7.7288685 -74.801552
-7.8815527 102.47001 -7.7286124 -74.80442 -16.61121 86.421532
1021825000 -11.357657 88.26992 -10.089279 -59.341976 -7.8791504 101.00729
-10.095407 -59.381611 -11.065362 92.349808 -7.7209601 -76.247078
-7.8802323 101.04716 -7.7249727 -76.223358 -16.690866 84.871956
1040562500 -11.430958 86.808212 -10.073203 -60.797344 -7.8671107 99.581947
-10.075329 -60.763332 -11.133449 90.963951 -7.70646 -77.641029
-7.8724961 99.545906 -7.7184062 -77.695328 -16.767183 83.161186
1059300000 -11.465077 85.379982 -10.042375 -62.129341 -7.859436 98.083603
-10.042423 -62.149506 -11.173667 89.61647 -7.70227 -79.109642
-7.8647642 98.06073 -7.7039943 -79.185013 -16.848734 81.679718
1078037500 -11.528353 84.08992 -10.001556 -63.428989 -7.8469057 96.644226
-10.001861 -63.526073 -11.210808 88.342461 -7.6840663 -80.572258
-7.8530378 96.645454 -7.6857314 -80.532768 -16.923065 80.195541
1096775000 -11.591616 82.623077 -9.9794044 -64.86573 -7.8490605 95.1595
-9.9789314 -64.864792 -11.26621 86.977997 -7.6839666 -81.985474
-7.8509998 95.224571 -7.690423 -81.95179 -17.011541 78.775612
1115512500 -11.639853 81.323799 -9.9488468 -66.263603 -7.8307266 93.757652
-9.9509106 -66.219231 -11.311165 85.686218 -7.670742 -83.393097
-7.8360515 93.744743 -7.672987 -83.426147 -17.066492 77.202438
1134250000 -11.703209 79.985352 -9.9242907 -67.673088 -7.8280492 92.271942
-9.9284248 -67.595879 -11.360332 84.306015 -7.6694937 -84.864182
-7.8324728 92.266571 -7.6693273 -84.914154 -17.169733 75.738159
1152987500 -11.75344 78.579514 -9.8861961 -69.012756 -7.81355 90.75296
-9.9004297 -69.008652 -11.404168 83.065849 -7.6525245 -86.334595
-7.828207 90.796776 -7.6596432 -86.364906 -17.231745 74.326851
1171725000 -11.816253 77.194496 -9.8651142 -70.348938 -7.8089261 89.335388
-9.8719196 -70.367081 -11.447804 81.792679 -7.6457319 -87.794098
-7.8154306 89.361732 -7.6475139 -87.748573 -17.313139 72.88401
1190462500 -11.866608 75.869766 -9.8463459 -71.772614 -7.8014107 87.881783
-9.8464079 -71.75106 -11.49811 80.531334 -7.6333842 -89.229271
-7.8021865 87.88446 -7.6357074 -89.210693 -17.412336 71.602356
1209200000 -11.924106 74.549141 -9.8197727 -73.11248 -7.7968278 86.414078
-9.8373289 -73.117561 -11.53655 79.232399 -7.6276727 -90.665092
-7.8066201 86.402977 -7.6290846 -90.62442 -17.516613 70.115753
1227937500 -11.955684 73.167946 -9.7919798 -74.582458 -7.7863207 84.899467
-9.7919044 -74.583687 -11.575563 77.928764 -7.6165066 -92.142632
-7.7908773 84.948006 -7.6098185 -92.135521 -17.579412 68.723297
1246675000 -12.02152 71.787048 -9.764102 -75.886757 -7.7824073 83.431755
-9.7747192 -75.892387 -11.619552 76.669342 -7.6074038 -93.589493
-7.783154 83.482819 -7.6065922 -93.539352 -17.709345 67.452126
1265412500 -12.0783 70.496216 -9.7470808 -77.289291 -7.773674 81.963943
-9.7548103 -77.281677 -11.673842 75.425972 -7.5953326 -94.975121
-7.7724681 81.977348 -7.5977411 -95.023705 -17.780418 65.893417
1284150000 -12.12059 69.188393 -9.7181463 -78.692085 -7.770443 80.483292
-9.7324638 -78.667854 -11.70651 74.067581 -7.5997643 -96.45784
-7.7665191 80.491051 -7.5829163 -96.503433 -17.877739 64.390427
1302887500 -12.185318 67.837311 -9.7081928 -80.079765 -7.7579827 79.057312
-9.7112827 -80.116081 -11.760822 72.81337 -7.5878906 -97.913795
-7.7635508 79.034508 -7.5774121 -97.900841 -17.985359 63.064873
1321625000 -12.246496 66.490768 -9.6840296 -81.385498 -7.755074 77.565903
-9.6915216 -81.434402 -11.803659 71.49865 -7.5800338 -99.376839
-7.7533822 77.539078 -7.5762162 -99.380951 -18.084867 61.667892
1340362500 -12.288299 65.163055 -9.6603251 -82.802338 -7.7419782 76.087959
-9.666316 -82.838043 -11.841848 70.317055 -7.5664978 -100.86928
-7.7474647 76.073936 -7.5663066 -100.82566 -18.190351 60.359695
1359100000 -12.340852 63.832722 -9.642005 -84.204155 -7.7367668 74.585732
-9.639698 -84.227234 -11.870753 69.108246 -7.5456805 -102.33414
-7.7363882 74.582413 -7.5587497 -102.2942 -18.271193 58.821461
1377837500 -12.382429 62.585918 -9.6242943 -85.615456 -7.7236848 73.099983
-9.6217432 -85.594719 -11.919281 67.803238 -7.5455222 -103.72174
-7.7294769 73.103683 -7.5558567 -103.77563 -18.366739 57.494633
1396575000 -12.436723 61.271442 -9.6083183 -86.910225 -7.7159038 71.571777
-9.6035967 -86.960327 -11.953869 66.569695 -7.5385046 -105.25357
-7.7144613 71.627739 -7.5370626 -105.21224 -18.471098 56.324093
1415312500 -12.495825 59.962982 -9.580183 -88.352158 -7.7107644 70.147041
-9.5821505 -88.340027 -11.993893 65.335358 -7.5357676 -106.66183
-7.7077661 70.111679 -7.5224862 -106.71027 -18.569313 55.028355
1434050000 -12.555378 58.724361 -9.5591831 -89.674461 -7.7002306 68.6828
-9.5591259 -89.717415 -12.036563 64.195099 -7.5223904 -108.1313
-7.704155 68.698334 -7.5307546 -108.17292 -18.691284 53.939781
1452787500 -12.593353 57.401573 -9.5391912 -91.111725 -7.6971121 67.174011
-9.5487547 -91.132698 -12.070811 62.903149 -7.5204043 -109.65192
-7.6971035 67.179543 -7.5121107 -109.66242 -18.809359 52.518986
1471525000 -12.66066 56.075542 -9.5333042 -92.432442 -7.6834168 65.685844
-9.5288029 -92.416016 -12.12429 61.649071 -7.4999738 -111.05872
-7.6896114 65.654282 -7.5108037 -111.08398 -18.933662 51.212826
1490262500 -12.700129 54.871738 -9.502903 -93.78862 -7.6765924 64.190445
-9.5135794 -93.814278 -12.156102 60.488079 -7.494277 -112.51541
-7.6789246 64.227722 -7.4967985 -112.51601 -19.045284 50.089024
1509000000 -12.754468 53.56921 -9.4978609 -95.212631 -7.6746964 62.71162
-9.4974327 -95.193146 -12.200933 59.17691 -7.4961438 -114.0094
-7.6752033 62.716137 -7.4868431 -114.02689 -19.168236 48.743263
1527737500 -12.805421 52.210274 -9.4797935 -96.599571 -7.6656547 61.236248
-9.4762335 -96.574173 -12.237874 58.001945 -7.4812765 -115.46051
-7.6644688 61.269085 -7.4936361 -115.46127 -19.269335 47.350956
1546475000 -12.858771 50.952652 -9.4587355 -97.983543 -7.6598487 59.702854
-9.4632702 -97.964958 -12.269342 56.731194 -7.4832191 -116.99944
-7.6540003 59.719677 -7.4750319 -116.96802 -19.388708 45.997372
1565212500 -12.908501 49.659794 -9.4417276 -99.349396 -7.6609421 58.245674
-9.4505234 -99.372452 -12.305462 55.548832 -7.4695268 -118.43504
-7.6494756 58.241596 -7.467556 -118.4352 -19.50849 44.772705
1583950000 -12.972163 48.431263 -9.4309664 -100.70926 -7.6497765 56.753246
-9.4386711 -100.68155 -12.33812 54.385742 -7.469099 -119.89281
-7.6486278 56.750786 -7.4616146 -119.86944 -19.610973 43.569305
1602687500 -13.033051 47.143692 -9.4059687 -102.09599 -7.635366 55.293938
-9.4134111 -102.07289 -12.373366 53.206291 -7.4549336 -121.3413
-7.64884 55.282089 -7.4555483 -121.38756 -19.709272 42.590202
1621425000 -13.077014 45.859108 -9.3968906 -103.45064 -7.6306477 53.79871
-9.3993034 -103.39318 -12.411361 51.974735 -7.4523315 -122.82504
-7.6396437 53.793819 -7.4502258 -122.83649 -19.851505 41.510166
1640162500 -13.114556 44.569191 -9.3805618 -104.79838 -7.6204648 52.312408
-9.379859 -104.80261 -12.452775 50.820591 -7.4417958 -124.34339
-7.6267715 52.284069 -7.440558 -124.3204 -20.000032 40.135471
1658900000 -13.170549 43.347214 -9.3619251 -106.19796 -7.6124301 50.763332
-9.3682709 -106.17062 -12.473369 49.606239 -7.4332399 -125.80988
-7.6219187 50.794804 -7.4331422 -125.80934 -20.10848 39.13213
1677637500 -13.226479 42.168346 -9.3430605 -107.51929 -7.5999498 49.322655
-9.3487206 -107.52765 -12.518269 48.480446 -7.4252844 -127.25419
-7.6113491 49.332558 -7.4316864 -127.26077 -20.232033 38.145844
1696375000 -13.268126 40.952377 -9.3281422 -108.94282 -7.592308 47.808659
-9.3361769 -108.87634 -12.55156 47.305973 -7.4242096 -128.70439
-7.6037083 47.840641 -7.424067 -128.76512 -20.362246 37.156834
1715112500 -13.319548 39.640545 -9.3138828 -110.20975 -7.5951991 46.338501
-9.3218269 -110.27092 -12.590525 46.168884 -7.4178019 -130.18233
-7.595408 46.309868 -7.4089952 -130.18764 -20.474297 36.054565
1733850000 -13.370937 38.305519 -9.3017807 -111.64436 -7.5884542 44.828033
-9.3069401 -111.61137 -12.612922 44.823738 -7.4071894 -131.69833
-7.5915213 44.827759 -7.4039006 -131.76797 -20.60153 35.035629
1752587500 -13.419106 37.173584 -9.2935219 -112.98539 -7.5684066 43.348961
-9.2862568 -113.01218 -12.646563 43.691898 -7.3918138 -133.1312
-7.5842071 43.305874 -7.403635 -133.19258 -20.755007 33.931709
1771325000 -13.452807 35.947506 -9.2706728 -114.38802 -7.5686111 41.844604
-9.275713 -114.32533 -12.685984 42.529526 -7.3958545 -134.65091
-7.5735226 41.817101 -7.3939176 -134.69301 -20.894073 32.896984
1790062500 -13.499594 34.752316 -9.2536469 -115.70413 -7.5683837 40.332314
-9.2543087 -115.72394 -12.710571 41.515671 -7.3820152 -136.17482
-7.5679903 40.347553 -7.385282 -136.14346 -20.990545 32.015923
