! MARKI MICROWAVE INC.
! Email:             	info@markimicrowave.com   				Phone:   408-778-4200
! Model Number:      	BAL-0067						Date:    10/14
! Filename:		BAL-0067.S3P						Version: 1.0
! Description:       	3-port S-parameter data for Balun BAL-0067
! Frequency Range: 	10 MHz to 67 GHz		
! Port Configuration:	PORT 1: OUTPUT (0 DEGREE), PORT 2: OUTPUT (180 DEGREE), PORT 3: COMMON


! S3P File: Measurements: Mag<S11> Ang<S11> Mag<S12> Ang<S12> Mag<S13> Ang<S13>! row 1 
!			  Mag<S21> Ang<S21> Mag<S22> Ang<S22> Mag<S23> Ang<S23>! row 2 
!			  Mag<S31> Ang<S31> Mag<S32> Ang<S32> Mag<S33> Ang<S33>! row 3 
# Hz S  dB   R 50
10000000 -26.58322 13.292331 -9.9677916 149.74754 -5.5028019 -23.618431
-9.9421291 149.73364 -19.19142 158.00093 -5.9412694 159.31635
-5.4993954 -23.271093 -5.9552884 159.64191 -13.066213 173.62766
93737500 -25.049053 7.1664591 -10.18626 138.1823 -5.6113148 -31.966856
-10.165059 138.17676 -18.416941 156.19516 -5.925765 150.62387
-5.610661 -31.667625 -5.9392843 150.8985 -12.514064 169.26512
177475000 -23.47237 -0.51739192 -10.448565 124.87984 -5.7131367 -41.589714
-10.431331 124.88058 -17.599703 153.10176 -5.9169722 140.52393
-5.7156091 -41.34206 -5.930778 140.74886 -11.960211 163.6824
261212500 -21.865067 -9.7251186 -10.755613 109.8598 -5.8038378 -52.522373
-10.742725 109.86362 -16.760201 148.74542 -5.9136033 129.03444
-5.8101969 -52.323948 -5.9269867 129.20824 -11.421993 156.88948
344950000 -20.237932 -20.414885 -11.107297 93.124443 -5.8816414 -64.791435
-11.099068 93.135971 -15.908225 143.0988 -5.9147849 116.16812
-5.8903875 -64.646584 -5.9267035 116.29018 -10.912687 148.89818
428687500 -18.600168 -32.542297 -11.506355 74.701576 -5.946116 -78.431099
-11.503379 74.709885 -15.052477 136.21651 -5.9182944 101.9306
-5.9574251 -78.338318 -5.9295382 102.00359 -10.44189 139.74428
512425000 -16.959417 -46.038593 -11.957832 54.584702 -5.9973001 -93.461273
-11.96006 54.596771 -14.199551 128.07118 -5.9227381 86.324295
-6.0108562 -93.415939 -5.9329238 86.345428 -10.020267 129.4232
596162500 -15.953588 -62.433865 -12.425504 35.10154 -6.0134878 -108.22292
-12.42959 35.126579 -13.624095 115.34483 -5.9096346 70.881317
-6.0269146 -108.18033 -5.9185214 70.897324 -9.7884445 117.28849
679900000 -15.339197 -78.788109 -12.929311 15.901767 -5.9899235 -122.92832
-12.933398 15.921612 -13.211054 101.96805 -5.9123459 55.409771
-6.0039411 -122.88752 -5.9232235 55.428223 -9.7795401 104.38488
763637500 -14.941856 -94.710518 -13.471226 -3.0418804 -5.9299169 -137.70493
-13.47419 -3.0252147 -12.940595 88.360374 -5.9282355 39.998055
-5.9449234 -137.66417 -5.9397326 40.021641 -9.973918 91.218452
847375000 -14.665363 -110.08067 -14.049468 -21.741627 -5.8431416 -152.63116
-14.051778 -21.722261 -12.786468 74.696716 -5.9465384 24.683729
-5.8577356 -152.58865 -5.9582729 24.705402 -10.349066 77.948738
931112500 -14.466139 -124.91363 -14.668431 -40.211388 -5.7414865 -167.73848
-14.671911 -40.188118 -12.734034 61.108707 -5.9612041 9.4397802
-5.7550578 -167.69041 -5.9723473 9.4620266 -10.892241 64.591194
1014850000 -14.320831 -139.26042 -15.334015 -58.420063 -5.6338606 176.97385
-15.337322 -58.402817 -12.767569 47.606823 -5.9670205 -5.753581
-5.6475887 177.01611 -5.9770346 -5.7362032 -11.603381 51.09127
1098587500 -14.19437 -153.12221 -16.052315 -76.321213 -5.5301132 161.5079
-16.055946 -76.308723 -12.877178 34.230736 -5.9633117 -20.938627
-5.5430965 161.54726 -5.9712763 -20.923079 -12.498956 37.25629
1182325000 -14.069955 -166.55025 -16.828753 -93.830681 -5.4353795 145.90247
-16.834227 -93.810204 -13.052448 20.944038 -5.9505253 -36.128704
-5.4470811 145.93813 -5.9578204 -36.118847 -13.607575 22.804073
1266062500 -13.937905 -179.62115 -17.665928 -110.81596 -5.3536949 130.18188
-17.671675 -110.78761 -13.279318 7.7688107 -5.9308057 -51.346039
-5.3656211 130.22179 -5.9389582 -51.333042 -14.956455 7.2274671
1349800000 -13.79628 167.59116 -18.551327 -127.13721 -5.2864985 114.39141
-18.55648 -127.10866 -13.554255 -5.337358 -5.9063745 -66.590134
-5.2984695 114.43133 -5.914382 -66.58062 -16.523188 -10.524244
1433537500 -13.635243 155.00873 -19.471973 -142.60808 -5.2343612 98.556038
-19.475103 -142.58144 -13.864233 -18.339115 -5.878109 -81.859924
-5.2464089 98.586746 -5.8868108 -81.853897 -18.086538 -31.245159
1517275000 -13.463512 142.53372 -20.390989 -157.17795 -5.1968908 82.693321
-20.392332 -157.16045 -14.202069 -31.189001 -5.8478346 -97.164673
-5.2089643 82.731476 -5.8569603 -97.155128 -19.442465 -54.060825
1601012500 -13.285696 130.05904 -21.273567 -170.78981 -5.1725287 66.826653
-21.275423 -170.77692 -14.560766 -43.889347 -5.8172235 -112.49575
-5.1844826 66.868034 -5.8256373 -112.48872 -20.561663 -77.845062
1684750000 -13.110934 117.56234 -22.072973 176.48318 -5.159924 50.978378
-22.073837 176.48648 -14.931831 -56.417812 -5.7853608 -127.84572
-5.1720729 51.018215 -5.7939353 -127.83725 -21.457451 -102.00515
1768487500 -12.950974 104.94913 -22.766541 164.43153 -5.157939 35.149147
-22.770201 164.444 -15.301778 -68.741684 -5.7532377 -143.22003
-5.169847 35.189335 -5.7615366 -143.21039 -22.144121 -126.12505
1852225000 -12.820604 92.196213 -23.337114 152.88844 -5.1631684 19.354189
-23.337418 152.90074 -15.655635 -80.885269 -5.7207294 -158.61371
-5.1754203 19.386944 -5.7283959 -158.60851 -22.634012 -149.91364
1935962500 -12.734558 79.34201 -23.768023 141.62279 -5.1760392 3.5897713
-23.770773 141.65492 -15.97254 -92.82502 -5.6872401 -174.03267
-5.1877551 3.626895 -5.6953015 -174.02409 -22.909716 -173.14189
2019700000 -12.702494 66.370193 -24.06291 130.45778 -5.1932425 -12.138231
-24.067701 130.51321 -16.247124 -104.58968 -5.6534472 170.53036
-5.2046704 -12.095849 -5.6608524 170.53677 -22.936373 164.40366
2103437500 -12.73848 53.320343 -24.226755 119.19082 -5.2151785 -27.823765
-24.228249 119.21591 -16.452299 -116.25061 -5.6197205 155.0674
-5.2263575 -27.782087 -5.6275878 155.07899 -22.682201 143.02542
2187175000 -12.847034 40.276989 -24.259129 107.57909 -5.2389984 -43.472538
-24.262033 107.5862 -16.588999 -127.76944 -5.5859818 139.57939
-5.249836 -43.426781 -5.5928679 139.59578 -22.105604 123.24048
2270912500 -13.01901 27.291592 -24.188131 95.423141 -5.2644939 -59.089348
-24.191254 95.428375 -16.646719 -139.22066 -5.5523758 124.06847
-5.2750659 -59.036972 -5.5585227 124.08924 -21.220285 105.97649
2354650000 -13.256927 14.357621 -24.026272 82.516449 -5.2910504 -74.673416
-24.029831 82.535965 -16.632366 -150.58713 -5.5210867 108.52338
-5.3018188 -74.609131 -5.5259805 108.55409 -20.247644 91.980507
2438387500 -13.551854 1.4973679 -23.819519 68.794983 -5.3173418 -90.214836
-23.82449 68.803139 -16.552994 -161.97908 -5.4905467 92.960869
-5.3269868 -90.148605 -5.4943109 92.991829 -19.400019 80.268852
2522125000 -13.890902 -11.205459 -23.606058 54.135963 -5.3416133 -105.73167
-23.613167 54.16177 -16.415413 -173.36473 -5.4619017 77.37117
-5.3509569 -105.65397 -5.4642138 77.40815 -18.700834 69.656029
2605862500 -14.263206 -23.830961 -23.439051 38.616859 -5.3634372 -121.22358
-23.451988 38.666725 -16.237297 175.23174 -5.4355025 61.756496
-5.3718495 -121.13481 -5.4365864 61.798031 -18.151064 59.481865
2689600000 -14.655317 -36.31786 -23.352221 22.474953 -5.3825169 -136.69618
-23.3634 22.502405 -16.032118 163.81601 -5.4123545 46.124615
-5.3911142 -136.60332 -5.4133325 46.164127 -17.737253 49.333351
2773337500 -15.044694 -48.67984 -23.361509 5.828136 -5.3992538 -152.16275
-23.375082 5.843565 -15.816408 152.40578 -5.3917341 30.471537
-5.4077864 -152.0584 -5.3925796 30.519434 -17.440811 38.872025
2857075000 -15.408587 -61.012272 -23.489405 -11.094972 -5.4118137 -167.62404
-23.504068 -11.10095 -15.606238 141.06442 -5.3735194 14.80498
-5.4212527 -167.51715 -5.3750014 14.855841 -17.276777 27.81995
2940812500 -15.739207 -73.35746 -23.739557 -28.102842 -5.4228077 176.91959
-23.753891 -28.135294 -15.409378 129.86041 -5.3592639 -0.87446153
-5.4329386 177.0275 -5.3616176 -0.81934232 -17.283499 16.0273
3024550000 -16.010481 -85.753799 -24.111614 -44.969795 -5.4315343 161.45262
-24.130196 -44.951656 -15.239141 118.92461 -5.3491802 -16.563902
-5.4414601 161.57249 -5.3509917 -16.507626 -17.460339 3.194021
3108287500 -16.210175 -98.338058 -24.619783 -61.373158 -5.4380007 145.98392
-24.631783 -61.35096 -15.096633 108.28258 -5.342001 -32.259129
-5.4492798 146.1017 -5.3447685 -32.207123 -17.836355 -11.09367
3192025000 -16.33935 -111.14208 -25.232603 -77.090775 -5.4427123 130.50414
-25.243206 -77.093742 -14.976452 98.034454 -5.3396535 -47.965641
-5.4547796 130.62422 -5.3431373 -47.912121 -18.408995 -27.280788
3275762500 -16.397058 -124.14606 -25.917421 -91.840126 -5.4463739 115.00896
-25.924089 -91.87899 -14.874102 88.17347 -5.3400474 -63.67131
-5.4588037 115.12959 -5.3449392 -63.620186 -19.089539 -45.821693
3359500000 -16.375364 -137.36871 -26.615534 -105.37411 -5.4510989 99.495903
-26.618032 -105.40751 -14.774749 78.67643 -5.3454461 -79.379555
-5.464488 99.613625 -5.3516378 -79.331566 -19.735867 -66.565819
3443237500 -16.290989 -150.84612 -27.276594 -117.80818 -5.4577374 83.965439
-27.276478 -117.84859 -14.674015 69.497757 -5.3556771 -95.086319
-5.471632 84.079346 -5.363225 -95.045647 -20.267065 -88.999023
3526975000 -16.151525 -164.47713 -27.838583 -129.39665 -5.4680567 68.425606
-27.832455 -129.44977 -14.560223 60.528149 -5.3714762 -110.78358
-5.4818935 68.533646 -5.3788557 -110.74995 -20.663401 -112.38693
3610712500 -15.963098 -178.27063 -28.259138 -140.30821 -5.4812474 52.881123
-28.254118 -140.32704 -14.428322 51.691364 -5.3920145 -126.47427
-5.4958053 52.991211 -5.4000196 -126.43859 -20.923889 -136.32191
3694450000 -15.748551 167.81537 -28.550573 -150.84026 -5.4974933 37.341972
-28.540907 -150.81215 -14.277958 42.86874 -5.4167175 -142.14511
-5.512176 37.450691 -5.4255233 -142.11136 -21.061354 -160.48029
3778187500 -15.530369 153.91852 -28.699188 -161.13698 -5.5179176 21.813532
-28.686144 -161.10532 -14.115108 33.94368 -5.4471736 -157.79109
-5.5322943 21.922359 -5.4554176 -157.76364 -21.08172 175.47021
3861925000 -15.313929 140.12498 -28.70072 -171.41621 -5.5403891 6.3020878
-28.686642 -171.38164 -13.939487 24.809174 -5.4796624 -173.41116
-5.5543242 6.4111109 -5.4877443 -173.3876 -20.974972 151.71948
3945662500 -15.123418 126.48625 -28.556019 178.06364 -5.5635967 -9.1895924
-28.537348 178.08499 -13.760612 15.371923 -5.5137129 170.99654
-5.5785651 -9.0847683 -5.5232363 171.01863 -20.740074 128.65503
4029400000 -14.972582 113.17043 -28.25865 167.03824 -5.5884094 -24.660597
-28.24361 167.08057 -13.591708 5.5337095 -5.5503035 155.43481
-5.6030054 -24.556253 -5.5592804 155.45442 -20.372486 106.78437
4113137500 -14.85632 100.26814 -27.84231 155.32384 -5.6133738 -40.112797
-27.829666 155.4019 -13.447796 -4.74966 -5.5867271 139.90239
-5.6266913 -40.009899 -5.5946665 139.91414 -19.8923 86.756378
4196875000 -14.778444 87.801048 -27.337437 142.6057 -5.6369534 -55.547234
-27.329624 142.72424 -13.343091 -15.53184 -5.6230183 124.39083
-5.649817 -55.443241 -5.6297598 124.39796 -19.379515 69.189247
4280612500 -14.746152 75.836906 -26.803196 128.62549 -5.6576357 -70.965446
-26.79862 128.77376 -13.286367 -26.79155 -5.6577692 108.90034
-5.6708565 -70.859047 -5.6645131 108.90916 -18.969614 54.125008
4364350000 -14.743413 64.421867 -26.29384 113.56652 -5.6771493 -86.371681
-26.288956 113.71059 -13.28976 -38.495636 -5.6909904 93.425507
-5.689003 -86.266457 -5.6969709 93.439171 -18.740841 41.284954
4448087500 -14.762364 53.498924 -25.861597 97.644974 -5.6934881 -101.77232
-25.860352 97.774902 -13.350836 -50.602619 -5.7221642 77.962334
-5.7054086 -101.66532 -5.7286835 77.975182 -18.675737 30.071472
4531825000 -14.800054 42.9944 -25.545933 81.006424 -5.7073298 -117.17046
-25.545473 81.104813 -13.472753 -63.050995 -5.7517343 62.51022
-5.7190061 -117.06535 -5.7578139 62.51395 -18.737822 20.129429
4615562500 -14.84489 32.897541 -25.343958 64.000359 -5.7191582 -132.56706
-25.351233 64.04335 -13.643723 -75.748817 -5.7805123 47.059689
-5.730135 -132.46118 -5.7861958 47.05611 -18.899363 11.21022
4699300000 -14.88419 23.053452 -25.262705 46.705521 -5.7282853 -147.97334
-25.274336 46.743492 -13.852364 -88.651459 -5.8080931 31.607159
-5.7394075 -147.86507 -5.8130312 31.605778 -19.124577 3.0351915
4783037500 -14.922977 13.338618 -25.299707 29.388094 -5.7365561 -163.39021
-25.315371 29.434237 -14.081407 -101.68902 -5.8354373 16.152571
-5.7470331 -163.27925 -5.8410568 16.154211 -19.386921 -4.731524
4866775000 -14.960098 3.70506 -25.450878 12.250283 -5.743957 -178.81616
-25.469355 12.283819 -14.319366 -114.78249 -5.8637762 0.69989896
-5.7538962 -178.70383 -5.8676329 0.70231503 -19.689955 -12.276328
4950512500 -14.982464 -6.0059032 -25.712685 -4.5809412 -5.7491961 165.74693
-25.731098 -4.5785103 -14.540194 -127.90015 -5.8912563 -14.746394
-5.7589355 165.86505 -5.8959103 -14.745012 -20.022102 -19.891281
5034250000 -15.013432 -15.940716 -26.058058 -20.948521 -5.7536736 150.3036
-26.077229 -20.951012 -14.734292 -140.98245 -5.9196892 -30.188248
-5.7640076 150.42075 -5.9248872 -30.183582 -20.385025 -27.953714
5117987500 -15.056389 -26.150673 -26.472065 -36.664585 -5.7585196 134.85071
-26.49357 -36.707279 -14.880107 -154.03922 -5.9479132 -45.62175
-5.7686739 134.96742 -5.9534745 -45.621597 -20.809111 -36.761185
5201725000 -15.109464 -36.718124 -26.93984 -51.625134 -5.7618804 119.38187
-26.961632 -51.669548 -14.973355 -166.97958 -5.9766331 -61.050583
-5.7726011 119.50453 -5.9823608 -61.05241 -21.297802 -46.681458
5285462500 -15.191606 -47.792255 -27.409821 -65.776031 -5.7651482 103.90601
-27.427898 -65.820114 -15.002187 -179.87445 -6.0058689 -76.468407
-5.7778382 104.03378 -6.0132394 -76.4729 -21.845726 -58.365749
5369200000 -15.314359 -59.331039 -27.849161 -79.158127 -5.7698026 88.418449
-27.866634 -79.181007 -14.960936 167.36064 -6.0359707 -91.877762
-5.7828512 88.549118 -6.043386 -91.882339 -22.429064 -72.365967
5452937500 -15.476834 -71.332123 -28.22048 -91.883049 -5.7755461 72.919876
-28.240582 -91.872192 -14.854305 154.66295 -6.0669394 -107.28059
-5.7878523 73.053856 -6.0738502 -107.27752 -22.983036 -88.782669
5536675000 -15.684324 -83.854408 -28.505318 -104.12719 -5.7819533 57.408295
-28.521292 -104.0884 -14.682347 142.07857 -6.0974874 -122.66718
-5.7952414 57.542561 -6.1052608 -122.65993 -23.410461 -107.31141
5620412500 -15.945907 -96.825279 -28.690495 -115.98125 -5.7898674 41.888126
-28.705172 -115.92984 -14.457824 129.59903 -6.1277666 -138.04152
-5.802907 42.024483 -6.1355934 -138.03592 -23.693979 -127.47775
5704150000 -16.234499 -110.1005 -28.776875 -127.70794 -5.7990255 26.36595
-28.785791 -127.67197 -14.194207 117.23028 -6.1584392 -153.39699
-5.8130989 26.502251 -6.1662164 -153.38977 -23.846703 -148.6394
5787887500 -16.540682 -123.73215 -28.754667 -139.4642 -5.8103657 10.83919
-28.760303 -139.41368 -13.905181 104.95638 -6.1878576 -168.73569
-5.8246737 10.97854 -6.1967087 -168.7323 -23.863091 -170.42867
5871625000 -16.86384 -137.54924 -28.626369 -151.40503 -5.824903 -4.68822
-28.63413 -151.33104 -13.610039 92.796509 -6.217618 175.94087
-5.838594 -4.5480771 -6.2261214 175.94231 -23.757524 167.45749
5955362500 -17.166904 -151.42004 -28.405317 -163.77339 -5.8419857 -20.213093
-28.410454 -163.68909 -13.321861 80.753189 -6.2457972 160.634
-5.855206 -20.073631 -6.2547169 160.63246 -23.53367 145.40756
6039100000 -17.435093 -165.36147 -28.115431 -176.65808 -5.8603506 -35.732071
-28.119358 -176.54677 -13.055651 68.862061 -6.2730045 145.34654
-5.8734846 -35.59333 -6.2825775 145.34952 -23.177013 123.7386
6122837500 -17.65519 -179.27382 -27.766779 169.791 -5.8821378 -51.24271
-27.76969 169.88498 -12.82197 57.09972 -6.2984724 130.07909
-5.8940101 -51.108429 -6.3075056 130.08038 -22.691669 102.78563
6206575000 -17.803404 166.9922 -27.407858 155.49553 -5.9053154 -66.744827
-27.41547 155.61566 -12.627305 45.521534 -6.321743 114.82682
-5.9160304 -66.613251 -6.3295922 114.82793 -22.088854 83.093155
6290312500 -17.863649 153.36124 -27.07815 140.55098 -5.9285121 -82.232124
-27.083292 140.66643 -12.476133 34.118843 -6.341207 99.593872
-5.9386191 -82.099854 -6.3485456 99.592278 -21.416655 65.225357
6374050000 -17.842772 139.90659 -26.805553 125.0052 -5.9511161 -97.705559
-26.80374 125.12616 -12.366744 22.941832 -6.3548546 84.374771
-5.9622588 -97.571724 -6.3638692 84.369278 -20.766644 49.274445
6457787500 -17.73568 126.69882 -26.598307 109.04886 -5.9751601 -113.16462
-26.597795 109.15987 -12.302163 11.958596 -6.3657107 69.164543
-5.9858041 -113.02917 -6.374218 69.15863 -20.247532 34.958012
6541525000 -17.535982 113.71384 -26.478683 92.810791 -5.9983482 -128.60895
-26.476698 92.934967 -12.275664 1.1854101 -6.3728571 53.959667
-6.0088615 -128.47046 -6.3817744 53.958664 -19.890297 21.887325
6625262500 -17.271717 100.89014 -26.439917 76.454437 -6.0214944 -144.04823
-26.4398 76.585396 -12.284678 -9.3987331 -6.3742914 38.752075
-6.0315156 -143.9045 -6.3834677 38.751205 -19.68272 9.5973511
6709000000 -16.951338 88.313293 -26.481644 60.13673 -6.0435519 -159.47508
-26.486547 60.284378 -12.319318 -19.841976 -6.3720946 23.539932
-6.0531802 -159.33185 -6.3792005 23.545702 -19.62821 -2.2440808
6792737500 -16.589708 75.890114 -26.606096 44.0508 -6.0649257 -174.89319
-26.604555 44.209778 -12.378315 -30.161514 -6.364625 8.3206244
-6.0748844 -174.75119 -6.3724098 8.3287573 -19.710472 -13.912014
6876475000 -16.207378 63.548393 -26.794077 28.316761 -6.0838809 169.69295
-26.796528 28.509668 -12.453342 -40.462257 -6.3518863 -6.9153814
-6.0956793 169.83812 -6.3610282 -6.9016347 -19.92437 -25.675566
6960212500 -15.825381 51.369579 -27.026936 13.025637 -6.1032147 154.28003
-27.028564 13.186075 -12.540923 -50.77702 -6.3369069 -22.170799
-6.114779 154.4267 -6.3452058 -22.154846 -20.256094 -37.910801
7043950000 -15.463203 39.274551 -27.295712 -1.7380624 -6.1219029 138.87326
-27.297129 -1.5324116 -12.633814 -61.203453 -6.3182716 -37.44746
-6.133287 139.02197 -6.3264303 -37.430984 -20.691252 -50.965832
7127687500 -15.135018 27.230785 -27.5602 -15.925478 -6.139255 123.47056
-27.562044 -15.72401 -12.727096 -71.763245 -6.2966495 -52.748535
-6.1509247 123.62137 -6.3051772 -52.732479 -21.207102 -65.165611
7211425000 -14.859351 15.299209 -27.794575 -29.620317 -6.156836 108.06411
-27.793713 -29.424862 -12.829461 -82.543976 -6.2736483 -68.079857
-6.1684952 108.2216 -6.2823391 -68.057449 -21.739025 -80.922813
7295162500 -14.639359 3.4628406 -27.986744 -42.865009 -6.1748595 92.659355
-27.986214 -42.685982 -12.934071 -93.588943 -6.2506366 -83.437157
-6.185698 92.819077 -6.2586265 -83.408318 -22.222664 -98.252724
7378900000 -14.474331 -8.2731562 -28.114773 -55.74921 -6.1915565 77.257202
-28.11252 -55.59763 -13.043156 -104.95123 -6.2262473 -98.819328
-6.2024856 77.420647 -6.2340021 -98.790085 -22.592382 -116.97416
7462637500 -14.373834 -19.908592 -28.164 -68.490326 -6.2082934 61.860874
-28.161249 -68.330154 -13.154921 -116.63348 -6.200593 -114.22422
-6.2199054 62.020828 -6.2092957 -114.19856 -22.825174 -136.78546
7546375000 -14.329583 -31.400337 -28.135757 -81.14048 -6.2256513 46.465954
-28.131042 -80.967964 -13.279608 -128.65147 -6.1778588 -129.65456
-6.2369561 46.627228 -6.1855321 -129.62685 -22.921019 -157.34341
7630112500 -14.331079 -42.790359 -28.029758 -93.836021 -6.2410049 31.075924
-28.025972 -93.701469 -13.408876 -141.0197 -6.1542044 -145.1058
-6.2532015 31.243294 -6.1636319 -145.07674 -22.884895 -178.54913
7713850000 -14.376956 -54.123898 -27.849546 -106.77872 -6.2572908 15.692118
-27.852859 -106.62817 -13.5396 -153.66084 -6.1330929 -160.57538
-6.2690516 15.862821 -6.1407576 -160.5475 -22.728062 159.95244
7797587500 -14.464832 -65.375931 -27.605703 -120.01655 -6.2729993 0.32067755
-27.608347 -119.87709 -13.670841 -166.55531 -6.1133728 -176.05476
-6.2837849 0.49598727 -6.1211944 -176.02946 -22.448786 138.39099
7881325000 -14.579252 -76.599022 -27.316513 -133.71233 -6.2873693 -15.040492
-27.316292 -133.54242 -13.799285 -179.60977 -6.0950451 168.45374
-6.2991862 -14.856382 -6.1029587 168.48645 -22.058136 117.01655
7965062500 -14.714445 -87.88665 -26.985928 -147.94019 -6.301002 -30.388943
-26.985563 -147.81238 -13.923143 167.22293 -6.0784798 152.95671
