! MARKI MICROWAVE INC.
! Email:             	info@markimicrowave.com   				Phone:   408-778-4200
! Model Number:      	BALH-0010						Date:    06/15
! Filename:		BALH-0010.S3P						Version: 1.0
! Description:       	3-port S-parameter data for Balun BALH-0010
! Frequency Range: 	10 MHz to 12 GHz		
! Port Configuration:	PORT 1: OUTPUT (0 DEGREE), PORT 2: OUTPUT (180 DEGREE), PORT 3: COMMON


! S3P File: Measurements: Mag<S11> Ang<S11> Mag<S12> Ang<S12> Mag<S13> Ang<S13>! row 1 
!			  Mag<S21> Ang<S21> Mag<S22> Ang<S22> Mag<S23> Ang<S23>! row 2 
!			  Mag<S31> Ang<S31> Mag<S32> Ang<S32> Mag<S33> Ang<S33>! row 3 
# Hz S  dB   R 50
10000000 -26.124035 16.723284 -6.9448142 0.33883941 -4.4175014 -2.6351233
-6.9646983 0.27333093 -26.397373 15.176538 -4.4268661 177.10204
-4.429234 -1.3815522 -4.445056 178.48955 -13.916986 -0.30905107
24987500 -27.493496 13.045009 -7.0391216 -0.54263836 -4.4402599 -3.4591591
-7.0556817 -0.59395343 -27.771328 12.776707 -4.4520168 176.34158
-4.449398 -2.499748 -4.4663181 177.40657 -14.028287 -2.0856392
39975000 -28.776546 9.4606018 -7.1279216 -1.4852288 -4.4624381 -4.4585648
-7.1411686 -1.5247779 -29.032675 10.461993 -4.4762802 175.41623
-4.4695683 -3.7852955 -4.4874315 176.15974 -14.141482 -3.9746702
54962500 -29.970697 5.7889767 -7.2109623 -2.5148852 -4.4856973 -5.6261506
-7.2204442 -2.5384114 -30.223372 8.0943279 -4.5011315 174.32152
-4.4900374 -5.2374039 -4.5082064 174.75471 -14.259653 -6.105351
69950000 -31.080494 2.2450755 -7.2902918 -3.6570644 -4.5095897 -6.9594278
-7.2952037 -3.668735 -31.296108 5.8751206 -4.52528 173.06134
-4.511168 -6.8537111 -4.5298519 173.18588 -14.379279 -8.5590105
84937500 -32.1022 -1.6293963 -7.3673887 -4.8933382 -4.5338492 -8.4454603
-7.3683925 -4.8927035 -32.271305 3.2326143 -4.5506687 171.65184
-4.5330682 -8.6153936 -4.5511403 171.4684 -14.489211 -11.370745
99925000 -32.460323 0.28738594 -7.3909235 -5.5460887 -4.5450411 -9.9379301
-7.391541 -5.5494423 -32.521042 6.2111483 -4.5586352 170.20328
-4.5425849 -10.05102 -4.5582871 170.09532 -14.524755 -13.100619
114912500 -32.162502 3.1958818 -7.3807864 -6.1916757 -4.5479188 -11.396013
-7.3809686 -6.1990738 -32.116035 10.219488 -4.556684 168.77792
-4.5453563 -11.471611 -4.55688 168.70547 -14.48373 -14.876204
129900000 -31.505369 4.3110003 -7.3575048 -6.92348 -4.5466118 -12.862948
-7.3563795 -6.9416847 -31.419529 11.795308 -4.5503321 167.32668
-4.5433073 -12.917047 -4.5500546 167.2757 -14.421974 -16.813055
144887500 -30.830374 3.4764144 -7.331706 -7.7430286 -4.5428081 -14.344142
-7.3308163 -7.7528634 -30.634165 11.148934 -4.5434265 165.85413
-4.5392332 -14.383487 -4.5423098 165.8201 -14.364063 -18.878378
159875000 -30.205265 1.1918906 -7.3090692 -8.6034689 -4.5389457 -15.845474
-7.307714 -8.6150846 -29.989635 8.8863535 -4.5369563 164.37044
-4.5355825 -15.87156 -4.5359788 164.3452 -14.301311 -21.052736
174862500 -29.676527 -1.5480062 -7.2876091 -9.5119171 -4.5362024 -17.339294
-7.2852998 -9.5135098 -29.460247 6.1718245 -4.5302067 162.87975
-4.5330501 -17.357485 -4.5292535 162.85928 -14.248883 -23.320423
189850000 -29.230839 -4.5287347 -7.2694511 -10.429139 -4.5328355 -18.83753
-7.2669358 -10.438987 -28.987244 3.1326411 -4.5234814 161.3857
-4.5300236 -18.852173 -4.5226927 161.36819 -14.201701 -25.61582
204837500 -28.869936 -7.9322376 -7.2520118 -11.355862 -4.5299873 -20.347296
-7.2503076 -11.36365 -28.627157 -0.3175917 -4.5187716 159.87932
-4.5273795 -20.353178 -4.51718 159.86951 -14.159632 -27.921688
219825000 -28.553761 -11.266955 -7.2368107 -12.304963 -4.5290389 -21.855923
-7.2356844 -12.309826 -28.335148 -3.5972085 -4.5144281 158.36528
-4.5253401 -21.863504 -4.512826 158.36499 -14.118031 -30.209576
234812500 -28.271822 -14.71304 -7.2249794 -13.251289 -4.5280366 -23.355362
-7.2218862 -13.255362 -28.090061 -7.0067382 -4.5123272 156.86166
-4.5242801 -23.371698 -4.5089765 156.85187 -14.082256 -32.531128
249800000 -28.042072 -18.096399 -7.2147083 -14.214338 -4.5277271 -24.863169
-7.2105303 -14.20797 -27.871876 -10.308907 -4.510004 155.35854
-4.5228734 -24.878344 -4.5071268 155.33978 -14.05306 -34.888481
264787500 -27.837294 -21.365591 -7.2047839 -15.185903 -4.5272207 -26.381165
-7.201982 -15.171224 -27.67251 -13.368174 -4.5076156 153.84096
-4.5230317 -26.391285 -4.5046406 153.83218 -14.029615 -37.253902
279775000 -27.664452 -24.280495 -7.1963768 -16.165138 -4.5270667 -27.894341
-7.1932964 -16.153578 -27.493446 -16.355616 -4.5048342 152.33412
-4.5231047 -27.907829 -4.5032148 152.32794 -14.010382 -39.61726
294762500 -27.495733 -27.226336 -7.1897058 -17.141331 -4.5279408 -29.410183
-7.1877165 -17.117336 -27.320726 -19.339109 -4.5018139 150.82635
-4.5239925 -29.421556 -4.501637 150.81642 -13.996761 -41.97324
309750000 -27.303593 -30.280212 -7.1873431 -18.098103 -4.5282516 -30.927275
-7.1847091 -18.084909 -27.132515 -22.282463 -4.5001721 149.31184
-4.5248585 -30.939419 -4.5012617 149.31165 -13.986598 -44.349834
324737500 -27.126188 -33.275326 -7.1845994 -19.066948 -4.5298238 -32.439194
-7.1817036 -19.052778 -26.966267 -25.093302 -4.5005393 147.8026
-4.5249629 -32.447346 -4.5015368 147.79881 -13.978081 -46.749268
339725000 -26.952301 -36.314533 -7.1837873 -20.024864 -4.5305314 -33.943932
-7.1819863 -20.023569 -26.800365 -27.912132 -4.5002494 146.29596
-4.5255384 -33.95348 -4.4991503 146.29787 -13.974589 -49.147053
354712500 -26.80884 -39.270237 -7.1830001 -20.985989 -4.530395 -35.465206
-7.181098 -20.983093 -26.658264 -30.715715 -4.4996405 144.79028
-4.5260386 -35.475655 -4.4979858 144.77812 -13.977989 -51.543571
369700000 -26.657785 -42.111015 -7.1850939 -21.934082 -4.5328617 -36.980717
-7.1845241 -21.930429 -26.532219 -33.412113 -4.4988327 143.28554
-4.5287266 -36.987152 -4.4984446 143.27296 -13.977941 -53.88884
384687500 -26.530514 -45.004307 -7.1865306 -22.883507 -4.5354643 -38.491714
-7.185082 -22.894173 -26.434372 -35.994183 -4.4993739 141.77538
-4.5325255 -38.505573 -4.4985075 141.77055 -13.980911 -56.239487
399675000 -26.430237 -47.722164 -7.1890302 -23.833466 -4.5393939 -40.00145
-7.1872926 -23.847162 -26.35169 -38.543808 -4.5014224 140.27159
-4.536541 -40.014896 -4.4992156 140.25813 -13.983921 -58.584686
414662500 -26.315132 -50.417011 -7.1920347 -24.778219 -4.5429139 -41.518883
-7.1898546 -24.793724 -26.276045 -41.025417 -4.5042405 138.76138
-4.5387225 -41.514626 -4.4989939 138.74892 -13.98595 -60.960026
429650000 -26.198624 -52.933872 -7.1981363 -25.711788 -4.5462523 -43.017323
-7.1938434 -25.737473 -26.195686 -43.391804 -4.5064669 137.25658
-4.5414286 -43.018017 -4.5005922 137.24817 -13.98813 -63.320381
444637500 -26.090256 -55.394516 -7.2007208 -26.647839 -4.5504179 -44.518654
-7.1973615 -26.675766 -26.130524 -45.795456 -4.5097375 135.7576
-4.5441403 -44.512959 -4.5021844 135.756 -13.98285 -65.693802
459625000 -25.98563 -57.894329 -7.2043176 -27.584576 -4.551908 -46.022518
-7.2021551 -27.601839 -26.065586 -48.214775 -4.5103421 134.25633
-4.548985 -46.008961 -4.5034108 134.26511 -13.986913 -68.030037
474612500 -25.858919 -60.386421 -7.2086735 -28.509596 -4.5555787 -47.518623
-7.2056527 -28.522966 -26.012238 -50.682697 -4.5122643 132.75943
-4.5522947 -47.51046 -4.5056119 132.76163 -13.989767 -70.367172
489600000 -25.755548 -62.905777 -7.2141614 -29.446957 -4.5592537 -49.020912
-7.2105279 -29.455627 -25.979134 -53.156967 -4.512887 131.25203
-4.5556164 -49.002193 -4.5077162 131.26285 -13.997172 -72.727196
504587500 -25.662237 -65.316338 -7.2175961 -30.382208 -4.5628257 -50.523781
-7.2130442 -30.392122 -25.932535 -55.482647 -4.5152488 129.74342
-4.5592027 -50.510094 -4.5115438 129.75362 -14.005817 -75.059204
519575000 -25.56842 -67.646088 -7.2235193 -31.306555 -4.567584 -52.020187
-7.2207637 -31.30109 -25.892988 -57.894749 -4.5191994 128.23834
-4.5638747 -52.000961 -4.5151596 128.24747 -14.011463 -77.369461
534562500 -25.481106 -69.92408 -7.2284532 -32.223049 -4.571034 -53.510277
-7.224864 -32.209808 -25.855707 -60.332886 -4.5215755 126.74788
-4.5665965 -53.489109 -4.5187788 126.75597 -14.018686 -79.703323
549550000 -25.403648 -72.215149 -7.2344899 -33.140503 -4.5752048 -55.00211
-7.2310982 -33.12854 -25.83563 -62.660259 -4.5229068 125.24357
-4.5721087 -54.986336 -4.523047 125.25797 -14.028032 -82.016533
564537500 -25.317572 -74.399467 -7.2383671 -34.056564 -4.5791507 -56.493931
-7.2364235 -34.048897 -25.802639 -64.978333 -4.5253386 123.74523
-4.5769687 -56.474117 -4.5244913 123.76729 -14.036281 -84.345543
579525000 -25.239283 -76.507614 -7.2447557 -34.975929 -4.5837107 -57.980827
-7.2437963 -34.966419 -25.766348 -67.16333 -4.5271673 122.24667
-4.581759 -57.957611 -4.5270257 122.27108 -14.050371 -86.653519
594512500 -25.157579 -78.549706 -7.2519555 -35.895981 -4.5902505 -59.466877
-7.2513494 -35.888229 -25.730143 -69.445709 -4.5312033 120.75729
-4.5862546 -59.445549 -4.5300508 120.77288 -14.060093 -88.984818
609500000 -25.089314 -80.614944 -7.2586832 -36.809444 -4.5940599 -60.954605
-7.2586503 -36.797413 -25.695238 -71.678352 -4.5330806 119.27103
-4.5912871 -60.930405 -4.5327969 119.27627 -14.071509 -91.285667
624487500 -25.018774 -82.564354 -7.2635717 -37.702297 -4.5991721 -62.431126
-7.2641916 -37.692066 -25.651157 -73.822014 -4.5374565 117.78947
-4.5955505 -62.413273 -4.5352345 117.78967 -14.079704 -93.591507
639475000 -24.952894 -84.596764 -7.2710662 -38.603405 -4.6029887 -63.918125
-7.2726488 -38.587887 -25.599815 -76.038834 -4.5404291 116.29243
-4.5999064 -63.895321 -4.5373192 116.29348 -14.094864 -95.924393
654462500 -24.889183 -86.671227 -7.2757692 -39.499268 -4.606957 -65.402885
-7.2776246 -39.492702 -25.567381 -78.261826 -4.5422983 114.79655
-4.6039619 -65.377762 -4.5395646 114.81099 -14.110411 -98.262222
669450000 -24.827984 -88.656448 -7.2831292 -40.39529 -4.6111894 -66.879677
-7.2842016 -40.394615 -25.520149 -80.298531 -4.5452533 113.30472
-4.6089191 -66.868881 -4.5439353 113.3101 -14.124038 -100.55463
684437500 -24.772863 -90.581169 -7.2886 -41.290382 -4.6162491 -68.357132
-7.2902298 -41.29195 -25.478012 -82.329285 -4.5495868 111.81519
-4.6134214 -68.351395 -4.5470924 111.82479 -14.137693 -102.85027
699425000 -24.728378 -92.481567 -7.2949667 -42.189705 -4.6202321 -69.839706
-7.2957215 -42.182716 -25.430403 -84.252434 -4.5543661 110.32287
-4.6175165 -69.82077 -4.5527368 110.33521 -14.150032 -105.15426
714412500 -24.667828 -94.295769 -7.3021703 -43.081116 -4.623498 -71.319687
-7.3028164 -43.071247 -25.371042 -86.23941 -4.5573659 108.83279
-4.6210098 -71.309822 -4.5556569 108.83819 -14.167367 -107.47612
729400000 -24.59837 -96.198792 -7.3090463 -43.95779 -4.6265693 -72.804268
-7.3076539 -43.951805 -25.312782 -88.130013 -4.5610752 107.34135
-4.6243558 -72.801628 -4.55936 107.34789 -14.180642 -109.77647
744387500 -24.545389 -97.976761 -7.3145967 -44.844067 -4.6309786 -74.287659
-7.3122888 -44.832478 -25.253117 -89.993576 -4.56498 105.85899
-4.6278191 -74.281281 -4.5640798 105.86838 -14.195089 -112.11169
759375000 -24.479727 -99.83033 -7.3205094 -45.724434 -4.6343575 -75.758568
-7.3184495 -45.726509 -25.195051 -91.804131 -4.5682645 104.36705
-4.6306067 -75.755821 -4.5668869 104.38567 -14.203838 -114.46146
774362500 -24.420771 -101.65669 -7.3240676 -46.597984 -4.6371622 -77.234383
-7.3236394 -46.603359 -25.155428 -93.655037 -4.5714321 102.88942
-4.633523 -77.233788 -4.5688596 102.90527 -14.213511 -116.77261
789350000 -24.354588 -103.42256 -7.3295574 -47.474827 -4.6404643 -78.71299
-7.3291497 -47.473816 -25.100174 -95.438942 -4.5748 101.41249
-4.6370444 -78.713707 -4.5723844 101.41221 -14.229077 -119.0786
804337500 -24.300558 -105.16418 -7.3335447 -48.365902 -4.6442809 -80.194023
-7.334693 -48.355946 -25.076399 -97.162743 -4.5777225 99.933083
-4.6411023 -80.194336 -4.5743632 99.929237 -14.243541 -121.37663
819325000 -24.237499 -106.85441 -7.3376365 -49.244579 -4.6470604 -81.669304
-7.3394818 -49.228321 -25.03717 -98.845634 -4.5800953 98.457809
-4.6449962 -81.668251 -4.5768371 98.448311 -14.255533 -123.68159
834312500 -24.180326 -108.5213 -7.3413267 -50.12849 -4.6513638 -83.141823
-7.3435202 -50.11652 -25.011438 -100.50974 -4.582212 96.982361
-4.6490011 -83.16288 -4.5782413 96.961617 -14.270937 -125.97855
849300000 -24.125984 -110.15037 -7.3462172 -51.003395 -4.6547956 -84.614853
-7.3465319 -50.993942 -24.985756 -102.04765 -4.5854716 95.512871
-4.6525745 -84.646217 -4.5824432 95.485542 -14.278846 -128.24214
864287500 -24.058886 -111.72762 -7.3509583 -51.867027 -4.6594892 -86.077721
-7.3518715 -51.868462 -24.945883 -103.6196 -4.5883884 94.036484
-4.6571898 -86.108444 -4.5856557 94.017624 -14.287644 -130.55103
879275000 -23.986454 -113.21889 -7.3560147 -52.7351 -4.662921 -87.544777
-7.358736 -52.747627 -24.91 -105.11232 -4.5909667 92.549629
-4.6612663 -87.569565 -4.5885291 92.545113 -14.292775 -132.83148
894262500 -23.93301 -114.75727 -7.3598976 -53.608952 -4.6657267 -89.018967
-7.3617549 -53.617233 -24.87895 -106.75364 -4.5927215 91.080872
-4.6659484 -89.042992 -4.5910611 91.072388 -14.305908 -135.08066
909250000 -23.875065 -116.24988 -7.3661442 -54.487556 -4.6700907 -90.491127
-7.3664818 -54.48975 -24.841055 -108.27966 -4.5949478 89.608521
-4.6689763 -90.513641 -4.5938406 89.596008 -14.318778 -137.39343
924237500 -23.819921 -117.70285 -7.3709974 -55.368084 -4.6735997 -91.967857
-7.3711157 -55.371426 -24.80991 -109.70335 -4.5975237 88.129799
-4.6727324 -91.992233 -4.5962496 88.11068 -14.326227 -139.66823
939225000 -23.763355 -119.18843 -7.3752136 -56.22583 -4.676734 -93.451088
-7.3745108 -56.236031 -24.77145 -111.22784 -4.6003532 86.645638
-4.6755614 -93.458664 -4.5993309 86.64106 -14.334296 -141.97617
954212500 -23.706127 -120.65285 -7.3802423 -57.088284 -4.6806364 -94.933243
-7.37921 -57.093678 -24.726629 -112.68673 -4.6034393 85.157021
-4.6789536 -94.933846 -4.6025429 85.158478 -14.34292 -144.24991
969200000 -23.648247 -122.01859 -7.3866887 -57.942181 -4.6851239 -96.4067
-7.3848252 -57.947762 -24.686508 -114.08464 -4.6075282 83.679932
-4.6809268 -96.399384 -4.6060109 83.685646 -14.348244 -146.50546
984187500 -23.59058 -123.35139 -7.3899713 -58.808598 -4.6901021 -97.882111
-7.3890028 -58.813572 -24.656002 -115.49858 -4.611712 82.202042
-4.6850266 -97.856987 -4.608222 82.212997 -14.353556 -148.81631
999175000 -23.549147 -124.69456 -7.3924222 -59.688007 -4.692996 -99.363464
-7.3919621 -59.6772 -24.623245 -116.85813 -4.6144218 80.723602
-4.6868687 -99.332855 -4.6101952 80.729721 -14.358333 -151.05618
1014162500 -23.49725 -126.08013 -7.3947835 -60.561081 -4.6962686 -100.82775
-7.3934355 -60.536835 -24.592184 -118.28781 -4.6175747 79.264778
-4.6899028 -100.81277 -4.6120243 79.244057 -14.36496 -153.32779
1029150000 -23.437027 -127.41264 -7.3993917 -61.417915 -4.7003756 -102.30161
-7.396986 -61.392288 -24.556034 -119.59844 -4.6202836 77.788742
-4.6929369 -102.28537 -4.6160355 77.770668 -14.369308 -155.57378
1044137500 -23.382362 -128.68239 -7.4015279 -62.273369 -4.703618 -103.77705
-7.3984776 -62.259544 -24.528671 -120.9026 -4.6219478 76.307266
-4.6968956 -103.75607 -4.619482 76.311333 -14.366813 -157.81705
1059125000 -23.321203 -129.94246 -7.4041367 -63.129814 -4.7066469 -105.24768
-7.4018812 -63.118011 -24.492943 -122.2653 -4.6232567 74.832001
-4.6996098 -105.22545 -4.6211405 74.850815 -14.367179 -160.09468
1074112500 -23.266304 -131.14777 -7.4060979 -63.986294 -4.710145 -106.71421
-7.4050441 -63.969181 -24.466898 -123.5758 -4.626133 73.357079
-4.7022276 -106.69151 -4.6215348 73.37532 -14.369534 -162.35603
1089100000 -23.222616 -132.38031 -7.4080396 -64.856667 -4.7131042 -108.17576
-7.4072533 -64.833839 -24.454317 -124.8407 -4.6275997 71.897308
-4.7050171 -108.15419 -4.6235237 71.90638 -14.37023 -164.65013
1104087500 -23.172533 -133.60429 -7.4077544 -65.722046 -4.7152386 -109.64357
-7.4091001 -65.703384 -24.424561 -126.07874 -4.6282029 70.419312
-4.709796 -109.62026 -4.6247077 70.434151 -14.367733 -166.96771
1119075000 -23.122665 -134.85767 -7.4092488 -66.581825 -4.7167287 -111.11686
-7.4104934 -66.563713 -24.394457 -127.40098 -4.628747 68.939522
-4.712976 -111.09447 -4.6276188 68.959145 -14.367776 -169.22163
1134062500 -23.069433 -136.04156 -7.4103065 -67.445595 -4.718533 -112.57486
-7.4109802 -67.426407 -24.370499 -128.69682 -4.6294441 67.474907
-4.7159638 -112.56411 -4.6305842 67.486084 -14.363304 -171.50211
1149050000 -23.01967 -137.16965 -7.4120417 -68.303986 -4.7210255 -114.04654
-7.4126511 -68.291901 -24.341494 -129.88857 -4.6308799 65.998978
-4.7193475 -114.02943 -4.6328864 66.029572 -14.357231 -173.75499
1164037500 -22.966648 -138.34406 -7.4126182 -69.17569 -4.7225151 -115.50999
-7.4137325 -69.15757 -24.312906 -131.15131 -4.6318989 64.534363
-4.7219148 -115.49331 -4.6339068 64.549316 -14.350864 -176.02878
1179025000 -22.910234 -139.54369 -7.411736 -70.045372 -4.7232351 -116.95967
-7.4138675 -70.028145 -24.278564 -132.36748 -4.6333823 63.075977
-4.724 -116.95663 -4.6355495 63.069366 -14.344037 -178.28308
1194012500 -22.872452 -140.69357 -7.412015 -70.911758 -4.7256045 -118.42768
-7.413022 -70.89283 -24.253082 -133.54015 -4.6351738 61.601627
-4.7258573 -118.42205 -4.637218 61.594223 -14.337582 179.49107
1209000000 -22.822514 -141.8613 -7.412662 -71.786407 -4.7269878 -119.88808
-7.4121876 -71.768806 -24.220243 -134.71365 -4.6369066 60.132721
-4.7276044 -119.88895 -4.6402864 60.118649 -14.330493 177.23813
1223987500 -22.769602 -143.02644 -7.4124784 -72.641884 -4.7288623 -121.36186
-7.4115062 -72.626137 -24.192385 -135.89104 -4.6396642 58.648453
-4.7295008 -121.35367 -4.6424456 58.646927 -14.327651 175.02415
1238975000 -22.723108 -144.11949 -7.4137106 -73.499786 -4.7298203 -122.82552
-7.4108853 -73.483932 -24.163448 -137.05257 -4.6418629 57.186203
-4.7303424 -122.81931 -4.6448421 57.182014 -14.324804 172.81653
1253962500 -22.674957 -145.19293 -7.4137259 -74.375137 -4.7327123 -124.27726
-7.4107618 -74.343063 -24.1332 -138.13263 -4.6441803 55.733871
-4.7314935 -124.28303 -4.6444025 55.707016 -14.317875 170.58488
1268950000 -22.625963 -146.24152 -7.4143243 -75.243698 -4.7361107 -125.74872
-7.4107308 -75.212532 -24.10997 -139.20296 -4.645947 54.259804
-4.7344704 -125.74286 -4.6457453 54.23661 -14.313663 168.34114
1283937500 -22.572006 -147.26596 -7.4141412 -76.114449 -4.7375016 -127.21249
-7.409955 -76.077118 -24.076241 -140.28429 -4.6464839 52.785149
-4.735209 -127.20441 -4.646904 52.76067 -14.303629 166.11742
1298925000 -22.51713 -148.22765 -7.4132438 -76.975121 -4.7388597 -128.68538
-7.4106312 -76.948219 -24.038527 -141.30644 -4.6477818 51.303593
-4.7364335 -128.66945 -4.6469846 51.298565 -14.296305 163.92119
1313912500 -22.470814 -149.17293 -7.4136958 -77.846542 -4.7415957 -130.17001
-7.4107485 -77.817978 -24.00935 -142.34882 -4.6498466 49.817612
-4.7375064 -130.1402 -4.6472011 49.826309 -14.291121 161.72589
1328900000 -22.406204 -150.17384 -7.4133201 -78.71669 -4.7425947 -131.63264
-7.4099603 -78.691505 -23.96549 -143.46716 -4.6508017 48.347984
-4.7382255 -131.60812 -4.6483545 48.353893 -14.285263 159.4823
1343887500 -22.344833 -151.20096 -7.41289 -79.577965 -4.7454391 -133.10199
-7.4104209 -79.561508 -23.918922 -144.5829 -4.6515527 46.872906
-4.7412214 -133.08221 -4.6497827 46.883808 -14.282828 157.25427
1358875000 -22.283703 -152.17926 -7.412272 -80.457275 -4.7460375 -134.55182
-7.4105058 -80.441772 -23.86327 -145.6389 -4.6509328 45.421791
-4.7427168 -134.55814 -4.6499228 45.403748 -14.275528 154.98958
1373862500 -22.224369 -153.25378 -7.409339 -81.337677 -4.7490673 -136.03096
-7.407021 -81.315079 -23.818361 -146.72389 -4.651844 43.951706
-4.7440243 -136.02977 -4.6505637 43.931347 -14.267609 152.73488
1388850000 -22.16893 -154.23073 -7.4090919 -82.20591 -4.749959 -137.50943
-7.4056172 -82.192459 -23.778484 -147.74335 -4.6514239 42.468414
-4.7460856 -137.4957 -4.6527815 42.46484 -14.258317 150.50624
1403837500 -22.102394 -155.17961 -7.4094 -83.072456 -4.7501841 -138.97737
-7.4048505 -83.064491 -23.722374 -148.71227 -4.6513791 41.001682
-4.7454615 -138.96649 -4.6524563 40.996109 -14.247981 148.27121
1418825000 -22.042713 -156.1424 -7.4087763 -83.949997 -4.7519255 -140.44215
-7.4041009 -83.947701 -23.674559 -149.64342 -4.6526399 39.537945
-4.7469001 -140.44566 -4.6531587 39.521935 -14.238766 146.05042
