! MARKI MICROWAVE INC.
! Email:             	info@markimicrowave.com   				Phone:   408-778-4200
! Model Number:      	BALH-0006						Date:    06/13
! Filename:		BALH-0006.S3P						Version: 1.0
! Description:       	3-port S-parameter data for Balun BALH-0006
! Frequency Range: 	10 MHz to 6 GHz		
! Port Configuration:	PORT 1: OUTPUT (0 DEGREE), PORT 2: OUTPUT(180 DEGREE), PORT 3: COMMON


! S3P File: Measurements: Mag<S11> Ang<S11> Mag<S12> Ang<S12> Mag<S13> Ang<S13>! row 1 
!			  Mag<S21> Ang<S21> Mag<S22> Ang<S22> Mag<S23> Ang<S23>! row 2 
!			  Mag<S31> Ang<S31> Mag<S32> Ang<S32> Mag<S33> Ang<S33>! row 3 
# Hz S  dB   R 50

10000000 -21.168892 35.331646 -6.6804514 3.6127026 -4.3930845 -1.400969
-6.676127 3.3796883 -20.839037 34.04303 -4.3511705 178.67737
-4.3913159 -0.18900003 -4.3440661 -179.91681 -13.36302 5.3144851
17487500 -21.31539 33.604988 -6.6849828 3.097554 -4.3917627 -1.7061396
-6.6810055 2.9008803 -21.059124 32.240719 -4.3564157 178.31047
-4.3903718 -0.75431025 -4.3510098 179.4297 -13.374884 4.2845907
24975000 -21.413937 31.74398 -6.6826758 2.558919 -4.3885417 -2.0763807
-6.6790652 2.3970671 -21.232931 30.332447 -4.360249 177.88019
-4.3874311 -1.3831972 -4.3561988 178.71422 -13.37462 3.1622453
32462500 -21.470217 29.714905 -6.674489 1.9827194 -4.3837891 -2.5135336
-6.671083 1.8570491 -21.365854 28.280088 -4.3627429 177.38229
-4.3826284 -2.0741487 -4.3598943 177.93347 -13.364635 1.9327565
39950000 -21.492651 27.526789 -6.6603622 1.361922 -4.3771844 -3.0200601
-6.657084 1.2713953 -21.462568 26.078043 -4.364007 176.81308
-4.3762159 -2.8306005 -4.3625498 177.0873 -13.346259 0.59612513
47437500 -21.486156 25.142548 -6.6410942 0.69618678 -4.368773 -3.5983875
-6.637928 0.64175761 -21.529707 23.696127 -4.3638172 176.17354
-4.3679819 -3.6549397 -4.3638539 176.17305 -13.321061 -0.8520996
54925000 -21.4531 22.570885 -6.6174831 -0.018896485 -4.3592019 -4.248673
-6.6145911 -0.038576521 -21.571039 21.139175 -4.3628855 175.46088
-4.3583951 -4.5482869 -4.3642526 175.19006 -13.289127 -2.4143407
62412500 -21.215214 21.408701 -6.5852613 -0.46499133 -4.3460908 -4.9844055
-6.581933 -0.48902485 -21.38022 20.087976 -4.3595533 174.70049
-4.3445129 -5.2688541 -4.3602986 174.43996 -13.239188 -3.5197036
69900000 -20.871113 20.500156 -6.5419483 -0.86902404 -4.3302402 -5.7426395
-6.5385823 -0.89011383 -21.070154 19.330521 -4.3520193 173.94034
-4.3277378 -5.9866576 -4.3513036 173.71756 -13.165027 -4.5074949
77387500 -20.49292 19.356621 -6.4920816 -1.2901334 -4.3147287 -6.5047622
-6.488822 -1.302672 -20.716028 18.372932 -4.3423696 173.18727
-4.311213 -6.7143087 -4.3407345 172.99211 -13.080066 -5.5321288
84875000 -20.129274 17.839424 -6.4398484 -1.7527466 -4.299077 -7.2712379
-6.4367871 -1.7585785 -20.365229 17.048075 -4.3310404 172.42828
-4.2950225 -7.4562616 -4.3287134 172.25185 -12.993982 -6.6504722
92362500 -19.810844 16.097094 -6.3890333 -2.2526751 -4.2843189 -8.0438557
-6.3860478 -2.25631 -20.051552 15.467128 -4.3195415 171.66124
-4.279932 -8.2081375 -4.3164225 171.50366 -12.914072 -7.8548937
99850000 -19.537922 14.262719 -6.3417754 -2.784791 -4.2705998 -8.8275986
-6.3385024 -2.7886078 -19.779917 13.755093 -4.3087282 170.88153
-4.2657847 -8.9619131 -4.3052754 170.75122 -12.842587 -9.099123
107337500 -19.303429 12.408943 -6.299027 -3.3465891 -4.2580562 -9.6177378
-6.2957106 -3.3486931 -19.544992 11.999719 -4.2988701 170.09442
-4.2531066 -9.724144 -4.295435 169.9895 -12.779119 -10.375119
114825000 -19.102228 10.592706 -6.2604094 -3.9271591 -4.2466321 -10.414318
-6.2572436 -3.9281955 -19.342457 10.25051 -4.2901187 169.3044
-4.2417898 -10.494113 -4.2867355 169.22623 -12.721907 -11.65941
122312500 -18.925419 8.7876778 -6.2259383 -4.5154243 -4.2365623 -11.210987
-6.2230029 -4.5139756 -19.167767 8.5122585 -4.2819142 168.51675
-4.2316895 -11.269361 -4.2785878 168.45728 -12.67104 -12.958079
129800000 -18.770273 7.0497713 -6.1949978 -5.1161685 -4.2278543 -12.006311
-6.1924157 -5.1103745 -19.015976 6.8172159 -4.2750893 167.72964
-4.2229848 -12.048302 -4.2715011 167.68558 -12.62459 -14.263922
137287500 -18.634373 5.3608961 -6.1670856 -5.7196999 -4.2199249 -12.79983
-6.1646085 -5.7111759 -18.881874 5.1762781 -4.268683 166.94333
-4.2152295 -12.828892 -4.2646842 166.90987 -12.582731 -15.569554
144775000 -18.512888 3.7067091 -6.1426201 -6.3230371 -4.2128854 -13.588391
-6.1403446 -6.3133821 -18.76437 3.5725298 -4.2630029 166.15919
-4.2081399 -13.607835 -4.2589102 166.13539 -12.546643 -16.887877
152262500 -18.406374 2.0914471 -6.1207709 -6.9219623 -4.2063708 -14.370955
-6.1184525 -6.9112735 -18.659674 2.0020895 -4.2577767 165.37732
-4.2018337 -14.38619 -4.2539897 165.35765 -12.513791 -18.205198
159750000 -18.309334 0.51338363 -6.1012611 -7.5170226 -4.200428 -15.150472
-6.0994744 -7.5107017 -18.562441 0.47190124 -4.253511 164.59865
-4.1961737 -15.16622 -4.2498593 164.58044 -12.484889 -19.517326
167237500 -18.221983 -1.0051076 -6.0837998 -8.1102667 -4.19522 -15.930631
-6.0820332 -8.1038303 -18.478069 -1.0212399 -4.2498236 163.82271
-4.1911407 -15.947862 -4.2463675 163.80232 -12.458238 -20.813992
174725000 -18.141518 -2.4869387 -6.0677543 -8.7019835 -4.1906481 -16.7124
-6.0662875 -8.6941357 -18.400185 -2.4789362 -4.2463593 163.04721
-4.1865458 -16.732939 -4.2430816 163.02361 -12.432976 -22.090832
182212500 -18.065422 -3.9093587 -6.0533404 -9.2961521 -4.1860919 -17.493704
-6.0521746 -9.2841558 -18.329462 -3.8951962 -4.2431188 162.2719
-4.182622 -17.516237 -4.2402654 162.245 -12.410164 -23.370775
189700000 -17.994295 -5.3017383 -6.0406685 -9.8865213 -4.1823764 -18.274935
-6.0392814 -9.8729458 -18.263924 -5.2730169 -4.2398939 161.49402
-4.179256 -18.296373 -4.2376065 161.46834 -12.390567 -24.63769
197187500 -17.928175 -6.6722217 -6.0288873 -10.473598 -4.1784859 -19.051067
-6.027565 -10.458199 -18.204115 -6.6238627 -4.2369604 160.71918
-4.1759162 -19.077389 -4.235146 160.688 -12.372892 -25.905022
204675000 -17.868538 -8.0164042 -6.0181742 -11.059483 -4.1749611 -19.827465
-6.0171928 -11.045218 -18.148869 -7.9415607 -4.234746 159.94112
-4.173028 -19.858141 -4.2332301 159.90761 -12.356159 -27.161636
212162500 -17.812841 -9.3436117 -6.0085044 -11.639614 -4.1717067 -20.606356
-6.0074892 -11.629359 -18.096186 -9.2426682 -4.2327046 159.16252
-4.170064 -20.637787 -4.2315898 159.1291 -12.341036 -28.411602
219650000 -17.761105 -10.643787 -6.0000987 -12.221122 -4.1692133 -21.386652
-5.9988961 -12.211443 -18.049072 -10.529 -4.230978 158.38536
-4.1678057 -21.417259 -4.2306819 158.3522 -12.327492 -29.660227
227137500 -17.712505 -11.915998 -5.9923568 -12.800345 -4.1671357 -22.163914
-5.9906082 -12.789511 -18.005968 -11.791942 -4.229301 157.60994
-4.165843 -22.195227 -4.2292657 157.57669 -12.314665 -30.90062
234625000 -17.667313 -13.180049 -5.9852185 -13.376328 -4.1653223 -22.944273
-5.9831877 -13.368145 -17.966227 -13.03165 -4.2281022 156.83211
-4.1640053 -22.97043 -4.2278471 156.80446 -12.30342 -32.138889
242112500 -17.622257 -14.418067 -5.9787312 -13.954332 -4.1635323 -23.723888
-5.9762712 -13.944025 -17.929762 -14.26699 -4.2266154 156.0546
-4.1621332 -23.743332 -4.2265391 156.02991 -12.29316 -33.378281
249600000 -17.578295 -15.646029 -5.9734039 -14.525969 -4.1617756 -24.497124
-5.970542 -14.517902 -17.893143 -15.474898 -4.225142 155.27968
-4.1604037 -24.515182 -4.2254405 155.25769 -12.283698 -34.609127
257087500 -17.53676 -16.853636 -5.9688177 -15.099537 -4.1601615 -25.27034
-5.9655652 -15.091677 -17.858988 -16.653578 -4.2242317 154.50415
-4.1588693 -25.284782 -4.2247243 154.4856 -12.275833 -35.84277
264575000 -17.498598 -18.053925 -5.9645629 -15.667521 -4.1592202 -26.043226
-5.9610138 -15.665978 -17.827087 -17.828608 -4.2239151 153.73079
-4.1576576 -26.05714 -4.2240243 153.71622 -12.268068 -37.064201
272062500 -17.462933 -19.227228 -5.9608927 -16.237825 -4.1579652 -26.816
-5.9574409 -16.238634 -17.797407 -18.986284 -4.2234449 152.95898
-4.1565175 -26.828691 -4.2235394 152.94643 -12.261306 -38.283943
279550000 -17.430183 -20.38413 -5.9577579 -16.806662 -4.1574035 -27.589321
-5.953948 -16.809969 -17.767403 -20.128574 -4.2231236 152.18594
-4.1552935 -27.599678 -4.222857 152.17641 -12.256124 -39.494686
287037500 -17.395126 -21.527201 -5.9555845 -17.373684 -4.1569519 -28.361916
-5.9513135 -17.37656 -17.739359 -21.271576 -4.222683 151.41766
-4.1543856 -28.371763 -4.2221785 151.4073 -12.250812 -40.701008
294525000 -17.360874 -22.66098 -5.953968 -17.936724 -4.1564636 -29.130863
-5.9493351 -17.940529 -17.712067 -22.403811 -4.2223434 150.64929
-4.153945 -29.142881 -4.2221084 150.63911 -12.2468 -41.909286
302012500 -17.328156 -23.778179 -5.9524369 -18.49526 -4.155519 -29.896866
-5.9476261 -18.502323 -17.685667 -23.516804 -4.2218466 149.88327
-4.1530991 -29.912647 -4.2219777 149.87173 -12.244417 -43.115379
309500000 -17.298225 -24.8958 -5.951664 -19.052647 -4.1544728 -30.662628
-5.9467988 -19.060337 -17.658014 -24.624414 -4.2215152 149.11824
-4.1523805 -30.680124 -4.2223372 149.10374 -12.242616 -44.32579
316987500 -17.267071 -25.994856 -5.9512877 -19.611261 -4.1537323 -31.42626
-5.9467726 -19.617601 -17.630728 -25.733694 -4.2214179 148.35719
-4.1515923 -31.452435 -4.2223616 148.3333 -12.242676 -45.536186
324475000 -17.240084 -27.094633 -5.9511404 -20.164276 -4.1531587 -32.192047
-5.9468575 -20.168722 -17.605618 -26.827599 -4.2215014 147.59303
-4.1511984 -32.220852 -4.2224998 147.56625 -12.242674 -46.73801
331962500 -17.212673 -28.182344 -5.9510107 -20.715292 -4.152986 -32.9613
-5.9469895 -20.720055 -17.583241 -27.924753 -4.221447 146.82722
-4.1515813 -32.990471 -4.2226887 146.80109 -12.243791 -47.949104
339450000 -17.1861 -29.257471 -5.9517908 -21.263664 -4.1529031 -33.72776
-5.9475861 -21.267519 -17.558817 -29.015799 -4.2215934 146.06477
-4.1514201 -33.756939 -4.2230792 146.03508 -12.245949 -49.156185
346937500 -17.161154 -30.330179 -5.9526782 -21.81102 -4.1526828 -34.493843
-5.9481168 -21.809847 -17.53577 -30.084572 -4.2214565 145.30345
-4.1511569 -34.52417 -4.2233734 145.26805 -12.247199 -50.365589
354425000 -17.136679 -31.393463 -5.9535165 -22.35397 -4.1526504 -35.256763
-5.9490676 -22.349258 -17.512823 -31.152332 -4.2220292 144.54318
-4.1509199 -35.289143 -4.2241011 144.50223 -12.24953 -51.574989
361912500 -17.111 -32.460133 -5.9550738 -22.8943 -4.15236 -36.018841
-5.9505367 -22.89011 -17.490993 -32.207722 -4.2226262 143.783
-4.1513638 -36.053234 -4.2254429 143.74089 -12.251886 -52.786888
369400000 -17.088446 -33.511707 -5.9564543 -23.433187 -4.1524816 -36.781223
-5.9520006 -23.429846 -17.468044 -33.250641 -4.2234464 143.02106
-4.1511188 -36.817036 -4.2260957 142.97888 -12.255672 -54.004417
376887500 -17.065804 -34.553871 -5.9583044 -23.971481 -4.1527791 -37.545624
-5.954071 -23.968168 -17.448521 -34.269066 -4.2241459 142.25832
-4.1514845 -37.578037 -4.2263045 142.21671 -12.259693 -55.212811
384375000 -17.044153 -35.579224 -5.9601679 -24.510277 -4.152997 -38.314728
-5.9565668 -24.503759 -17.428061 -35.292507 -4.2252774 141.49338
-4.1518292 -38.341618 -4.2272296 141.45377 -12.263118 -56.416271
391862500 -17.021307 -36.586742 -5.9622669 -25.048634 -4.1532769 -39.07996
-5.9592457 -25.042156 -17.408298 -36.299461 -4.226335 140.73029
-4.1523371 -39.107349 -4.2278862 140.69141 -12.266181 -57.610489
399350000 -17.000317 -37.594959 -5.9645481 -25.583021 -4.1539464 -39.846569
-5.9619431 -25.575611 -17.389301 -37.289494 -4.2274299 139.96565
-4.1529083 -39.867641 -4.2289553 139.93472 -12.269042 -58.808346
406837500 -16.978968 -38.595898 -5.9672956 -26.114437 -4.1547132 -40.609783
-5.9649568 -26.113497 -17.36952 -38.273384 -4.2286692 139.20334
-4.1536713 -40.632759 -4.2300649 139.1772 -12.272428 -60.006786
414325000 -16.95969 -39.582806 -5.9700994 -26.651247 -4.1549058 -41.371544
-5.9684219 -26.648046 -17.350607 -39.232372 -4.2302051 138.44376
-4.1536636 -41.395214 -4.2308369 138.41644 -12.276152 -61.1973
421812500 -16.941965 -40.565624 -5.9730849 -27.184166 -4.1552787 -42.13485
-5.9713387 -27.179989 -17.334305 -40.188076 -4.2310448 137.68187
-4.1541386 -42.157551 -4.2317443 137.65784 -12.280691 -62.386585
429300000 -16.923418 -41.542721 -5.9763002 -27.716635 -4.1557088 -42.900188
-5.975347 -27.71348 -17.317713 -41.143005 -4.2319908 136.91743
-4.1552715 -42.919441 -4.2328644 136.89679 -12.286077 -63.572681
436787500 -16.903389 -42.518513 -5.9799623 -28.244474 -4.1562753 -43.666237
-5.9796348 -28.244081 -17.300619 -42.091084 -4.2333226 136.15363
-4.1559563 -43.684093 -4.2334967 136.13794 -12.291396 -64.756088
444275000 -16.883049 -43.49054 -5.9838557 -28.771544 -4.1568332 -44.433716
-5.9840131 -28.771555 -17.283646 -43.042751 -4.2343683 135.39107
-4.1567059 -44.450684 -4.2343707 135.37558 -12.296979 -65.942711
451762500 -16.86409 -44.463299 -5.9877577 -29.296728 -4.1574349 -45.201962
-5.9880824 -29.296707 -17.269176 -43.987354 -4.2354221 134.62842
-4.1581335 -45.214092 -4.2358928 134.61447 -12.303177 -67.130707
459250000 -16.846588 -45.428974 -5.9915562 -29.825377 -4.1582155 -45.966236
-5.9920578 -29.819582 -17.25334 -44.935799 -4.2367659 133.86848
-4.1585073 -45.980259 -4.2373571 133.85056 -12.309781 -68.319275
466737500 -16.828732 -46.40366 -5.9958129 -30.349308 -4.1590343 -46.729107
-5.9958434 -30.342903 -17.238422 -45.87862 -4.2380886 133.1086
-4.1588578 -46.744061 -4.2383127 133.09099 -12.316932 -69.515152
474225000 -16.811764 -47.382889 -5.9998336 -30.869492 -4.1597199 -47.4953
-5.9999428 -30.865288 -17.224699 -46.814056 -4.2396097 132.34398
-4.1597209 -47.505672 -4.2396517 132.33141 -12.325438 -70.716454
481712500 -16.793304 -48.359379 -6.0044284 -31.385139 -4.1604657 -48.260715
-6.0040679 -31.385572 -17.211527 -47.756279 -4.2407846 131.58257
-4.1606846 -48.271698 -4.2408419 131.56992 -12.333396 -71.913216
489200000 -16.774605 -49.321102 -6.0090408 -31.902861 -4.1610026 -49.023983
-6.0084133 -31.900902 -17.199167 -48.683029 -4.2417264 130.82271
-4.1615672 -49.035873 -4.2423968 130.80725 -12.342395 -73.111771
496687500 -16.754234 -50.283119 -6.0138903 -32.415066 -4.1626134 -49.790539
-6.0129724 -32.415215 -17.185123 -49.621391 -4.243763 130.06142
-4.1626019 -49.800014 -4.2439795 130.04843 -12.349506 -74.314949
504175000 -16.735701 -51.241611 -6.0180669 -32.929291 -4.1637864 -50.553112
-6.0178051 -32.931385 -17.172983 -50.54903 -4.2457299 129.30238
-4.1639915 -50.56422 -4.2456493 129.28642 -12.355307 -75.522102
511662500 -16.71751 -52.197884 -6.0220289 -33.438904 -4.1652389 -51.314564
-6.0222397 -33.442806 -17.162363 -51.475689 -4.2478924 128.54285
-4.1649647 -51.327599 -4.247005 128.52786 -12.362911 -76.725464
519150000 -16.701044 -53.148804 -6.0265684 -33.955555 -4.1665583 -52.07605
-6.0262341 -33.957958 -17.152361 -52.399685 -4.2495656 127.78493
-4.1663728 -52.089958 -4.2490878 127.7659 -12.369653 -77.938499
526637500 -16.685709 -54.086288 -6.0307631 -34.468967 -4.1680965 -52.835342
-6.0305691 -34.469437 -17.14345 -53.323013 -4.2514548 127.02869
-4.1674652 -52.850872 -4.2505307 127.00576 -12.376342 -79.141571
534125000 -16.669727 -55.009602 -6.0355167 -34.985638 -4.1691608 -53.595764
-6.035634 -34.982994 -17.135403 -54.228764 -4.2531109 126.27119
-4.1684389 -53.613312 -4.252264 126.24546 -12.382388 -80.333855
541612500 -16.651796 -55.92654 -6.040534 -35.495457 -4.1704831 -54.359013
-6.0406246 -35.499107 -17.126337 -55.133339 -4.254375 125.51218
-4.1700025 -54.376034 -4.2538528 125.48902 -12.38784 -81.530922
549100000 -16.634279 -56.844296 -6.0455856 -36.006908 -4.1720681 -55.12048
-6.0457802 -36.010899 -17.119236 -56.028622 -4.2558198 124.75462
-4.1721363 -55.138332 -4.255403 124.73074 -12.392591 -82.720901
556587500 -16.616138 -57.764469 -6.0506372 -36.516109 -4.1736965 -55.881664
-6.0502973 -36.518623 -17.112474 -56.938625 -4.2570314 123.99766
-4.1737199 -55.903057 -4.2569752 123.97089 -12.397257 -83.909233
564075000 -16.599981 -58.672577 -6.0555072 -37.027809 -4.1751685 -56.640537
-6.0553284 -37.027367 -17.106403 -57.835968 -4.2582245 123.23917
-4.1757369 -56.661583 -4.2588687 123.21201 -12.402258 -85.095688
571562500 -16.582968 -59.57959 -6.0602713 -37.539436 -4.1769657 -57.403805
-6.0601625 -37.537766 -17.100664 -58.733829 -4.2599006 122.47905
-4.1775088 -57.420563 -4.2601538 122.45676 -12.406819 -86.283447
579050000 -16.567158 -60.484722 -6.065259 -38.050098 -4.1784906 -58.163452
-6.0650134 -38.048435 -17.094667 -59.62027 -4.2609491 121.72166
-4.1792054 -58.180714 -4.2615991 121.69848 -12.413167 -87.463417
586537500 -16.548847 -61.386707 -6.070776 -38.555138 -4.1802983 -58.922859
-6.0704379 -38.552921 -17.086126 -60.515335 -4.2626395 120.96399
-4.1810541 -58.942192 -4.2634287 120.94156 -12.419074 -88.642578
594025000 -16.530828 -62.280159 -6.0763979 -39.063965 -4.182138 -59.683731
-6.0758381 -39.057449 -17.076773 -61.410328 -4.2640128 120.2099
-4.1826148 -59.699692 -4.2648883 120.18706 -12.424594 -89.820709
601512500 -16.513241 -63.176636 -6.0812178 -39.566086 -4.184144 -60.442974
-6.08076 -39.560635 -17.070057 -62.309254 -4.2653184 119.45603
-4.1844997 -60.459114 -4.2661233 119.43386 -12.430019 -90.99501
609000000 -16.495972 -64.077232 -6.0863609 -40.069542 -4.1859641 -61.202736
-6.0855851 -40.066086 -17.06332 -63.209141 -4.2665701 118.69854
-4.1865907 -61.216576 -4.2677259 118.68007 -12.43616 -92.18116
616487500 -16.478628 -64.984749 -6.0909915 -40.568661 -4.1882572 -61.960274
-6.089963 -40.567261 -17.057573 -64.12606 -4.2681246 117.94226
-4.188478 -61.973114 -4.2691059 117.92683 -12.443274 -93.36895
623975000 -16.463036 -65.881126 -6.0953898 -41.071312 -4.190084 -62.714581
-6.0944562 -41.066154 -17.053535 -65.027054 -4.2696295 117.18885
-4.1904926 -62.725883 -4.2706103 117.17448 -12.450338 -94.55616
631462500 -16.445848 -66.770966 -6.1003284 -41.572693 -4.1920261 -63.468422
-6.0994582 -41.568562 -17.047148 -65.924927 -4.2713122 116.43655
-4.1922789 -63.482048 -4.2720299 116.41975 -12.458189 -95.740654
638950000 -16.429432 -67.648392 -6.1053963 -42.075844 -4.1939192 -64.224556
-6.1051068 -42.070778 -17.040901 -66.81163 -4.2729049 115.68319
-4.1943603 -64.238358 -4.2736287 115.66354 -12.465384 -96.922684
646437500 -16.412649 -68.521843 -6.1102505 -42.576893 -4.1959901 -64.981384
-6.1096511 -42.56992 -17.033461 -67.69973 -4.2749677 114.93058
-4.1958618 -64.995239 -4.2753162 114.90746 -12.472323 -98.099983
653925000 -16.397856 -69.382874 -6.1156163 -43.076504 -4.1981859 -65.735252
-6.1144004 -43.069386 -17.025555 -68.576485 -4.2767968 114.17916
-4.1974497 -65.751442 -4.2772918 114.15268 -12.479842 -99.273598
661412500 -16.384592 -70.245438 -6.1204624 -43.575191 -4.2004938 -66.491074
-6.1193228 -43.571182 -17.020084 -69.459435 -4.2786207 113.42432
-4.199832 -66.506905 -4.2792792 113.39969 -12.486885 -100.45269
668900000 -16.370712 -71.097694 -6.1251879 -44.079044 -4.2027283 -67.249313
-6.1242609 -44.077572 -17.016273 -70.332726 -4.2803659 112.67038
-4.2019749 -67.261871 -4.2807646 112.6501 -12.494678 -101.63192
676387500 -16.356564 -71.956657 -6.1306868 -44.581142 -4.2045579 -68.002243
-6.129302 -44.580437 -17.01067 -71.206589 -4.2818646 111.9147
-4.2040915 -68.014488 -4.2827063 111.89442 -12.503073 -102.81933
683875000 -16.341002 -72.809547 -6.1365523 -45.083008 -4.2061925 -68.755096
-6.1353312 -45.084591 -17.002575 -72.060188 -4.2836819 111.15998
-4.2059288 -68.769516 -4.2843022 111.13947 -12.511642 -104.00484
691362500 -16.32444 -73.651993 -6.1424866 -45.583107 -4.2082744 -69.506622
-6.1414924 -45.583927 -16.99386 -72.89814 -4.2855206 110.40674
-4.2077398 -69.522667 -4.285953 110.3856 -12.519545 -105.17889
698850000 -16.308451 -74.483978 -6.1486244 -46.084286 -4.2097616 -70.260429
-6.1475835 -46.084538 -16.982456 -73.73336 -4.2874265 109.65326
-4.2096801 -70.27636 -4.287817 109.6309 -12.527521 -106.35819
706337500 -16.292463 -75.334404 -6.1546254 -46.580418 -4.2119837 -71.017197
-6.1535983 -46.583218 -16.971209 -74.57798 -4.2892985 108.8978
-4.2120433 -71.034996 -4.2899303 108.87509 -12.535536 -107.52784
713825000 -16.277973 -76.169731 -6.1602473 -47.07859 -4.2140741 -71.771011
-6.159071 -47.081581 -16.962156 -75.416656 -4.2907171 108.14303
-4.213944 -71.790375 -4.2920718 108.11967 -12.543546 -108.70078
