! MARKI MICROWAVE INC.
! Email:             	info@markimicrowave.com   				Phone:   408-778-4200
! Model Number:      	BALH-0012SSG						Date:    06/20
! Filename:		BALH-0012SSG.S3P						Version: 1.0
! Description:       	3-port S-parameter data for Balun BAL-0012SMG
! Frequency Range: 	10 MHz to 12 GHz
! Port Configuration:	PORT 1: OUTPUT(0 DEGREE) , PORT 2: OUTPUT (180 DEGREE), PORT 3: COMMON


! S3P File: Measurements: Mag<S11> Ang<S11> Mag<S12> Ang<S12> Mag<S13> Ang<S13>! row 1 
!			  Mag<S21> Ang<S21> Mag<S22> Ang<S22> Mag<S23> Ang<S23>! row 2 
!			  Mag<S31> Ang<S31> Mag<S32> Ang<S32> Mag<S33> Ang<S33>! row 3 
# Hz S  dB   R 50 

10000000 -10.032699 154.23613 -12.578169 18.636721 -6.1235089 -174.34666
-12.507335 18.509813 -9.9813833 154.89841 -6.2132683 5.9602437
-6.141696 -174.29448 -6.2076349 5.8084869 -19.03941 99.513634
28737500 -12.063679 163.84573 -11.901225 6.5392036 -5.981319 -179.834
-11.89604 6.3793688 -12.019014 164.11774 -5.9958711 0.34274629
-5.9865584 -179.83946 -6.0025544 0.37686989 -26.477179 79.934013
47475000 -12.383388 166.18881 -11.78993 2.5866411 -5.9707899 177.63828
-11.797932 2.6498523 -12.354126 166.41548 -5.9818034 -2.2159877
-5.9694786 177.59898 -5.986011 -2.1909566 -30.11014 65.585838
66212500 -12.47702 166.24258 -11.787629 0.37345976 -5.9769025 175.73236
-11.820439 0.54921597 -12.448255 166.77225 -5.9898219 -4.1013122
-5.9659901 175.65121 -5.9562335 -4.1465092 -31.964197 57.720112
84950000 -12.43594 165.00923 -11.821427 -0.93324751 -5.9828978 174.00826
-11.81346 -0.83526134 -12.44417 165.84073 -5.9983735 -5.7450004
-5.982595 174.06465 -5.9896584 -5.8013086 -33.268707 53.478222
103687500 -12.444907 163.2346 -11.796147 -1.8713075 -6.004118 172.4261
-11.813518 -1.9811647 -12.436813 164.44655 -6.0095072 -7.3013177
-5.9995141 172.40919 -6.0097027 -7.2446399 -33.366268 49.643795
122425000 -12.451651 161.30779 -11.813251 -2.7960017 -6.0049338 170.92998
-11.815873 -2.7581768 -12.449933 162.65541 -6.0227909 -8.782979
-6.0152612 170.93945 -6.0166717 -8.780941 -33.411171 49.453548
141162500 -12.437031 159.11852 -11.777474 -3.5362604 -6.0114021 169.48854
-11.780149 -3.5214534 -12.433503 160.65227 -6.0249639 -10.216552
-6.0119567 169.51244 -6.0166364 -10.203794 -33.499088 47.557148
159900000 -12.441452 156.82973 -11.748813 -4.212328 -6.0202351 168.0318
-11.760436 -4.2526031 -12.4398 158.68642 -6.0325518 -11.620269
-6.0215764 168.06702 -6.0250483 -11.546829 -33.092644 46.266701
178637500 -12.441113 154.45406 -11.712437 -4.98628 -6.0198336 166.68787
-11.716348 -4.9671187 -12.448351 156.44748 -6.0367622 -12.885259
-6.0193601 166.58813 -6.0448227 -12.940575 -33.046608 45.977425
197375000 -12.480328 152.03075 -11.666556 -5.6620398 -6.0122399 165.13506
-11.684094 -5.6570849 -12.464746 154.18442 -6.0282059 -14.384843
-6.0282216 165.22133 -6.0330439 -14.387975 -32.389175 44.018677
216112500 -12.506297 149.57286 -11.640278 -6.4407001 -6.0225091 163.79102
-11.643657 -6.4033923 -12.48289 152.01781 -6.0431457 -15.727058
-6.0309129 163.81895 -6.0426311 -15.720186 -31.894335 42.071037
234850000 -12.520251 147.11981 -11.578417 -7.0312505 -6.0189548 162.36331
-11.586482 -7.0079284 -12.521071 149.83871 -6.0399332 -17.087038
-6.0279803 162.44749 -6.0439215 -16.98703 -31.625132 41.228348
253587500 -12.576867 144.76248 -11.534234 -7.7586527 -6.0393538 161.00859
-11.539419 -7.7634149 -12.54003 147.58156 -6.0528274 -18.401251
-6.0311022 160.9529 -6.0549498 -18.485399 -30.688517 37.757423
272325000 -12.616639 142.38133 -11.457991 -8.4406996 -6.0173674 159.60091
-11.454756 -8.37113 -12.600509 145.44261 -6.0354099 -19.745584
-6.0227695 159.65558 -6.0414171 -19.771923 -30.185543 37.321812
291062500 -12.637465 139.87862 -11.387404 -9.2165203 -6.0129895 158.16074
-11.389388 -9.2241087 -12.612818 143.16052 -6.0280519 -21.098873
-6.0223227 158.26868 -6.0352554 -21.078215 -30.074654 34.339237
309800000 -12.67999 137.4207 -11.321718 -9.9836435 -6.0137086 156.72906
-11.317203 -10.062813 -12.667618 140.99733 -6.0326567 -22.498568
-6.0178657 156.71721 -6.0287223 -22.429316 -29.608944 31.764017
328537500 -12.735587 135.18279 -11.220234 -10.776906 -6.0053787 155.3871
-11.253664 -10.710855 -12.684931 138.87544 -6.0287852 -23.77733
-6.0147891 155.34209 -6.0102692 -23.852804 -29.241583 29.993311
347275000 -12.771808 132.71068 -11.166432 -11.692012 -5.9981475 153.99771
-11.165182 -11.648346 -12.748767 136.56401 -6.0202923 -25.209492
-6.0130301 153.93532 -6.0228076 -25.131557 -28.855652 28.07921
366012500 -12.815825 130.17882 -11.08706 -12.585888 -5.993525 152.60269
-11.087073 -12.591866 -12.786142 134.45081 -6.0142393 -26.52445
-5.9998894 152.51036 -6.0216022 -26.522102 -28.54558 25.595078
384750000 -12.871546 127.81512 -11.00706 -13.480354 -5.9900756 151.11522
-11.016545 -13.457294 -12.863132 132.08383 -6.0104566 -27.933994
-6.0013146 151.20331 -6.0073323 -27.912621 -28.220873 23.364016
403487500 -12.928949 125.44651 -10.939725 -14.440427 -5.9816628 149.71342
-10.933832 -14.386421 -12.916796 129.97789 -6.0033312 -29.294651
-5.977787 149.77104 -6.0025296 -29.226561 -27.829733 21.703335
422225000 -12.982303 123.01982 -10.867787 -15.443664 -5.972939 148.30551
-10.873148 -15.34047 -12.982994 127.88522 -5.9995241 -30.639269
-5.9898448 148.30339 -6.0005674 -30.647308 -27.415033 19.221699
440962500 -13.02283 120.64528 -10.776242 -16.423462 -5.9711738 146.89316
-10.78767 -16.3855 -13.023755 125.70284 -5.9868884 -32.003067
-5.9679756 146.97209 -5.9792089 -31.924421 -27.286177 16.93907
459700000 -13.080976 118.28069 -10.708649 -17.428762 -5.9639254 145.46375
-10.716499 -17.374096 -13.086353 123.57484 -5.9805698 -33.342926
-5.9705629 145.56557 -5.975987 -33.333122 -27.072557 14.31778
478437500 -13.116787 115.91161 -10.622349 -18.56691 -5.9522028 144.06577
-10.63186 -18.423433 -13.119972 121.35641 -5.9726963 -34.719425
-5.9605145 144.0649 -5.9676728 -34.757927 -26.736582 12.022604
497175000 -13.185597 113.60687 -10.551245 -19.487785 -5.9515953 142.61032
-10.562556 -19.485397 -13.185493 119.18289 -5.9636278 -36.113731
-5.9595118 142.67311 -5.9604664 -36.073013 -26.369852 10.172218
515912500 -13.242771 111.27096 -10.482364 -20.545588 -5.93853 141.21097
-10.484519 -20.512562 -13.277126 117.16585 -5.9430141 -37.443691
-5.9469695 141.28514 -5.9506459 -37.485897 -26.061459 7.3792391
534650000 -13.295118 109.00246 -10.399611 -21.682156 -5.9304652 139.80182
-10.403307 -21.652237 -13.322904 115.02554 -5.9447308 -38.874748
-5.9341707 139.79259 -5.9387231 -38.836159 -25.866907 5.0076714
553387500 -13.368034 106.85719 -10.330433 -22.815331 -5.9368906 138.41637
-10.333591 -22.801691 -13.399083 112.96175 -5.9440479 -40.239243
-5.9374714 138.38788 -5.9312034 -40.175514 -25.508644 2.3568718
572125000 -13.435143 104.55431 -10.258271 -23.915873 -5.9110374 136.95993
-10.250062 -23.944889 -13.475968 110.8344 -5.9232197 -41.660522
-5.9253945 137.00348 -5.9300046 -41.573608 -25.347937 0.84761852
590862500 -13.48877 102.18964 -10.180484 -25.167484 -5.9087458 135.50055
-10.180849 -25.109949 -13.530665 108.8761 -5.9202161 -43.007881
-5.9118586 135.54155 -5.9183202 -42.95639 -25.15493 -1.449769
609600000 -13.558901 99.825821 -10.108604 -26.349319 -5.9047174 134.07521
-10.11491 -26.305021 -13.58871 106.61729 -5.9037056 -44.389874
-5.9092045 134.13751 -5.9096637 -44.362808 -24.835592 -4.4590845
628337500 -13.608901 97.548141 -10.041444 -27.519932 -5.8949151 132.61375
-10.03765 -27.513468 -13.676875 104.47196 -5.8955965 -45.842983
-5.8892856 132.66182 -5.8930049 -45.812016 -24.659111 -6.3418894
647075000 -13.698546 95.23513 -9.9750576 -28.671741 -5.8884945 131.24576
-9.9688377 -28.622274 -13.742081 102.47116 -5.8894639 -47.107952
-5.8882051 131.23964 -5.8902059 -47.164082 -24.524881 -8.7278185
665812500 -13.746038 92.946182 -9.906085 -29.958685 -5.8817873 129.78821
-9.9070892 -29.917961 -13.812684 100.4665 -5.8806019 -48.502903
-5.8896117 129.8004 -5.8834257 -48.528763 -24.312481 -11.051648
684550000 -13.805592 90.755341 -9.8386116 -31.126286 -5.8630524 128.34714
-9.8413353 -31.105854 -13.867455 98.445618 -5.8710322 -49.94075
-5.8746262 128.42056 -5.8627028 -49.901985 -24.13876 -13.274275
703287500 -13.873614 88.575897 -9.7696514 -32.352036 -5.8535919 126.91814
-9.7767057 -32.289085 -13.948235 96.514183 -5.8519015 -51.326096
-5.8666992 126.92788 -5.8595638 -51.342003 -23.97024 -15.67733
722025000 -13.949551 86.374611 -9.7106676 -33.587837 -5.8582029 125.50922
-9.7141142 -33.556068 -14.029288 94.552795 -5.8541374 -52.694832
-5.8584762 125.50652 -5.8488684 -52.695091 -23.729139 -18.084923
740762500 -14.004807 84.088844 -9.6395617 -34.893959 -5.8422308 124.05655
-9.6461525 -34.858749 -14.085293 92.378654 -5.8303905 -54.092461
-5.8503537 124.07302 -5.8397474 -54.105862 -23.525345 -20.685617
759500000 -14.061695 81.758057 -9.5770092 -36.168491 -5.8276963 122.61491
-9.5848589 -36.102242 -14.173442 90.415215 -5.8282943 -55.520954
-5.8384085 122.62634 -5.8313837 -55.45998 -23.345516 -23.055431
778237500 -14.145028 79.621674 -9.5226765 -37.37833 -5.8168292 121.16354
-9.5292234 -37.435287 -14.259707 88.415421 -5.8107243 -56.903542
-5.8305011 121.19531 -5.813158 -56.871567 -23.091328 -25.101709
796975000 -14.20704 77.429832 -9.466424 -38.603958 -5.8093376 119.76843
-9.4757977 -38.64024 -14.33913 86.443657 -5.7985392 -58.260044
-5.818254 119.78555 -5.7985778 -58.232628 -23.01214 -27.743486
815712500 -14.264833 75.268791 -9.4111567 -39.975555 -5.8047872 118.3075
-9.4168196 -39.982037 -14.414641 84.367874 -5.7952452 -59.720184
-5.8064032 118.34048 -5.7909727 -59.658993 -22.87052 -29.673269
834450000 -14.336781 73.235535 -9.3440742 -41.258694 -5.7943072 116.85905
-9.35217 -41.239021 -14.479841 82.594116 -5.7820406 -61.079185
-5.7892065 116.87904 -5.7722311 -61.088398 -22.699982 -32.117085
853187500 -14.396678 70.980278 -9.2927837 -42.591984 -5.7832999 115.40315
-9.3009291 -42.566044 -14.568443 80.48465 -5.7626686 -62.471836
-5.7910571 115.43346 -5.7676473 -62.493355 -22.502754 -34.617252
871925000 -14.470529 68.760239 -9.2424107 -43.892063 -5.7715545 113.97591
-9.2417288 -43.922222 -14.637218 78.473892 -5.7553844 -63.914459
-5.7740173 113.9297 -5.7561331 -63.948288 -22.330379 -36.901684
890662500 -14.532422 66.60379 -9.1829004 -45.213692 -5.7567992 112.49122
-9.1890936 -45.201389 -14.711862 76.643425 -5.7423139 -65.347961
-5.7687068 112.50089 -5.7434645 -65.342613 -22.193577 -39.2141
909400000 -14.587878 64.410805 -9.1420908 -46.576206 -5.747973 111.07885
-9.1469097 -46.56559 -14.787872 74.54306 -5.7229476 -66.740013
-5.7612119 111.06126 -5.7338171 -66.733513 -22.037313 -41.336411
928137500 -14.672027 62.305355 -9.0865297 -47.880695 -5.7412195 109.59059
-9.0929136 -47.907635 -14.869388 72.629135 -5.7186604 -68.171951
-5.7377043 109.62856 -5.7159138 -68.120636 -21.888248 -43.612015
946875000 -14.742853 60.16185 -9.0353842 -49.177853 -5.7273941 108.15711
-9.035697 -49.190228 -14.943013 70.772049 -5.7043362 -69.569901
-5.7336812 108.17193 -5.7046385 -69.563202 -21.720762 -45.953213
965612500 -14.793305 58.117554 -8.9882669 -50.591755 -5.7212262 106.70655
-8.9916458 -50.53392 -15.010415 68.929901 -5.6962624 -71.003601
-5.7309546 106.71722 -5.6984906 -70.965981 -21.583754 -48.254238
984350000 -14.870057 55.816174 -8.9473658 -51.876709 -5.7170491 105.24377
-8.9502535 -51.900066 -15.121054 66.928391 -5.6863632 -72.405945
-5.7162781 105.26845 -5.6751118 -72.357788 -21.420521 -50.488716
1003087500 -14.943912 53.72607 -8.8900471 -53.328636 -5.7043877 103.7407
-8.9039183 -53.298767 -15.180131 65.066093 -5.6755509 -73.848038
-5.7128296 103.69654 -5.6620231 -73.840973 -21.293098 -52.720783
1021825000 -15.004738 51.702625 -8.8489628 -54.604099 -5.6857505 102.29862
-8.8532238 -54.575695 -15.286369 63.230728 -5.6539478 -75.286133
-5.6937904 102.28627 -5.652071 -75.254646 -21.141586 -55.275074
1040562500 -15.085685 49.407547 -8.8033085 -55.978569 -5.6818237 100.84515
-8.8134842 -55.925735 -15.363855 61.196487 -5.6516666 -76.671036
-5.6895738 100.85566 -5.644557 -76.712601 -21.004522 -57.292599
1059300000 -15.135262 47.478512 -8.7572184 -57.324692 -5.6740732 99.350388
-8.7644854 -57.328915 -15.444467 59.369488 -5.6326828 -78.154564
-5.6800661 99.367172 -5.6326499 -78.095589 -20.865639 -59.642597
1078037500 -15.205175 45.350758 -8.7196484 -58.704288 -5.6574001 97.926834
-8.7259779 -58.658375 -15.515607 57.397133 -5.6188393 -79.532242
-5.6660805 97.929665 -5.6247797 -79.585007 -20.753622 -61.909737
1096775000 -15.286029 43.296028 -8.6797085 -60.007118 -5.6455059 96.460594
-8.6849194 -59.989574 -15.61398 55.546696 -5.6076517 -81.013138
-5.6501303 96.446014 -5.6063075 -81.015656 -20.624178 -64.345337
1115512500 -15.338664 41.166237 -8.6327324 -61.391563 -5.6362906 94.959435
-8.6371107 -61.386517 -15.700745 53.649525 -5.5978589 -82.451668
-5.6418409 94.996201 -5.5929961 -82.418755 -20.484369 -66.539536
1134250000 -15.420249 39.046215 -8.5927887 -62.785538 -5.6234946 93.469597
-8.5987606 -62.737309 -15.773851 51.776714 -5.5800004 -83.866074
-5.6285157 93.494583 -5.5827332 -83.847763 -20.352369 -68.755692
1152987500 -15.487103 36.997917 -8.5569324 -64.13913 -5.6194105 92.042404
-8.5660124 -64.11998 -15.85781 49.983952 -5.5687094 -85.294197
-5.6225114 92.029953 -5.5688152 -85.316254 -20.231667 -71.097618
1171725000 -15.573903 34.895187 -8.5139732 -65.481163 -5.6055779 90.556732
-8.5262136 -65.483017 -15.956571 48.158745 -5.5564795 -86.76123
-5.6107197 90.571968 -5.5539522 -86.761215 -20.091162 -73.276474
1190462500 -15.616701 32.80891 -8.4847441 -66.840714 -5.6019878 89.089638
-8.4861002 -66.852959 -16.031334 46.320652 -5.548409 -88.205223
-5.6073518 89.09903 -5.5472469 -88.200363 -19.957293 -75.805069
1209200000 -15.711672 30.748112 -8.4456987 -68.224747 -5.5904036 87.620995
-8.4451923 -68.188698 -16.149929 44.593044 -5.5358787 -89.645538
-5.5924091 87.666534 -5.5338054 -89.608437 -19.847359 -78.179001
1227937500 -15.755601 28.811647 -8.411829 -69.616058 -5.5725622 86.123497
-8.4069462 -69.589104 -16.221342 42.703045 -5.5186639 -91.121025
-5.5788994 86.183098 -5.5226827 -91.095558 -19.735632 -80.154175
1246675000 -15.845302 26.585819 -8.3727789 -70.96566 -5.5612926 84.64357
-8.3779755 -70.978569 -16.320848 40.871071 -5.5124049 -92.576607
-5.5680652 84.705841 -5.5109072 -92.515709 -19.618927 -82.447334
1265412500 -15.925838 24.548742 -8.3390503 -72.297646 -5.5565443 83.15509
-8.3555307 -72.333321 -16.425573 38.972672 -5.4947186 -94.018555
-5.5634055 83.216759 -5.4913812 -93.941559 -19.49518 -84.888321
1284150000 -15.983299 22.459202 -8.3036919 -73.703514 -5.5519099 81.72477
-8.3079185 -73.789719 -16.504988 37.137463 -5.4909754 -95.439606
-5.5543394 81.731529 -5.4871993 -95.421593 -19.427158 -87.257919
1302887500 -16.061689 20.419678 -8.2778406 -75.049789 -5.5371976 80.229729
-8.2734194 -75.084984 -16.604343 35.223736 -5.4738007 -96.919167
-5.535111 80.288673 -5.4748974 -96.874855 -19.260523 -89.559219
1321625000 -16.121614 18.362764 -8.2451372 -76.431992 -5.5265932 78.747643
-8.2515039 -76.438965 -16.711468 33.475716 -5.4641838 -98.347488
-5.5331082 78.765091 -5.4639068 -98.340469 -19.122902 -91.828453
1340362500 -16.183313 16.341213 -8.2084961 -77.854149 -5.5116744 77.213608
-8.2181244 -77.846672 -16.782898 31.733349 -5.4444265 -99.852089
-5.5196242 77.270027 -5.4442372 -99.840523 -19.041012 -93.762184
1359100000 -16.241032 14.163028 -8.1808434 -79.20295 -5.5021811 75.780418
-8.1893082 -79.275604 -16.852861 29.863302 -5.4382653 -101.27176
-5.511847 75.765503 -5.4387093 -101.28432 -18.920664 -96.284714
1377837500 -16.329805 12.227841 -8.1511326 -80.589897 -5.4928813 74.258003
-8.1506128 -80.61689 -16.968033 28.078278 -5.4246502 -102.78976
-5.4999337 74.246735 -5.4299808 -102.75156 -18.795013 -98.477646
1396575000 -16.389339 10.153185 -8.1253195 -81.96637 -5.4817519 72.786156
-8.1239586 -81.993401 -17.050587 26.313759 -5.4098034 -104.25182
-5.4941268 72.762558 -5.4164662 -104.24036 -18.687458 -100.51917
1415312500 -16.473181 7.9999471 -8.0858088 -83.284782 -5.471642 71.2883
-8.0966415 -83.281998 -17.174082 24.569336 -5.4048796 -105.70248
-5.4788389 71.373199 -5.4042501 -105.64854 -18.562445 -103.06834
1434050000 -16.538813 5.9674778 -8.0607624 -84.698799 -5.4617877 69.827507
-8.0738993 -84.733917 -17.25725 22.657589 -5.3936615 -107.1572
-5.4697838 69.815125 -5.3893285 -107.14613 -18.491621 -105.25686
1452787500 -16.599623 3.9683311 -8.0374699 -86.056938 -5.4568067 68.30233
-8.0428696 -86.063263 -17.377533 20.984072 -5.3801184 -108.65107
-5.465013 68.330849 -5.3899164 -108.61822 -18.377316 -107.35111
1471525000 -16.669601 2.0161607 -8.006588 -87.492447 -5.4457011 66.833977
-8.0162544 -87.47847 -17.465719 19.150162 -5.3782482 -110.12228
-5.4500575 66.869194 -5.3710308 -110.11189 -18.276545 -109.67225
1490262500 -16.739004 -0.037578229 -7.9794474 -88.807594 -5.4352942 65.279984
-7.9782314 -88.815521 -17.565405 17.365807 -5.3631597 -111.61263
-5.4436417 65.352989 -5.3652258 -111.53676 -18.153517 -112.14513
1509000000 -16.809549 -2.0681877 -7.9445386 -90.221642 -5.4285345 63.8195
-7.951087 -90.221642 -17.670128 15.601193 -5.3500924 -113.04522
-5.4359016 63.834061 -5.3521929 -113.05036 -18.030848 -114.41538
1527737500 -16.868305 -3.945014 -7.9175558 -91.586044 -5.4197531 62.300976
-7.9286695 -91.610313 -17.746605 13.879665 -5.3451762 -114.52946
-5.4249763 62.352394 -5.3392482 -114.51414 -17.948606 -116.66246
1546475000 -16.916447 -6.0246263 -7.8921647 -92.989594 -5.4162025 60.78001
-7.8991818 -92.97718 -17.852421 12.135815 -5.3379707 -116.01034
-5.4104705 60.855797 -5.3305731 -115.98115 -17.838013 -118.79592
1565212500 -17.013897 -8.0803671 -7.8728228 -94.326645 -5.4013338 59.334911
-7.870224 -94.314323 -17.949451 10.234984 -5.3233933 -117.46279
-5.3988695 59.360847 -5.3236308 -117.44271 -17.725395 -120.84528
1583950000 -17.068504 -10.109385 -7.8425169 -95.728012 -5.3959017 57.79211
-7.8377304 -95.664703 -18.063068 8.6980391 -5.3164945 -118.94966
-5.3945222 57.900299 -5.3137774 -118.92075 -17.593174 -123.14877
1602687500 -17.144369 -12.235847 -7.8198833 -97.108253 -5.3820457 56.344135
-7.8239584 -97.035423 -18.157473 6.7103758 -5.2990623 -120.42603
-5.3905401 56.393398 -5.3042946 -120.447 -17.500807 -125.15572
1621425000 -17.228146 -14.292244 -7.789557 -98.427895 -5.3737864 54.855404
-7.7973518 -98.422852 -18.250759 5.1177583 -5.2928247 -121.88741
-5.381629 54.855942 -5.2906313 -121.90067 -17.383385 -127.44926
1640162500 -17.291267 -16.154259 -7.762228 -99.819832 -5.369904 53.370979
-7.7728343 -99.806374 -18.361559 3.3550494 -5.284369 -123.358
-5.3706684 53.373833 -5.2756 -123.36977 -17.295465 -129.65315
1658900000 -17.34977 -18.26717 -7.740912 -101.25668 -5.3548708 51.830105
-7.7469873 -101.20584 -18.460636 1.6546696 -5.2769198 -124.84606
-5.356019 51.844959 -5.2750039 -124.8825 -17.187563 -131.71147
1677637500 -17.431423 -20.315426 -7.7102184 -102.56129 -5.3476191 50.30196
-7.7206759 -102.61252 -18.566698 0.044246797 -5.2667356 -126.39417
-5.3548307 50.330479 -5.2639842 -126.3438 -17.104239 -133.89828
1696375000 -17.506424 -22.186178 -7.6833134 -103.91207 -5.3431187 48.851379
-7.694324 -103.93528 -18.703243 -1.6422062 -5.2611504 -127.82875
-5.3426504 48.854401 -5.2584624 -127.82484 -17.016399 -136.42944
1715112500 -17.572433 -24.501648 -7.6702461 -105.29178 -5.3288088 47.36113
-7.6738949 -105.31334 -18.785042 -3.6558673 -5.2547688 -129.33414
-5.3360386 47.401096 -5.2514615 -129.29573 -16.880819 -138.24956
1733850000 -17.636042 -26.497028 -7.6418552 -106.69799 -5.322711 45.827976
-7.6520834 -106.6786 -18.933296 -5.2672191 -5.2449622 -130.79897
-5.3233638 45.833755 -5.2318654 -130.79924 -16.76553 -140.66861
1752587500 -17.693125 -28.547226 -7.6158571 -108.06009 -5.3178115 44.321476
-7.6223378 -108.05111 -19.031843 -7.0293307 -5.234755 -132.30254
-5.3161292 44.358219 -5.2293658 -132.33223 -16.675335 -142.70544
1771325000 -17.753229 -30.533674 -7.5916677 -109.41106 -5.3066621 42.777512
-7.6022754 -109.42111 -19.13933 -8.7202721 -5.224052 -133.78845
-5.3201194 42.823215 -5.2236934 -133.80246 -16.564131 -145.0098
1790062500 -17.813477 -32.509792 -7.5713263 -110.83267 -5.297708 41.277252
