! MARKI MICROWAVE INC.
! Email:             	info@markimicrowave.com   				Phone:   408-778-4200
! Model Number:      	BAL-0009SMG						Date:    11/13
! Filename:		BAL-0009SMG.S3P						Version: 1.0
! Description:       	3-port S-parameter data for Balun BAL-0009SMG
! Frequency Range: 	10 MHz to 10 GHz		
! Port Configuration:	PORT 1: OUTPUT (0 DEGREE), PORT 2: OUTPUT (180 DEGREE), PORT 3: COMMON


! S3P File: Measurements: Mag<S11> Ang<S11> Mag<S12> Ang<S12> Mag<S13> Ang<S13>! row 1 
!			  Mag<S21> Ang<S21> Mag<S22> Ang<S22> Mag<S23> Ang<S23>! row 2 
!			  Mag<S31> Ang<S31> Mag<S32> Ang<S32> Mag<S33> Ang<S33>! row 3 
# Hz S  dB   R 50
10000000 -13.20531 130.2061 -9.5335875 16.960419 -5.3628564 5.4414468
-9.5550766 16.965235 -14.265284 128.13785 -5.0459962 -176.42606
-5.3655987 5.4164701 -5.0436339 -176.43584 -16.818293 46.73317
59950000 -21.710085 158.28723 -8.8747272 -1.6817992 -5.0999517 -4.1878853
-8.8829708 -1.7045916 -22.747463 160.38644 -4.9744592 175.13385
-5.1152191 -4.216157 -4.9872932 175.11264 -17.902683 -0.98800439
109900000 -21.176163 165.43193 -9.026948 -6.1101422 -5.1598706 -8.8716602
-9.0300369 -6.1483679 -21.935829 165.88927 -5.0580802 170.48946
-5.1714406 -8.8774252 -5.0670948 170.48882 -18.324036 -11.005686
159850000 -20.8785 162.98892 -9.1092682 -9.0084238 -5.2005148 -12.97501
-9.1113958 -9.0089722 -21.520338 162.05414 -5.1047235 166.472
-5.2074647 -12.985382 -5.1109548 166.46306 -18.55555 -17.552635
209800000 -20.784645 158.47803 -9.1085491 -11.685289 -5.2221746 -16.946856
-9.1118097 -11.674829 -21.401402 155.96909 -5.1316118 162.39613
-5.234169 -16.975163 -5.138279 162.37602 -18.645624 -23.078079
259750000 -20.900772 153.44157 -9.0799322 -14.387465 -5.2454772 -20.912254
-9.0836287 -14.374036 -21.483397 149.62294 -5.1495614 158.48895
-5.2451859 -20.880899 -5.1537428 158.48573 -18.685802 -28.238091
309700000 -21.066404 148.6723 -9.0253162 -17.114656 -5.2519417 -24.817528
-9.0291748 -17.089605 -21.688017 143.53787 -5.1623554 154.50626
-5.2576947 -24.815659 -5.1670856 154.49168 -18.62146 -33.330669
359650000 -21.355093 143.88477 -8.959446 -20.016487 -5.2512803 -28.769413
-8.9586086 -20.000168 -21.958702 137.36816 -5.1648197 150.52408
-5.2515597 -28.770563 -5.1657052 150.48337 -18.592028 -38.377323
409600000 -21.645086 139.32291 -8.8889637 -22.935574 -5.2488151 -32.697945
-8.8927145 -22.962479 -22.259264 131.50931 -5.1658463 146.53096
-5.2556252 -32.70636 -5.1700177 146.54379 -18.455198 -43.587139
459550000 -22.044727 134.80791 -8.8230648 -25.964029 -5.2445006 -36.635838
-8.8231134 -25.947023 -22.639179 125.63423 -5.1605935 142.54362
-5.2563396 -36.633789 -5.1722622 142.52162 -18.345325 -48.704937
509500000 -22.420763 130.06996 -8.7489538 -29.002281 -5.2428207 -40.556034
-8.7487841 -28.990469 -23.012434 119.59478 -5.1637115 138.54179
-5.2498493 -40.577538 -5.1711011 138.4848 -18.219353 -53.604557
559450000 -22.811752 125.95407 -8.6745949 -32.143463 -5.2363353 -44.527153
-8.6704407 -32.103245 -23.440241 114.31092 -5.1536775 134.50923
-5.2453108 -44.525345 -5.1656771 134.50468 -18.058846 -59.020924
609400000 -23.244856 121.96329 -8.6023521 -35.300426 -5.2291541 -48.496387
-8.6031294 -35.316605 -23.889502 108.7618 -5.1497326 130.48045
-5.2426701 -48.506878 -5.1629019 130.48657 -17.878977 -64.202133
659350000 -23.689465 117.87955 -8.5340128 -38.488441 -5.2218437 -52.466587
-8.5378466 -38.484962 -24.370203 103.30356 -5.1433702 126.46526
-5.2300038 -52.470169 -5.1551495 126.45806 -17.712921 -69.259239
709300000 -24.14555 113.91383 -8.4729099 -41.734871 -5.2209196 -56.436249
-8.4734058 -41.73 -24.832819 97.560509 -5.1469254 122.42699
-5.2265515 -56.435703 -5.151742 122.41513 -17.550392 -74.358788
759250000 -24.636606 110.70303 -8.4011717 -45.009212 -5.2106962 -60.414696
-8.408823 -44.973946 -25.372885 92.206238 -5.1442199 118.39682
-5.217783 -60.420113 -5.141233 118.37366 -17.372849 -79.831139
809200000 -25.105316 107.57394 -8.341979 -48.23819 -5.1961579 -64.382256
-8.337862 -48.233929 -25.968678 86.964615 -5.1285467 114.36691
-5.2055864 -64.388779 -5.1429367 114.35519 -17.179541 -85.164597
859150000 -25.622374 104.55787 -8.2764473 -51.557957 -5.1925507 -68.392906
-8.2766647 -51.546501 -26.540272 81.045677 -5.1202102 110.31643
-5.2008471 -68.394791 -5.1341743 110.30416 -16.964396 -90.30867
909100000 -26.217651 101.17136 -8.2184792 -54.869427 -5.1845365 -72.395271
-8.2188444 -54.855083 -27.149532 74.619507 -5.1238871 106.26339
-5.1877174 -72.379448 -5.122324 106.26926 -16.767296 -95.436317
959050000 -26.831596 98.928505 -8.1573687 -58.162102 -5.1733851 -76.372215
-8.1590528 -58.160019 -27.809132 69.22641 -5.1063452 102.22247
-5.1822805 -76.378189 -5.1114664 102.22293 -16.594799 -100.73808
1009000000 -27.43433 97.432114 -8.0951309 -61.494953 -5.1685572 -80.35746
-8.0947552 -61.490002 -28.584246 63.432533 -5.1025343 98.021477
-5.1691279 -80.365616 -5.1088014 98.01915 -16.380939 -106.32993
1058950000 -28.170784 95.203545 -8.0390167 -64.862602 -5.154408 -84.387619
-8.0464811 -64.848419 -29.398655 56.28059 -5.088614 94.113586
-5.1625423 -84.390663 -5.0955944 94.120361 -16.174034 -111.29388
1108900000 -28.95698 93.773407 -7.9790978 -68.200935 -5.1460948 -88.409065
-7.9784999 -68.186256 -30.202269 49.089588 -5.0786886 90.045143
-5.1562548 -88.398125 -5.0860128 90.042747 -15.989538 -116.41743
1158850000 -29.693949 93.035995 -7.9251428 -71.559418 -5.1352 -92.413414
-7.9231753 -71.539108 -31.149233 42.08672 -5.0694022 85.992874
-5.1425843 -92.419159 -5.0747437 85.996109 -15.778516 -121.75427
1208800000 -30.591867 93.456276 -7.8674178 -74.936974 -5.1244659 -96.458008
-7.8635488 -74.892868 -32.159332 34.11047 -5.0563135 81.932663
-5.1366739 -96.461853 -5.0707331 81.910744 -15.576499 -127.03089
1258750000 -31.492405 94.000534 -7.8048744 -78.313782 -5.1156116 -100.49057
-7.8102274 -78.309685 -33.247223 24.765383 -5.0517869 77.854141
-5.130836 -100.48873 -5.0535254 77.850945 -15.363842 -132.23311
1308700000 -32.445576 95.597237 -7.7551198 -81.723839 -5.1074505 -104.50999
-7.7490621 -81.701096 -34.306366 13.467388 -5.0388827 73.785355
-5.117857 -104.52993 -5.051774 73.764809 -15.164806 -137.37965
1358650000 -33.483318 98.881622 -7.6963258 -85.122139 -5.1045389 -108.49773
-7.6962152 -85.112038 -35.238213 0.15488915 -5.0281239 69.706741
-5.1103292 -108.50704 -5.0332518 69.700562 -14.95377 -142.86388
1408600000 -34.168575 102.84537 -7.6368041 -88.529007 -5.0950146 -112.62085
-7.6401525 -88.520485 -36.110363 -12.838264 -5.0165863 65.595627
-5.1020923 -112.61523 -5.0238419 65.600334 -14.788265 -147.74792
1458550000 -34.890865 109.03524 -7.586278 -91.955528 -5.0847812 -116.64938
-7.583571 -91.937973 -36.819427 -30.518986 -5.0086465 61.504597
-5.0921116 -116.66811 -5.0154424 61.512062 -14.579128 -152.96054
1508500000 -35.377655 115.97453 -7.528429 -95.386215 -5.0781488 -120.70115
-7.5250163 -95.376419 -36.866386 -48.21944 -4.9948077 57.427151
-5.0853992 -120.73251 -5.00846 57.413391 -14.379549 -157.94028
1558450000 -35.258106 122.41566 -7.4599433 -98.807617 -5.0714121 -124.75214
-7.4607482 -98.784637 -36.740177 -63.466187 -4.9900355 53.311817
-5.0813708 -124.7791 -4.994596 53.291294 -14.190557 -163.07552
1608400000 -35.207088 129.31271 -7.4154067 -102.24847 -5.0672064 -128.84515
-7.4146495 -102.24503 -35.849537 -79.96283 -4.9865813 49.216518
-5.0695672 -128.85834 -4.9866352 49.217209 -14.000747 -168.07202
1658350000 -34.727177 135.74896 -7.3569674 -105.72616 -5.0592489 -132.92017
-7.3623838 -105.70639 -34.993271 -92.306976 -4.9760737 45.101456
-5.0724449 -132.91788 -4.981451 45.104073 -13.796852 -173.12872
1708300000 -34.021324 139.60727 -7.2957191 -109.20699 -5.0597558 -136.97937
-7.3034329 -109.18904 -34.084469 -103.67778 -4.9680724 40.996552
-5.062139 -136.99469 -4.9650674 40.980782 -13.609379 -178.13603
1758250000 -33.286594 142.54167 -7.2488704 -112.69772 -5.0513568 -141.05612
-7.252799 -112.67229 -33.117878 -112.5611 -4.9549613 36.907562
-5.0597663 -141.03967 -4.9637127 36.894863 -13.429047 176.94495
1808200000 -32.46909 144.19893 -7.1926012 -116.16239 -5.05094 -145.12939
-7.1871595 -116.13499 -32.245689 -121.20393 -4.9552264 32.753551
-5.0515542 -145.12836 -4.9602642 32.745056 -13.247928 172.08488
1858150000 -31.75248 145.30901 -7.1386809 -119.68258 -5.0474463 -149.18947
-7.1364384 -119.64254 -31.323147 -128.93405 -4.9432974 28.68047
-5.0534515 -149.21759 -4.9473929 28.663115 -13.074109 167.03439
1908100000 -30.937384 145.16801 -7.0839128 -123.15511 -5.0432243 -153.28093
-7.0870008 -123.12416 -30.551262 -135.96964 -4.9411445 24.571253
-5.0490184 -153.29286 -4.939868 24.558645 -12.904126 162.15585
1958050000 -30.194565 144.58647 -7.0297532 -126.69263 -5.0400147 -157.34564
-7.0311937 -126.68275 -29.917313 -142.36086 -4.9302568 20.443565
-5.0485358 -157.34512 -4.9432497 20.448652 -12.734493 157.1801
2008000000 -29.416092 143.32346 -6.9712167 -130.20532 -5.0303364 -161.34763
-6.9666853 -130.18405 -29.198549 -148.33394 -4.9169121 16.405653
-5.0467134 -161.41556 -4.9316144 16.33462 -12.561093 152.38046
2057950000 -28.807583 142.10614 -6.920022 -133.73749 -5.0339327 -165.50406
-6.921701 -133.71104 -28.591269 -154.31174 -4.9227824 12.233335
-5.0428348 -165.49739 -4.9269519 12.228887 -12.397326 147.48233
2107900000 -28.191032 140.49022 -6.8681917 -137.26678 -5.0303984 -169.56747
-6.86343 -137.28415 -27.905384 -160.17682 -4.912468 8.2323866
-5.0421004 -169.58856 -4.9273868 8.2242937 -12.220478 142.44946
2157850000 -27.68022 138.46164 -6.8130145 -140.81488 -5.0344849 -173.66197
-6.8077407 -140.81453 -27.532961 -164.35988 -4.9060593 4.005024
-5.0394855 -173.66821 -4.9085083 4.0029211 -12.098302 137.93962
2207800000 -27.200687 136.3669 -6.7639794 -144.40434 -5.0316281 -177.73982
-6.7585239 -144.38797 -26.985085 -169.25816 -4.9040942 -0.090628631
-5.0372658 -177.75755 -4.9110732 -0.1060992 -11.955051 133.26994
2257750000 -26.718777 134.16632 -6.7069359 -147.95923 -5.0400181 178.16521
-6.7019668 -147.94064 -26.492971 -173.75859 -4.8970385 -4.2053657
-5.0394206 178.17889 -4.8968244 -4.2123699 -11.805983 128.50876
2307700000 -26.253317 131.75801 -6.6577749 -151.52789 -5.0317307 174.10802
-6.6487508 -151.51221 -26.124327 -178.32399 -4.8867555 -8.3318872
-5.040946 174.10237 -4.8993769 -8.3417606 -11.67177 123.78875
2357650000 -25.875132 129.61844 -6.6025019 -155.1019 -5.0357428 170.00598
-6.5980344 -155.10345 -25.699856 177.47028 -4.8866625 -12.450739
-5.0369406 170.01035 -4.892499 -12.450998 -11.532429 119.24355
2407600000 -25.511278 127.31402 -6.5568342 -158.71707 -5.0318069 165.95877
-6.5510468 -158.7094 -25.314707 173.14426 -4.874826 -16.560261
-5.0419259 165.95845 -4.883729 -16.563334 -11.400534 114.59448
2457550000 -25.198322 124.4356 -6.5060873 -162.30753 -5.0366359 161.8808
-6.4996333 -162.29906 -24.964859 169.12595 -4.8702607 -20.656199
-5.0436544 161.87115 -4.8808193 -20.667738 -11.272941 109.99332
2507500000 -24.88929 122.0842 -6.4516683 -165.89719 -5.0385423 157.77197
-6.4433627 -165.89359 -24.648211 165.34628 -4.874073 -24.824282
-5.0404539 157.78748 -4.8855424 -24.821667 -11.127685 105.49817
2557450000 -24.634901 118.44076 -6.4006295 -169.51578 -5.0249796 153.70056
-6.3998322 -169.53569 -24.382214 160.88058 -4.8717947 -28.911819
-5.0286655 153.71005 -4.8688464 -28.894918 -11.055572 100.79828
2607400000 -24.400673 116.21541 -6.3538151 -173.16418 -5.0388947 149.65259
-6.3549333 -173.15686 -24.153757 157.22963 -4.8584771 -33.023045
-5.0478706 149.64302 -4.8638453 -33.042458 -10.915322 96.354881
2657350000 -24.187401 113.55376 -6.3030896 -176.79204 -5.0466523 145.56902
-6.3052979 -176.78828 -23.87937 153.46571 -4.8590732 -37.132885
-5.0488186 145.56877 -4.8615088 -37.141201 -10.796449 91.932312
2707300000 -23.946383 110.54734 -6.2579556 179.5766 -5.0497427 141.48213
-6.2567616 179.57848 -23.660095 149.63164 -4.8609819 -41.24115
-5.0511632 141.47447 -4.8583889 -41.271435 -10.681987 87.443993
2757250000 -23.696104 107.47898 -6.2107415 175.95029 -5.0474348 137.43396
-6.2118316 175.94046 -23.428268 146.08569 -4.8578691 -45.382523
-5.0576153 137.41722 -4.8587961 -45.382778 -10.575261 83.073616
2807200000 -23.483887 104.34556 -6.1610494 172.29691 -5.0567832 133.37105
-6.1625366 172.30228 -23.225477 141.99945 -4.8554702 -49.487457
-5.0607595 133.35699 -4.8558235 -49.514248 -10.457463 78.623573
2857150000 -23.252565 101.34042 -6.1273704 168.67451 -5.0524769 129.26152
-6.1235723 168.68561 -22.961744 138.37509 -4.8484311 -53.627705
-5.0567884 129.22798 -4.8548784 -53.675816 -10.366403 74.271782
2907100000 -23.09388 98.721947 -6.0748072 164.96022 -5.0580063 125.2294
-6.0714869 164.94463 -22.853495 135.06294 -4.846189 -57.719791
-5.0608659 125.2243 -4.8476648 -57.722359 -10.265544 69.956139
2957050000 -22.947855 95.271744 -6.0302558 161.28479 -5.0614991 121.13289
-6.0302258 161.29469 -22.638676 131.39055 -4.8494968 -61.815529
-5.0635486 121.12741 -4.8482976 -61.838455 -10.164365 65.635063
3007000000 -22.756662 92.05397 -5.9808407 157.6284 -5.0688319 117.10175
-5.9800072 157.61403 -22.552835 127.5079 -4.8472223 -65.964485
-5.072289 117.08781 -4.8476467 -65.960983 -10.069922 61.238274
3056950000 -22.667532 89.044998 -5.9438009 153.90237 -5.0598969 113.02451
-5.942893 153.88623 -22.372593 124.15582 -4.839016 -70.034492
-5.0740657 113.02423 -4.8464637 -70.057602 -9.9894009 56.992672
3106900000 -22.492952 86.073174 -5.8995352 150.24971 -5.0687752 108.95953
-5.8958306 150.2334 -22.232792 120.50743 -4.8417816 -74.170197
-5.0732412 108.9413 -4.8424006 -74.162231 -9.8915768 52.726307
3156850000 -22.355415 83.43792 -5.8619084 146.53011 -5.0698581 104.91091
-5.8604822 146.51877 -22.082611 117.21043 -4.834621 -78.257652
-5.0792737 104.89194 -4.8465409 -78.262634 -9.8134317 48.564266
3206800000 -22.267355 80.401505 -5.8141656 142.84233 -5.067524 100.8262
-5.8131695 142.82491 -21.970455 113.79132 -4.838809 -82.50206
-5.0762606 100.83677 -4.8415084 -82.502785 -9.7375755 44.147633
3256750000 -22.128239 77.308907 -5.765615 139.1239 -5.0703206 96.77813
-5.7655692 139.11855 -21.866932 110.37582 -4.8297172 -86.48513
-5.0780983 96.77877 -4.8350768 -86.491447 -9.6468277 40.121185
3306700000 -22.023256 74.347672 -5.7278032 135.42424 -5.0717578 92.722008
-5.7296028 135.44327 -21.696058 106.82059 -4.8331947 -90.563416
-5.078517 92.730713 -4.8325243 -90.575478 -9.5713224 35.86845
3356650000 -21.938082 71.901886 -5.6906524 131.72737 -5.0733819 88.646004
-5.6908765 131.73813 -21.57361 103.63885 -4.8270831 -94.685226
-5.0818896 88.6427 -4.8343143 -94.704628 -9.5017738 31.826086
3406600000 -21.861563 69.217331 -5.6550446 128.00703 -5.0752468 84.585754
-5.6466084 127.99957 -21.48135 100.56081 -4.8256421 -98.774826
-5.0846305 84.584198 -4.8362293 -98.763 -9.4324636 27.640366
3456550000 -21.812246 66.383026 -5.6097207 124.26057 -5.0774374 80.529205
-5.609726 124.27211 -21.439022 97.326202 -4.8274341 -102.8846
-5.0868697 80.539291 -4.8328156 -102.90053 -9.3601894 23.582975
3506500000 -21.748751 63.671215 -5.5718551 120.55175 -5.0820522 76.441048
-5.5683789 120.54645 -21.315519 94.08744 -4.8253565 -106.98373
-5.0902529 76.449944 -4.8348403 -106.98813 -9.2775841 19.551838
3556450000 -21.68228 60.913559 -5.5378876 116.81629 -5.0826559 72.409973
-5.5340486 116.80342 -21.263048 91.113754 -4.8244271 -111.11438
-5.0909758 72.426552 -4.8289204 -111.1058 -9.2333813 15.441479
3606400000 -21.726959 58.668896 -5.5011392 113.07788 -5.0864921 68.322968
-5.5004811 113.07674 -21.184307 88.163177 -4.8242598 -115.16331
-5.0921955 68.310173 -4.8316097 -115.19511 -9.1812382 11.498104
3656350000 -21.664419 55.733677 -5.4649296 109.36359 -5.0844722 64.270584
-5.4582758 109.35284 -21.174803 84.999634 -4.8165216 -119.29869
-5.0941968 64.270752 -4.8306785 -119.31091 -9.1154156 7.4035087
3706300000 -21.631023 53.305996 -5.4291368 105.61862 -5.0910125 60.189259
-5.421279 105.61818 -21.08502 81.551102 -4.8199577 -123.36671
-5.0943217 60.202389 -4.8201656 -123.37093 -9.0469112 3.4142797
3756250000 -21.671932 50.937462 -5.3997626 101.85884 -5.0939679 56.101284
-5.3936357 101.84985 -20.992781 78.801651 -4.8223658 -127.46839
-5.092392 56.112358 -4.8288779 -127.4789 -9.002491 -0.47412416
3806200000 -21.626591 47.885723 -5.3578472 98.13253 -5.0931306 52.030163
-5.3559594 98.117867 -20.956882 75.543938 -4.829248 -131.56683
-5.0986505 52.006584 -4.8340707 -131.60025 -8.9530497 -4.5050845
3856150000 -21.673325 45.456551 -5.3234305 94.322571 -5.0902128 47.971004
-5.3274283 94.303528 -20.942057 72.588669 -4.8228655 -135.62817
-5.0950155 47.96825 -4.823205 -135.62926 -8.910964 -8.5223064
3906100000 -21.63415 43.26033 -5.2894473 90.542419 -5.1006308 43.899403
-5.2938285 90.550835 -20.892574 69.556335 -4.8229151 -139.71063
-5.1031985 43.908165 -4.8236575 -139.72517 -8.852149 -12.380251
3956050000 -21.611353 40.750751 -5.2546492 86.785103 -5.1006184 39.802868
-5.257772 86.77079 -20.847504 66.495193 -4.8196344 -143.80519
-5.1062207 39.788265 -4.8214312 -143.83049 -8.8128357 -16.319927
4006000000 -21.608767 38.643578 -5.2353759 82.984924 -5.1115389 35.780537
-5.2294421 82.950447 -20.93848 63.552494 -4.7973785 -147.86084
-5.1156507 35.75029 -4.8018432 -147.87563 -8.8107042 -20.212393
4055950000 -21.574587 36.054409 -5.2017684 79.227142 -5.1130672 31.63158
-5.199791 79.201614 -20.810884 60.555248 -4.818821 -152.00026
-5.1155877 31.633862 -4.8166213 -151.99715 -8.7404213 -24.133978
4105900000 -21.533907 34.147755 -5.1707101 75.423164 -5.1206436 27.565168
-5.1725545 75.399719 -20.775995 57.55534 -4.8126774 -156.05228
-5.1224103 27.558527 -4.8109088 -156.07466 -8.6971188 -27.966343
4155850000 -21.516409 32.052197 -5.148746 71.624748 -5.1189485 23.444206
-5.1427922 71.621994 -20.731783 54.808239 -4.811007 -160.15013
-5.1234374 23.447777 -4.817975 -160.17564 -8.6654959 -31.808662
4205800000 -21.533203 29.719328 -5.1100473 67.851547 -5.1149697 19.337824
-5.1147604 67.840874 -20.73534 51.959389 -4.8109422 -164.27011
-5.1194129 19.341343 -4.8066235 -164.28145 -8.6514311 -35.641785
4255750000 -21.476938 27.897303 -5.0864105 64.052826 -5.1196222 15.25525
-5.0867658 64.028831 -20.713673 49.058384 -4.7997999 -168.33957
-5.1310654 15.255466 -4.8051915 -168.33566 -8.6075344 -39.397251
4305700000 -21.444796 25.892931 -5.0622568 60.223705 -5.1244206 11.153958
-5.0534577 60.218739 -20.70336 46.295418 -4.8003221 -172.44826
-5.1328435 11.178597 -4.807292 -172.44685 -8.5819588 -43.260262
4355650000 -21.387884 24.487194 -5.0293446 56.412079 -5.1268268 6.9943085
-5.0292339 56.409065 -20.663897 43.653584 -4.7907972 -176.54434
-5.1346393 7.0018086 -4.798141 -176.55688 -8.5514812 -46.983459
4405600000 -21.342188 22.637894 -5.0037036 52.590946 -5.1421442 2.9369266
-5.008162 52.573524 -20.652201 41.236706 -4.7989788 179.37402
-5.1415248 2.9407811 -4.7951102 179.37613 -8.5304251 -50.763889
4455550000 -21.282513 20.673279 -4.9815841 48.772503 -5.1380711 -1.1591877
-4.9864712 48.778748 -20.604317 38.565083 -4.792974 175.27045
-5.14569 -1.1625198 -4.7906122 175.25552 -8.4983397 -54.507908
4505500000 -21.211485 18.766609 -4.9607382 44.980373 -5.1485991 -5.3027134
-4.961915 44.962284 -20.588051 35.775703 -4.7933903 171.14288
-5.1462226 -5.2990532 -4.7926984 171.12881 -8.4746523 -58.279144
4555450000 -21.1467 17.276392 -4.9367065 41.123554 -5.150454 -9.3788872
-4.9405684 41.115963 -20.534199 33.583019 -4.784605 167.06868
-5.1526613 -9.3758802 -4.7874093 167.04788 -8.4409199 -61.941444
4605400000 -21.089909 16.498676 -4.9285622 37.157696 -5.1546021 -13.479399
-4.9269366 37.168011 -20.454901 31.850094 -4.7862835 162.98065
-5.1475639 -13.418073 -4.7792997 163.01031 -8.4201097 -65.658058
4655350000 -21.00448 13.797483 -4.8946404 33.469032 -5.1618652 -17.579145
-4.9002604 33.452641 -20.494591 28.587849 -4.7891073 158.8662
-5.1672773 -17.571629 -4.7859883 158.8463 -8.4016991 -69.346954
4705300000 -20.856848 12.073917 -4.881361 29.635836 -5.1689382 -21.676544
-4.8849368 29.625397 -20.415356 25.917328 -4.7839847 154.79825
-5.1661782 -21.69227 -4.7864814 154.75833 -8.3808699 -73.064125
4755250000 -20.824728 10.203403 -4.8553181 25.800354 -5.1742325 -25.816673
-4.8597689 25.796366 -20.383812 23.455021 -4.7863307 150.65602
