! MARKI MICROWAVE INC.
! Email:             	info@markimicrowave.com   				Phone:   408-778-4200
! Model Number:      	BALH-0006SMG						Date:    06/13
! Filename:		BALH-0006SMG.S3P						Version: 1.0
! Description:       	3-port S-parameter data for Balun BALH-0006SMG
! Frequency Range: 	10 MHz to 6 GHz		
! Port Configuration:	PORT 1: OUTPUT (0 DEGREE), PORT 2: OUTPUT (180 DEGREE), PORT 3:COMMON 


! S3P File: Measurements: Mag<S11> Ang<S11> Mag<S12> Ang<S12> Mag<S13> Ang<S13>! row 1 
!			  Mag<S21> Ang<S21> Mag<S22> Ang<S22> Mag<S23> Ang<S23>! row 2 
!			  Mag<S31> Ang<S31> Mag<S32> Ang<S32> Mag<S33> Ang<S33>! row 3 

# Hz S  dB   R 50
10000000 -26.054604 119.78623 -8.0178719 3.5881853 -4.792345 -0.82720661
-8.005167 3.355237 -27.110363 118.2662 -4.7423339 178.5072
-4.7856245 0.33180118 -4.7382278 179.93875 -15.621054 9.6427727
17487500 -27.253836 125.72018 -8.0160704 2.560915 -4.7917485 -1.2851096
-8.0047102 2.3618217 -28.282103 125.13876 -4.7469969 178.08417
-4.7855415 -0.37692466 -4.7439928 179.22159 -15.641957 7.4456301
24975000 -28.365435 132.37492 -8.0179586 1.4673781 -4.7922692 -1.8102065
-8.0074596 1.2990421 -29.341656 132.57085 -4.7532954 177.59346
-4.7866735 -1.1519992 -4.7511601 178.43921 -15.664962 5.0959878
32462500 -29.398632 139.42998 -8.0233116 0.31154832 -4.7940011 -2.4000506
-8.0140057 0.17808066 -30.298246 140.22688 -4.7607303 177.03845
-4.7889256 -1.9899596 -4.7595119 177.59337 -15.694406 2.5990844
39950000 -30.353563 146.59019 -8.0315084 -0.90524381 -4.7967167 -3.0572243
-8.0236778 -1.0037405 -31.184454 147.8562 -4.7696261 176.41484
-4.7921185 -2.8885171 -4.7691369 176.68436 -15.731897 -0.012118415
47437500 -31.25289 153.82191 -8.0427914 -2.1735849 -4.8000612 -3.7779446
-8.0361156 -2.2346876 -32.013077 155.43375 -4.7796502 175.7256
-4.7958241 -3.8495693 -4.780066 175.7119 -15.776822 -2.7203643
54925000 -32.108078 160.98962 -8.0572815 -3.4931796 -4.8043284 -4.5656314
-8.051652 -3.5192544 -32.798485 162.90593 -4.7911215 174.97066
-4.800334 -4.8717999 -4.7924085 174.67764 -15.826498 -5.512536
62412500 -32.441685 168.20082 -8.0858717 -4.4879932 -4.8108182 -5.3935552
-8.0806198 -4.5074992 -33.052094 170.20364 -4.8050199 174.14848
-4.8068447 -5.6867261 -4.8063593 173.86636 -15.892837 -7.4241552
69900000 -32.37508 174.61169 -8.1183329 -5.3328137 -4.8187928 -6.2035813
-8.1122303 -5.3487816 -32.866955 176.58061 -4.8194599 173.34593
-4.8140316 -6.456604 -4.8198476 173.10176 -15.947375 -8.939867
77387500 -32.015118 179.58325 -8.1517191 -6.0742698 -4.8295598 -6.9778547
-8.1455584 -6.0796351 -32.357006 -178.89055 -4.8350272 172.58153
-4.8238993 -7.1961246 -4.8342519 172.36971 -15.994987 -10.275523
84875000 -31.522987 -177.1064 -8.183362 -6.7379537 -4.8403592 -7.7197599
-8.1775398 -6.7375154 -31.722628 -176.36115 -4.8493867 171.8492
-4.8337111 -7.9121561 -4.8477974 171.65807 -16.03931 -11.529148
92362500 -30.983397 -175.23346 -8.2126989 -7.3449044 -4.8505044 -8.4363413
-8.207202 -7.3447638 -31.098938 -175.5575 -4.8624368 171.13611
-4.84342 -8.6104059 -4.8601441 170.96429 -16.085285 -12.723227
99850000 -30.483944 -174.52977 -8.2400103 -7.9114003 -4.8595586 -9.1403532
-8.2344437 -7.9098296 -30.559479 -175.90494 -4.8742552 170.43208
-4.8522725 -9.2862911 -4.8715429 170.28764 -16.13307 -13.825402
107337500 -30.057041 -174.63341 -8.2646828 -8.4499798 -4.867795 -9.8362703
-8.2596989 -8.4435844 -30.117016 -176.96805 -4.8850455 169.7365
-4.8605299 -9.955574 -4.8822331 169.61685 -16.179522 -14.855065
114825000 -29.701267 -175.28198 -8.2871704 -8.9687634 -4.8754945 -10.529813
-8.2820168 -8.9621077 -29.764729 -178.42366 -4.8957601 169.04536
-4.867959 -10.619794 -4.8926029 168.95363 -16.220242 -15.804614
122312500 -29.417265 -176.12561 -8.3077478 -9.4659519 -4.8827076 -11.214362
-8.3023491 -9.4590092 -29.472229 -179.97884 -4.9051971 168.36526
-4.8751431 -11.282076 -4.9020243 168.29497 -16.253845 -16.725599
129800000 -29.17985 -177.16182 -8.3259277 -9.9524021 -4.8897414 -11.892917
-8.320591 -9.9466333 -29.227627 178.35809 -4.9141612 167.69366
-4.8823347 -11.94056 -4.9108996 167.64102 -16.280926 -17.634317
137287500 -28.98218 -178.2144 -8.3413734 -10.428979 -4.8960905 -12.562817
-8.3365812 -10.421703 -29.020176 176.62943 -4.9220877 167.02837
-4.8892498 -12.596715 -4.9183807 166.98804 -16.304182 -18.530546
144775000 -28.819511 -179.29893 -8.3557644 -10.899214 -4.902122 -13.224863
-8.3510199 -10.888565 -28.837902 174.90909 -4.9293809 166.36725
-4.8955564 -13.247659 -4.9253144 166.33467 -16.327095 -19.436131
152262500 -28.680965 179.61172 -8.3683758 -11.357964 -4.9077349 -13.877999
-8.3638773 -11.34509 -28.68396 173.22249 -4.9358511 165.71072
-4.9012928 -13.896494 -4.9320331 165.68193 -16.347513 -20.331051
159750000 -28.571028 178.4957 -8.3798418 -11.809919 -4.9126544 -14.528159
-8.3753939 -11.80008 -28.557074 171.50758 -4.9420753 165.05704
-4.906539 -14.544128 -4.9386449 165.02948 -16.36664 -21.203325
167237500 -28.479929 177.32014 -8.389329 -12.259106 -4.9172812 -15.1759
-8.3848858 -12.249204 -28.447018 169.81068 -4.947906 164.40623
-4.9115496 -15.195467 -4.944952 164.37685 -16.381441 -22.050228
174725000 -28.408827 176.13927 -8.3973827 -12.705551 -4.9217415 -15.824863
-8.3928308 -12.694283 -28.351728 168.15544 -4.9535761 163.7589
-4.9159861 -15.844699 -4.9505734 163.72679 -16.39196 -22.87542
182212500 -28.3564 174.90373 -8.4045057 -13.153988 -4.9259472 -16.475639
-8.3995342 -13.142814 -28.267563 166.50113 -4.9587297 163.11124
-4.9206691 -16.496126 -4.9559326 163.0755 -16.399805 -23.708138
189700000 -28.322996 173.67354 -8.4104338 -13.602413 -4.9299593 -17.125546
-8.4050426 -13.588571 -28.197548 164.86375 -4.9631543 162.46048
-4.9249134 -17.143393 -4.9607105 162.42813 -16.406767 -24.529167
197187500 -28.294155 172.47685 -8.4149494 -14.049023 -4.9334846 -17.769518
-8.4097271 -14.034943 -28.137232 163.25639 -4.96697 161.81267
-4.9289107 -17.791317 -4.9648609 161.7749 -16.412554 -25.360279
204675000 -28.271851 171.29532 -8.4183979 -14.496246 -4.9365654 -18.412987
-8.4130402 -14.483869 -28.08857 161.619 -4.9709535 161.16313
-4.9324961 -18.440729 -4.9691396 161.12204 -16.416195 -26.179705
212162500 -28.259096 170.14616 -8.4208088 -14.944098 -4.9394236 -19.060335
-8.4157047 -14.929996 -28.055193 160.05397 -4.9746647 160.51109
-4.9357996 -19.086811 -4.9728279 160.46809 -16.418627 -26.986326
219650000 -28.255724 168.96721 -8.4226704 -15.393411 -4.9422097 -19.707054
-8.4168758 -15.377516 -28.027615 158.52002 -4.9782367 159.86012
-4.9390292 -19.73357 -4.9769654 159.81734 -16.419586 -27.791601
227137500 -28.256622 167.81779 -8.4235411 -15.838681 -4.9451265 -20.349924
-8.4172907 -15.828159 -28.005688 157.00443 -4.981482 159.21307
-4.9418769 -20.379192 -4.9803996 159.17026 -16.416822 -28.594498
234625000 -28.265516 166.71202 -8.4233675 -16.287725 -4.9477949 -20.998819
-8.4165201 -16.284266 -27.987644 155.48792 -4.9843831 158.55974
-4.9445753 -21.024271 -4.9830928 158.52441 -16.413485 -29.395519
242112500 -28.283541 165.59995 -8.4221449 -16.74048 -4.9505453 -21.644442
-8.4153013 -16.73797 -27.975544 154.03783 -4.9871855 157.90935
-4.9470005 -21.670818 -4.9853139 157.87698 -16.408234 -30.203541
249600000 -28.309067 164.52721 -8.4211206 -17.192123 -4.9528522 -22.286642
-8.4143171 -17.192024 -27.974287 152.57016 -4.9895811 157.26039
-4.9496589 -22.312494 -4.9874167 157.22823 -16.40357 -31.006649
257087500 -28.34292 163.47781 -8.4194613 -17.64991 -4.9549441 -22.929167
-8.4124432 -17.653334 -27.977741 151.0862 -4.9918785 156.61026
-4.9520612 -22.957029 -4.9898415 156.57712 -16.397112 -31.810326
264575000 -28.377907 162.45969 -8.4164257 -18.105366 -4.9565997 -23.570114
-8.4100056 -18.110765 -27.988504 149.66914 -4.993679 155.95927
-4.9541626 -23.596218 -4.9920583 155.9323 -16.388329 -32.605698
272062500 -28.416523 161.43759 -8.4131117 -18.567984 -4.9586353 -24.212503
-8.4068651 -18.575508 -28.001347 148.24062 -4.9960384 155.31126
-4.9556775 -24.239849 -4.9942398 155.28055 -16.380373 -33.405624
279550000 -28.460159 160.40573 -8.4098015 -19.032614 -4.9604559 -24.858191
-8.4030037 -19.040768 -28.023344 146.82587 -4.9977837 154.66052
-4.9571886 -24.884701 -4.9963598 154.63136 -16.371914 -34.196045
287037500 -28.520119 159.36632 -8.4060898 -19.499132 -4.9624844 -25.504354
-8.3990355 -19.507118 -28.051884 145.44678 -4.9995551 154.00992
-4.9587703 -25.529652 -4.9981732 153.98055 -16.361814 -34.984566
294525000 -28.584349 158.3479 -8.4023218 -19.965361 -4.9643288 -26.14624
-8.3943682 -19.976423 -28.082136 144.07034 -5.0010595 153.36111
-4.9604721 -26.174452 -5.0001731 153.3327 -16.352102 -35.778305
302012500 -28.649195 157.35216 -8.3977461 -20.432192 -4.9659219 -26.786406
-8.3900623 -20.446466 -28.116411 142.69885 -5.0023131 152.71269
-4.961792 -26.81933 -5.0017481 152.68161 -16.342352 -36.581314
309500000 -28.71809 156.39975 -8.3926344 -20.902208 -4.9669328 -27.428654
-8.3848705 -20.914797 -28.161833 141.36235 -5.0035176 152.06412
-4.9628916 -27.461926 -5.003562 152.03151 -16.333139 -37.385052
316987500 -28.793194 155.41579 -8.3877563 -21.374069 -4.9681206 -28.068075
-8.3806906 -21.38357 -28.2166 140.05893 -5.0050092 151.41968
-4.9643087 -28.108822 -5.0054469 151.37903 -16.323715 -38.201252
324475000 -28.863495 154.48898 -8.3821478 -21.84803 -4.9690647 -28.710123
-8.3750973 -21.852562 -28.270515 138.73976 -5.0063295 150.77283
-4.9651031 -28.748098 -5.0071745 150.72774 -16.314917 -39.012188
331962500 -28.939152 153.54059 -8.3763275 -22.319464 -4.9699693 -29.356136
-8.368638 -22.326384 -28.326008 137.48767 -5.0072999 150.12126
-4.9658389 -29.391705 -5.0089259 150.08025 -16.305227 -39.830692
339450000 -29.019707 152.59271 -8.3708696 -22.793243 -4.9706211 -30.000732
-8.3631821 -22.797525 -28.394053 136.21277 -5.0081134 149.47093
-4.9667068 -30.033777 -5.0103354 149.43115 -16.296915 -40.650303
346937500 -29.099325 151.69165 -8.3648014 -23.268866 -4.9716749 -30.64098
-8.356535 -23.268597 -28.464842 134.91763 -5.0092926 148.82416
-4.967093 -30.678253 -5.0112658 148.77698 -16.286707 -41.470573
354425000 -29.181925 150.80461 -8.3583364 -23.743776 -4.9718747 -31.279375
-8.3501425 -23.741283 -28.540548 133.65202 -5.0101252 148.17639
-4.9680543 -31.320276 -5.0124354 148.12544 -16.275454 -42.295506
361912500 -29.269394 149.96237 -8.3513613 -24.219685 -4.9721298 -31.919889
-8.3438444 -24.218182 -28.620781 132.3862 -5.011178 147.52719
-4.9690547 -31.961477 -5.0136542 147.47684 -16.263298 -43.129364
369400000 -29.349329 149.12376 -8.3440409 -24.699507 -4.9726052 -32.559978
-8.3373194 -24.695009 -28.704544 131.11322 -5.0123658 146.87901
-4.9696794 -32.600231 -5.0144324 146.82883 -16.254179 -43.971664
376887500 -29.433907 148.28423 -8.336916 -25.181389 -4.9729853 -33.203396
-8.3307514 -25.175806 -28.790377 129.79086 -5.0132375 146.22752
-4.9697614 -33.24173 -5.0148339 146.17892 -16.243679 -44.807034
384375000 -29.523521 147.44968 -8.3300753 -25.666542 -4.973012 -33.848877
-8.3242216 -25.660645 -28.885738 128.47641 -5.0141301 145.57501
-4.970068 -33.884598 -5.0155993 145.5285 -16.23295 -45.630474
391862500 -29.619675 146.58745 -8.323103 -26.151707 -4.97333 -34.495678
-8.3181906 -26.145454 -28.982239 127.1048 -5.0148759 144.91977
-4.9709949 -34.528049 -5.0165958 144.8784 -16.220951 -46.446648
399350000 -29.713097 145.75111 -8.3159075 -26.638195 -4.9733429 -35.141953
-8.3109646 -26.633533 -29.079529 125.689 -5.0156159 144.26643
-4.9712157 -35.166805 -5.0169525 144.23149 -16.208502 -47.263897
406837500 -29.814764 144.91246 -8.3089819 -27.124222 -4.9735098 -35.784847
-8.30443 -27.1266 -29.18499 124.2522 -5.0161753 143.61464
-4.9717731 -35.814178 -5.0176196 143.58165 -16.19486 -48.086269
414325000 -29.911602 144.09416 -8.3017292 -27.619635 -4.9736128 -36.431194
-8.2976904 -27.620195 -29.288263 122.72062 -5.0172853 142.96175
-4.9716368 -36.457653 -5.0179696 142.92923 -16.182671 -48.901085
421812500 -30.001089 143.30994 -8.2937698 -28.113443 -4.9737172 -37.075733
-8.2896194 -28.11565 -29.386438 121.21706 -5.0178585 142.30777
-4.9715257 -37.100941 -5.0184431 142.27779 -16.170717 -49.709915
429300000 -30.101501 142.495 -8.2863531 -28.60939 -4.9732475 -37.726288
-8.2828989 -28.61264 -29.487011 119.65218 -5.0184865 141.65144
-4.9720168 -37.747364 -5.0191474 141.62709 -16.160456 -50.520153
436787500 -30.205694 141.6656 -8.2792377 -29.103697 -4.9733739 -38.377651
-8.2762146 -29.109396 -29.59119 118.0228 -5.0191445 140.99568
-4.9721646 -38.393875 -5.0197415 140.97716 -16.150396 -51.321289
444275000 -30.318075 140.87488 -8.2722855 -29.600376 -4.9732065 -39.026688
-8.2693453 -29.602976 -29.692648 116.33609 -5.0196619 140.3421
-4.9721317 -39.041107 -5.0199156 140.32381 -16.140297 -52.125561
451762500 -30.427559 140.08655 -8.2649689 -30.094118 -4.9727912 -39.67474
-8.2618122 -30.098072 -29.786978 114.61166 -5.0199103 139.69185
-4.9720387 -39.690079 -5.0205755 139.67288 -16.12948 -52.92461
459250000 -30.535181 139.30945 -8.2569971 -30.592499 -4.9724908 -40.320953
-8.254323 -30.594784 -29.875525 112.84282 -5.0203776 139.04033
-4.9721093 -40.341366 -5.0211692 139.0163 -16.118597 -53.720787
466737500 -30.643148 138.53647 -8.2490883 -31.088446 -4.9725571 -40.970802
-8.246191 -31.09045 -29.957724 111.07672 -5.0208969 138.38797
-4.9717188 -40.990253 -5.0215898 138.3661 -16.10733 -54.538231
474225000 -30.753897 137.80066 -8.2410278 -31.588907 -4.9722338 -41.619633
-8.2374649 -31.59178 -30.031448 109.27178 -5.0215163 137.73627
-4.9711161 -41.642147 -5.0216675 137.71144 -16.097588 -55.35453
481712500 -30.875036 137.11687 -8.2330828 -32.089062 -4.9721451 -42.269997
-8.229125 -32.088745 -30.098883 107.51305 -5.0218997 137.08327
-4.9703741 -42.295368 -5.0220942 137.05586 -16.087313 -56.168205
489200000 -30.996187 136.47231 -8.224987 -32.591793 -4.9714079 -42.9249
-8.2208872 -32.589645 -30.15658 105.72432 -5.0220833 136.42606
-4.9700131 -42.947556 -5.0224118 136.39934 -16.077497 -56.979828
496687500 -31.139391 135.82687 -8.2166977 -33.092506 -4.9712324 -43.577427
-8.2131472 -33.087887 -30.216661 103.97584 -5.0226984 135.77141
-4.9698682 -43.60265 -5.0225697 135.7439 -16.063925 -57.795757
504175000 -31.278814 135.19608 -8.2086744 -33.593369 -4.9712739 -44.229713
-8.2051277 -33.586742 -30.265444 102.22735 -5.023428 135.11682
-4.9697456 -44.255455 -5.0235257 135.08957 -16.048027 -58.626171
511662500 -31.413532 134.61876 -8.2000771 -34.094852 -4.9717178 -44.88324
-8.1965199 -34.090771 -30.303476 100.53062 -5.024158 134.46049
-4.9693689 -44.907902 -5.0235543 134.43373 -16.032742 -59.45565
519150000 -31.556246 134.06024 -8.1913185 -34.601261 -4.9717612 -45.536098
-8.1875706 -34.594891 -30.337069 98.886345 -5.0244989 133.80618
-4.9694114 -45.560936 -5.0239081 133.77759 -16.015759 -60.301064
526637500 -31.701702 133.49132 -8.1824789 -35.108109 -4.9723682 -46.187321
-8.1783514 -35.099808 -30.364 97.348122 -5.0251694 133.15141
-4.9692245 -46.213337 -5.0243282 133.12119 -15.999007 -61.136158
534125000 -31.847368 132.90538 -8.1737871 -35.621986 -4.9722972 -46.84267
-8.1698532 -35.612011 -30.383293 95.842339 -5.0251369 132.49156
-4.9692402 -46.868927 -5.024425 132.45987 -15.980914 -61.965397
541612500 -32.012417 132.30495 -8.1657391 -36.134281 -4.9727159 -47.499203
-8.1614885 -36.124649 -30.401934 94.400444 -5.0253167 131.83553
-4.9696612 -47.52161 -5.0246005 131.80656 -15.962041 -62.802826
549100000 -32.187202 131.77159 -8.1572027 -36.647945 -4.9732761 -48.152767
-8.1532116 -36.637756 -30.415363 92.990623 -5.025548 131.17909
-4.9705482 -48.176395 -5.0246739 131.1488 -15.941772 -63.625473
556587500 -32.359997 131.28307 -8.1487007 -37.15836 -4.9735699 -48.807732
-8.1448441 -37.147823 -30.435551 91.715622 -5.0254383 130.52209
-4.9709997 -48.82999 -5.0247312 130.49136 -15.919986 -64.452972
564075000 -32.530567 130.78349 -8.1397743 -37.672001 -4.9738917 -49.460075
-8.1362915 -37.661964 -30.452032 90.438522 -5.0253096 129.86374
-4.9719653 -49.482254 -5.0250282 129.83304 -15.89742 -65.279427
571562500 -32.707329 130.25281 -8.1307039 -38.186253 -4.9746852 -50.113506
-8.1277351 -38.175396 -30.471745 89.241219 -5.0254974 129.20668
-4.9726057 -50.130657 -5.0249367 129.17853 -15.874228 -66.118248
579050000 -32.877121 129.75229 -8.1219225 -38.705231 -4.9753766 -50.764004
-8.1187077 -38.692886 -30.494484 88.064941 -5.0253725 128.55145
-4.9729919 -50.781631 -5.0250535 128.51996 -15.852108 -66.958267
586537500 -33.071602 129.28365 -8.1130533 -39.221798 -4.9760365 -51.416466
-8.1102285 -39.206913 -30.53829 86.930923 -5.025383 127.89502
-4.9737968 -51.43383 -5.024838 127.86301 -15.829568 -67.792519
594025000 -33.274143 128.84679 -8.1045666 -39.74041 -4.9763074 -52.066196
-8.1015425 -39.720688 -30.587864 85.85955 -5.0252514 127.24368
-4.974442 -52.084126 -5.0250096 127.207 -15.805713 -68.627426
601512500 -33.468056 128.45961 -8.0959616 -40.25779 -4.9770141 -52.716183
-8.0923252 -40.238483 -30.643423 84.873016 -5.025032 126.58854
-4.9747815 -52.735291 -5.0248694 126.5532 -15.781891 -69.463356
609000000 -33.661102 128.12201 -8.0863762 -40.774658 -4.9772282 -53.365776
-8.083581 -40.759777 -30.706055 83.847618 -5.0247173 125.93475
-4.9756851 -53.386436 -5.0246077 125.89884 -15.758577 -70.311737
616487500 -33.860344 127.89848 -8.0771542 -41.288902 -4.9780483 -54.015404
-8.0740814 -41.273785 -30.777933 82.9254 -5.0247946 125.27814
-4.9762893 -54.031986 -5.0243917 125.24718 -15.734358 -71.166817
623975000 -34.052456 127.7314 -8.0671978 -41.807045 -4.9782605 -54.660378
-8.0639353 -41.790478 -30.855091 81.996536 -5.0244002 124.62424
-4.9766569 -54.679089 -5.0240607 124.59193 -15.711062 -72.02626
631462500 -34.253601 127.56292 -8.0578432 -42.326229 -4.9783435 -55.306885
-8.0539541 -42.312 -30.945971 81.050674 -5.0240946 123.97019
-4.9764304 -55.327179 -5.0238614 123.93799 -15.687974 -72.879105
638950000 -34.462078 127.34829 -8.0484486 -42.852535 -4.9786158 -55.954388
-8.044837 -42.835266 -31.038153 79.999794 -5.0236554 123.3166
-4.9766459 -55.975605 -5.0233278 123.28038 -15.665761 -73.728004
646437500 -34.671848 127.17256 -8.0394468 -43.375259 -4.9789314 -56.600925
-8.0356255 -43.359566 -31.147757 78.958672 -5.0237508 122.66293
-4.9768777 -56.625214 -5.0231748 122.62345 -15.643312 -74.573494
653925000 -34.881523 127.0213 -8.0305147 -43.897053 -4.9790735 -57.247971
-8.0263081 -43.883038 -31.258455 77.852943 -5.0235286 122.00665
-4.9772377 -57.27578 -5.0234041 121.96717 -15.620975 -75.412758
661412500 -35.087486 126.95318 -8.0208273 -44.417461 -4.9791265 -57.897888
-8.0166101 -44.407188 -31.372448 76.784744 -5.0231442 121.3489
-4.9779658 -57.922642 -5.0237284 121.31519 -15.598583 -76.25042
668900000 -35.290825 126.82822 -8.0112181 -44.94418 -4.9792404 -58.546421
-8.0067902 -44.937328 -31.478165 75.66732 -5.0229902 120.69226
-4.9780307 -58.57032 -5.0235448 120.66192 -15.577334 -77.094826
676387500 -35.504223 126.83342 -8.001646 -45.473049 -4.9793544 -59.193192
-7.9971495 -45.468506 -31.595251 74.448746 -5.0223107 120.0329
-4.977818 -59.218327 -5.0234437 120.00577 -15.558249 -77.947464
683875000 -35.726639 126.86082 -7.9922523 -46.003601 -4.9793835 -59.84103
-7.9884229 -45.999451 -31.715059 73.124733 -5.0223155 119.37578
-4.9777865 -59.866199 -5.0227718 119.34569 -15.539315 -78.796234
691362500 -35.954113 126.86265 -7.9837308 -46.533642 -4.9795475 -60.487965
-7.9792047 -46.527504 -31.837067 71.721458 -5.0219588 118.71701
-4.9772258 -60.512962 -5.0225806 118.68762 -15.518526 -79.635078
698850000 -36.189804 126.92576 -7.9753666 -47.06356 -4.979126 -61.134106
-7.9705315 -47.061012 -31.970108 70.219238 -5.0216699 118.06229
-4.9771876 -61.162529 -5.022851 118.0296 -15.499668 -80.468475
706337500 -36.43132 127.07064 -7.9669013 -47.589378 -4.9789577 -61.786472
-7.9620996 -47.589359 -32.10825 68.693443 -5.0215144 117.40229
-4.9772005 -61.812119 -5.0230975 117.37231 -15.479396 -81.298065
713825000 -36.664688 127.17796 -7.9578385 -48.12114 -4.9789033 -62.43721
-7.9533334 -48.118164 -32.233818 67.132378 -5.0211396 116.74326
-4.9772997 -62.46064 -5.0228534 116.7121 -15.459838 -82.135719
721312500 -36.914299 127.47215 -7.9485812 -48.648853 -4.9787517 -63.085617
-7.9441009 -48.64769 -32.369164 65.569397 -5.021183 116.08483
