! MARKI MICROWAVE INC.
! Email:             	info@markimicrowave.com   				Phone:   408-778-4200
! Model Number:      	BALH-0003						Date:    06/13
! Filename:		BALH-0003.S3P						Version: 1.0
! Description:       	3-port S-parameter data for Balun BALH-0003
! Frequency Range: 	10 MHz to 3 GHz		
! Port Configuration:	PORT 1: OUTPUT (0 DEGREE), PORT 2: OUTPUT(180 DEGREE), PORT 3: COMMON


! S3P File: Measurements: Mag<S11> Ang<S11> Mag<S12> Ang<S12> Mag<S13> Ang<S13>! row 1 
!			  Mag<S21> Ang<S21> Mag<S22> Ang<S22> Mag<S23> Ang<S23>! row 2 
!			  Mag<S31> Ang<S31> Mag<S32> Ang<S32> Mag<S33> Ang<S33>! row 3 
# Hz S  dB   R 50

10000000 -21.382423 36.879868 -6.7251301 4.0164685 -4.3948669 -0.90844727
-6.7133145 3.7015703 -21.2281 35.880611 -4.372046 179.03793
-4.3901448 0.28991225 -4.3718271 -179.47786 -13.424105 6.4108381
13737500 -21.669415 35.032532 -6.7413673 3.5739818 -4.3961902 -1.0200323
-6.7309361 3.3026292 -21.597595 34.200794 -4.3814354 178.90851
-4.3923326 -0.09247566 -4.3823218 -179.91757 -13.462001 5.5131793
17475000 -21.943581 33.296116 -6.757442 3.1244473 -4.3973074 -1.1665208
-6.74826 2.8985865 -21.951761 32.67762 -4.3909788 178.74876
-4.3944492 -0.50279009 -4.3931022 179.61653 -13.498009 4.607018
21212500 -22.195335 31.646927 -6.772326 2.6713564 -4.3983102 -1.3494251
-6.7643561 2.4918914 -22.279354 31.257494 -4.4005394 178.55382
-4.395926 -0.94116014 -4.403429 179.1288 -13.532813 3.6960733
24950000 -22.417952 30.056456 -6.7852068 2.2150011 -4.3984995 -1.568898
-6.7781038 2.0832381 -22.575619 29.884464 -4.4092002 178.32625
-4.3970065 -1.4081804 -4.4132547 178.61319 -13.56259 2.7718878
28687500 -22.609472 28.464916 -6.7950597 1.7539619 -4.3981686 -1.821779
-6.789434 1.6662552 -22.836237 28.526108 -4.417264 178.06946
-4.3974328 -1.9074697 -4.4223351 178.06712 -13.585765 1.8229074
32425000 -22.771379 26.85416 -6.8018489 1.2849876 -4.3973246 -2.1066704
-6.797647 1.2427982 -23.06568 27.151106 -4.4245796 177.78093
-4.3972292 -2.4408488 -4.4306989 177.48978 -13.601031 0.84376854
36162500 -22.796116 26.223495 -6.8049436 1.0243274 -4.3936877 -2.4097874
-6.7996893 0.99300236 -23.110218 26.785961 -4.4288592 177.48361
-4.3938212 -2.8745179 -4.435142 177.05193 -13.60932 0.20511349
39900000 -22.712011 26.066545 -6.7995477 0.85931057 -4.3895316 -2.7724655
-6.7938828 0.82961994 -23.031065 26.882751 -4.4298201 177.14551
-4.3898115 -3.2362125 -4.4353948 176.71014 -13.602342 -0.25260916
43637500 -22.549702 26.113707 -6.7853727 0.73643142 -4.3837638 -3.1489217
-6.7800393 0.70317835 -22.860329 27.11088 -4.4272699 176.79507
-4.3834248 -3.586777 -4.4318013 176.38766 -13.575042 -0.63256192
47375000 -22.338036 26.155603 -6.7639112 0.6276378 -4.3770013 -3.524035
-6.7587891 0.59536529 -22.626259 27.319597 -4.4219255 176.44345
-4.3757014 -3.9309621 -4.4251671 176.06631 -13.534262 -0.98664099
51112500 -22.084444 26.09705 -6.738235 0.51994514 -4.3706183 -3.8963642
-6.7336044 0.48822576 -22.350283 27.367023 -4.415482 176.09451
-4.3689671 -4.2719908 -4.4179888 175.74786 -13.486112 -1.3563673
54850000 -21.818085 25.860466 -6.7085509 0.39917386 -4.3636665 -4.2670331
-6.7039642 0.37163702 -22.061396 27.200233 -4.4075665 175.74066
-4.3615961 -4.6133256 -4.4097352 175.42061 -13.430158 -1.7557209
58587500 -21.547775 25.427446 -6.6761622 0.26115689 -4.3563604 -4.6378951
-6.6715841 0.23543188 -21.766991 26.790125 -4.3988447 175.38036
-4.353456 -4.9583826 -4.4001255 175.08615 -13.371194 -2.1994424
62325000 -21.283443 24.806189 -6.6421862 0.10505131 -4.3482685 -5.0070586
-6.6375303 0.080690041 -21.484268 26.175406 -4.3891191 175.02017
-4.344933 -5.3097978 -4.3900056 174.73912 -13.310579 -2.6962893
66062500 -21.034689 24.035458 -6.6076159 -0.070569865 -4.3401775 -5.3771572
-6.6034074 -0.095070899 -21.216848 25.41667 -4.3796787 174.65698
-4.3361039 -5.6654267 -4.3797193 174.38646 -13.251201 -3.2358398
69800000 -20.80401 23.174074 -6.5735412 -0.2668092 -4.3317137 -5.7498055
-6.569263 -0.28853488 -20.97019 24.54735 -4.3702183 174.28607
-4.3270931 -6.0230522 -4.3695636 174.03087 -13.19511 -3.8107359
73537500 -20.590569 22.23024 -6.5402508 -0.47900796 -4.3236947 -6.1263652
-6.5360456 -0.50027853 -20.742277 23.597982 -4.3612304 173.91023
-4.3183074 -6.3832111 -4.3596835 173.67087 -13.142814 -4.4065404
77275000 -20.395111 21.286892 -6.5076957 -0.70948356 -4.3153334 -6.5132289
-6.5038242 -0.72792631 -20.534325 22.614357 -4.3522291 173.52539
-4.3098788 -6.7416019 -4.3501668 173.31227 -13.093254 -5.0127444
81012500 -20.215887 20.305273 -6.4762135 -0.95483226 -4.3071914 -6.9030366
-6.4725814 -0.97021955 -20.342806 21.617422 -4.3435321 173.1329
-4.3012891 -7.1087399 -4.3409572 172.94217 -13.045962 -5.6281219
84750000 -20.051533 19.315905 -6.447104 -1.2133678 -4.2993717 -7.2957263
-6.4432855 -1.2261577 -20.166121 20.614714 -4.3352065 172.73845
-4.2934413 -7.4789028 -4.3327031 172.569 -13.002419 -6.2388086
88487500 -19.896778 18.345093 -6.4194508 -1.4837749 -4.292038 -7.6954856
-6.4159389 -1.4923764 -20.002903 19.605688 -4.3275642 172.34117
-4.2860107 -7.8551207 -4.3252311 172.19138 -12.961287 -6.8459229
92225000 -19.755636 17.383915 -6.3928976 -1.7644156 -4.2853208 -8.09863
-6.3894577 -1.7686419 -19.855053 18.614513 -4.3205671 171.94128
-4.2790551 -8.2370844 -4.318161 171.81116 -12.921995 -7.467701
95962500 -19.625109 16.419685 -6.367661 -2.0508623 -4.2791262 -8.5040903
-6.364203 -2.0512109 -19.718061 17.623573 -4.3138838 171.54205
-4.2723317 -8.6215553 -4.3111005 171.42804 -12.883773 -8.0865955
99700000 -19.504677 15.454951 -6.3437872 -2.339015 -4.2730908 -8.9081392
-6.3406353 -2.3366954 -19.593931 16.638048 -4.3074579 171.14207
-4.2662306 -9.0067358 -4.304625 171.0441 -12.84868 -8.7191792
103437500 -19.392561 14.505839 -6.3213444 -2.6329679 -4.2676072 -9.3140936
-6.3184509 -2.6276121 -19.477005 15.674398 -4.3015208 170.74078
-4.2608423 -9.3933315 -4.2986083 170.65919 -12.814212 -9.3559942
107175000 -19.288668 13.557844 -6.3001566 -2.9300427 -4.2627411 -9.7161646
-6.2972732 -2.9255719 -19.369976 14.721147 -4.2958574 170.33768
-4.2560139 -9.7821913 -4.2930698 170.27356 -12.781883 -10.003111
110912500 -19.191662 12.625253 -6.2801943 -3.2300608 -4.2584176 -10.118484
-6.2773418 -3.2253339 -19.27182 13.78963 -4.2903295 169.93584
-4.2514648 -10.170694 -4.2874217 169.88562 -12.751651 -10.655655
114650000 -19.101637 11.70967 -6.2610736 -3.5320191 -4.2537374 -10.519872
-6.2585454 -3.525388 -19.180441 12.876964 -4.2848067 169.53534
-4.2469907 -10.558036 -4.2818794 169.4967 -12.723675 -11.321339
118387500 -19.017365 10.785373 -6.243566 -3.8322041 -4.2495599 -10.918469
-6.2407188 -3.8259749 -19.095459 11.962995 -4.2795458 169.13596
-4.2425041 -10.946698 -4.2769685 169.10623 -12.697888 -11.984453
122125000 -18.939285 9.8675385 -6.2271976 -4.1322613 -4.2454925 -11.313894
-6.2242203 -4.1272082 -19.016123 11.05384 -4.2747951 168.73868
-4.2385044 -11.335018 -4.272213 168.71855 -12.674097 -12.656563
125862500 -18.86701 8.9531422 -6.2112265 -4.4289031 -4.2417235 -11.708459
-6.2083125 -4.4245048 -18.942717 10.157711 -4.2704058 168.34225
-4.2347593 -11.722854 -4.2675748 168.32835 -12.651308 -13.338373
129600000 -18.80158 8.0668774 -6.1965284 -4.7227106 -4.2379665 -12.100034
-6.1934729 -4.7208543 -18.872477 9.270854 -4.2664189 167.94725
-4.2310529 -12.109693 -4.2630486 167.94019 -12.63017 -14.015753
133337500 -18.740068 7.191093 -6.1824312 -5.0158257 -4.234272 -12.490893
-6.1796374 -5.0158882 -18.806885 8.3939943 -4.2625732 167.55141
-4.2276077 -12.493795 -4.2590165 167.55322 -12.609848 -14.690974
137075000 -18.679468 6.3380408 -6.169425 -5.3093781 -4.2309828 -12.878882
-6.1667457 -5.3104696 -18.744165 7.5396724 -4.2593651 167.15898
-4.2245541 -12.87976 -4.2555108 167.16608 -12.591022 -15.369275
140812500 -18.621899 5.4979105 -6.1570191 -5.6036701 -4.2277627 -13.268798
-6.1542659 -5.6050491 -18.685572 6.7035017 -4.2559462 166.76743
-4.221704 -13.269262 -4.2521019 166.7778 -12.572685 -16.039978
144550000 -18.567816 4.676816 -6.1449938 -5.8988385 -4.2247434 -13.654989
-6.1424327 -5.9014997 -18.63059 5.882103 -4.2526865 166.37851
-4.2188349 -13.656777 -4.2489481 166.3884 -12.554498 -16.711597
148287500 -18.515074 3.8835487 -6.1335773 -6.19279 -4.2216744 -14.043956
-6.1310768 -6.1925006 -18.578783 5.0754933 -4.2496376 165.993
-4.2159152 -14.04401 -4.2459083 165.99974 -12.537397 -17.378754
152025000 -18.465282 3.0918477 -6.1227345 -6.484889 -4.2190132 -14.430641
-6.1203012 -6.4828191 -18.529243 4.2818098 -4.2467914 165.60777
-4.2136569 -14.433935 -4.2432437 165.60974 -12.520136 -18.03371
155762500 -18.416748 2.3191965 -6.1126027 -6.7781467 -4.2164731 -14.817851
-6.1099329 -6.7750144 -18.481091 3.5024965 -4.2440453 165.22231
-4.2112517 -14.823609 -4.2405419 165.22002 -12.504036 -18.683855
159500000 -18.371199 1.5642463 -6.102386 -7.07092 -4.2142382 -15.205198
-6.1002254 -7.0660367 -18.436333 2.7492473 -4.2415676 164.83592
-4.2095871 -15.213676 -4.2379589 164.82922 -12.488364 -19.340586
163237500 -18.3258 0.82761747 -6.0930805 -7.3647404 -4.2120123 -15.592692
-6.0909586 -7.3594084 -18.393766 2.0120661 -4.238894 164.44882
-4.20751 -15.603641 -4.2352357 164.43965 -12.474095 -19.998995
166975000 -18.283213 0.098094851 -6.084373 -7.6603346 -4.2102232 -15.978429
-6.0821466 -7.6541071 -18.353907 1.284791 -4.2367311 164.06293
-4.2057695 -15.992941 -4.2328529 164.04956 -12.461207 -20.649633
170712500 -18.242144 -0.63165033 -6.0758314 -7.9551229 -4.2082787 -16.363268
-6.0733867 -7.948019 -18.31455 0.56755406 -4.2340474 163.67535
-4.2039886 -16.382851 -4.2308154 163.65646 -12.447968 -21.304798
174450000 -18.202494 -1.3573133 -6.06812 -8.2471743 -4.2065587 -16.747988
-6.0658193 -8.2393112 -18.277088 -0.14323334 -4.2318444 163.29012
-4.2022715 -16.774254 -4.2286582 163.26184 -12.435921 -21.956215
178187500 -18.166019 -2.0672872 -6.060462 -8.5377979 -4.2045069 -17.133905
-6.0581498 -8.531744 -18.240492 -0.83509511 -4.2295361 162.90164
-4.2004876 -17.164429 -4.2265019 162.86932 -12.424972 -22.602335
181925000 -18.130468 -2.7613268 -6.0533409 -8.8298368 -4.2025347 -17.519766
-6.0509896 -8.8216639 -18.205917 -1.5267447 -4.2274084 162.5164
-4.198658 -17.555025 -4.2248001 162.47678 -12.413792 -23.246801
185662500 -18.097513 -3.4487023 -6.046329 -9.118825 -4.2007875 -17.908903
-6.0439267 -9.1120434 -18.172392 -2.2118747 -4.2255893 162.12704
-4.1969972 -17.947239 -4.2229652 162.08456 -12.403703 -23.883909
189400000 -18.065594 -4.1312103 -6.0396523 -9.4094763 -4.1991186 -18.29793
-6.0373406 -9.4027491 -18.140297 -2.8938713 -4.2239909 161.73921
-4.1956921 -18.341671 -4.2213659 161.6893 -12.393185 -24.512928
193137500 -18.034662 -4.7986474 -6.0330296 -9.6977968 -4.19765 -18.688272
-6.0310268 -9.6902065 -18.110167 -3.5682015 -4.2222924 161.35028
-4.194056 -18.733566 -4.2194929 161.29744 -12.383838 -25.147917
196875000 -18.004391 -5.4588456 -6.026845 -9.9863167 -4.1962018 -19.078758
-6.0251455 -9.9770384 -18.080784 -4.2478275 -4.2208381 160.96126
-4.1929011 -19.125244 -4.2179804 160.9073 -12.374931 -25.782494
200612500 -17.974987 -6.1072273 -6.0214791 -10.27705 -4.1948147 -19.469488
-6.0193324 -10.266273 -18.052002 -4.9140477 -4.2190843 160.5737
-4.1914096 -19.516886 -4.2164578 160.51775 -12.366136 -26.417614
204350000 -17.948141 -6.7627311 -6.0157027 -10.564208 -4.1935077 -19.857662
-6.0135851 -10.552147 -18.023872 -5.5734582 -4.2173243 160.18626
-4.1903877 -19.905298 -4.2151575 160.12653 -12.356564 -27.049049
208087500 -17.919109 -7.4067287 -6.0104661 -10.851023 -4.1921296 -20.248852
-6.0083833 -10.835762 -17.996019 -6.2306285 -4.2153621 159.79773
-4.1893344 -20.29236 -4.2137136 159.73807 -12.347881 -27.683159
211825000 -17.891665 -8.0523825 -6.0053968 -11.137739 -4.1911201 -20.637987
-6.0036716 -11.122304 -17.971022 -6.8796906 -4.2139468 159.40834
-4.1886821 -20.679529 -4.2122936 159.35036 -12.339378 -28.317799
215562500 -17.864433 -8.6805191 -6.000329 -11.42198 -4.1903172 -21.026428
-5.9979792 -11.408988 -17.947018 -7.5197821 -4.2123322 159.01993
-4.1877265 -21.067917 -4.2107692 158.96231 -12.33165 -28.948671
219300000 -17.839197 -9.3181896 -5.9952335 -11.708954 -4.1892891 -21.413404
-5.9931946 -11.693735 -17.922554 -8.1611547 -4.2109079 158.63022
-4.1870012 -21.452106 -4.2093964 158.57372 -12.32272 -29.583197
223037500 -17.813786 -9.9589081 -5.9904022 -11.991099 -4.188518 -21.79998
-5.9884014 -11.981441 -17.899643 -8.7937908 -4.2096224 158.23845
-4.1861792 -21.837519 -4.2079821 158.18631 -12.315011 -30.213875
226775000 -17.789932 -10.588683 -5.9862251 -12.27551 -4.1876974 -22.187454
-5.9842696 -12.266337 -17.877392 -9.4241877 -4.2084002 157.84978
-4.1855669 -22.223715 -4.2071071 157.79936 -12.30764 -30.845688
230512500 -17.766863 -11.22835 -5.9816637 -12.55688 -4.186501 -22.573631
-5.9801617 -12.549765 -17.853794 -10.050219 -4.2066598 157.45714
-4.1844974 -22.607048 -4.2055469 157.41331 -12.300426 -31.479937
234250000 -17.744165 -11.846985 -5.9776144 -12.838657 -4.1855121 -22.956638
-5.9757166 -12.83626 -17.831917 -10.665718 -4.2056737 157.06789
-4.1838732 -22.99041 -4.2048578 157.02873 -12.292388 -32.111221
237987500 -17.723948 -12.475347 -5.9736166 -13.123381 -4.184885 -23.340239
-5.9713755 -13.119775 -17.811792 -11.270098 -4.2046013 156.6795
-4.1831555 -23.372843 -4.2040625 156.64076 -12.284345 -32.739807
241725000 -17.701965 -13.08597 -5.9695196 -13.403453 -4.1844153 -23.724302
-5.9672565 -13.402606 -17.792227 -11.884818 -4.2038379 156.28831
-4.1825356 -23.755676 -4.2030339 156.25397 -12.276834 -33.363884
245462500 -17.680672 -13.684948 -5.9662771 -13.685486 -4.184144 -24.109856
-5.9635687 -13.687173 -17.772964 -12.483042 -4.2030864 155.90161
-4.1819162 -24.141191 -4.2021952 155.8709 -12.270163 -33.985977
249200000 -17.662897 -14.278442 -5.9619231 -13.969213 -4.1836405 -24.495558
-5.9594374 -13.971951 -17.755564 -13.078541 -4.2019649 155.5155
-4.1812301 -24.527899 -4.201355 155.48579 -12.263183 -34.606308
252937500 -17.644451 -14.879272 -5.9584212 -14.250324 -4.1832342 -24.883526
-5.9556007 -14.255357 -17.738779 -13.678003 -4.2008948 155.12614
-4.180696 -24.91223 -4.2002606 155.10095 -12.257505 -35.221146
256675000 -17.626289 -15.476818 -5.9550982 -14.533225 -4.1825895 -25.269379
-5.9524741 -14.536234 -17.720594 -14.281119 -4.199966 154.73866
-4.1806521 -25.29512 -4.1993685 154.71664 -12.250843 -35.834644
260412500 -17.606174 -16.066177 -5.9527502 -14.812718 -4.18262 -25.655491
-5.9497037 -14.819236 -17.704552 -14.878603 -4.1987295 154.3519
-4.180685 -25.682062 -4.198555 154.33144 -12.24577 -36.448257
264150000 -17.586735 -16.646069 -5.9498153 -15.093673 -4.1828799 -26.043531
-5.9470348 -15.098441 -17.688107 -15.471226 -4.1977186 153.96245
-4.1804729 -26.064741 -4.1973076 153.94783 -12.240949 -37.058655
267887500 -17.565517 -17.229858 -5.9472613 -15.372719 -4.1824489 -26.425007
-5.9445591 -15.376192 -17.670135 -16.058926 -4.1962461 153.57462
-4.1800961 -26.444422 -4.1960554 153.55989 -12.235439 -37.671429
271625000 -17.546574 -17.801676 -5.9451294 -15.655115 -4.1822891 -26.808537
-5.9423003 -15.659578 -17.652918 -16.631065 -4.1956654 153.18846
-4.1797466 -26.827282 -4.1952252 153.1741 -12.230349 -38.287197
275362500 -17.527529 -18.387154 -5.9431038 -15.938066 -4.1821585 -27.191795
-5.9406314 -15.938641 -17.636667 -17.209536 -4.1949959 152.80272
-4.1797671 -27.210567 -4.194016 152.78383 -12.226507 -38.893879
279100000 -17.509205 -18.947012 -5.9411259 -16.215347 -4.181407 -27.575472
-5.9388661 -16.217863 -17.620005 -17.783092 -4.1939068 152.41573
-4.1796217 -27.594296 -4.1936054 152.39787 -12.22312 -39.502289
282837500 -17.493385 -19.528841 -5.9390659 -16.492359 -4.1808376 -27.95826
-5.937036 -16.495541 -17.60446 -18.357756 -4.1932359 152.03166
-4.1795835 -27.975363 -4.1931252 152.0153 -12.219468 -40.114895
286575000 -17.477461 -20.102358 -5.936964 -16.773993 -4.180315 -28.340771
-5.9349737 -16.775629 -17.589975 -18.932665 -4.1925311 151.64317
-4.1792798 -28.35581 -4.1925869 151.62923 -12.215632 -40.721409
290312500 -17.4578 -20.676807 -5.9362159 -17.050232 -4.1801434 -28.722702
-5.9337902 -17.052237 -17.573553 -19.503206 -4.1919422 151.25359
-4.1789284 -28.735647 -4.191608 151.24129 -12.212809 -41.324825
294050000 -17.440975 -21.225075 -5.9346647 -17.325991 -4.1803622 -29.106256
-5.932229 -17.327911 -17.558945 -20.072001 -4.1914239 150.86934
-4.1791587 -29.118416 -4.1910038 150.85632 -12.209818 -41.930401
297787500 -17.425226 -21.773708 -5.933547 -17.603731 -4.1799383 -29.489697
-5.9307342 -17.609358 -17.544176 -20.627676 -4.190577 150.48102
-4.1785941 -29.501356 -4.190464 150.47057 -12.207848 -42.543068
301525000 -17.410391 -22.322964 -5.9320569 -17.881464 -4.1796989 -29.870102
-5.9291272 -17.888605 -17.529266 -21.179047 -4.1899333 150.0974
-4.1785588 -29.886307 -4.1903734 150.084 -12.204915 -43.140263
305262500 -17.395311 -22.866669 -5.9310932 -18.158619 -4.1792512 -30.249664
-5.9272857 -18.164745 -17.512623 -21.740566 -4.1893826 149.71602
-4.1778765 -30.271935 -4.1901846 149.69366 -12.202116 -43.744522
309000000 -17.379761 -23.406441 -5.9302053 -18.43676 -4.1795568 -30.630796
-5.9256816 -18.442215 -17.49766 -22.295559 -4.1892734 149.33446
-4.1775985 -30.655115 -4.1897726 149.30962 -12.201067 -44.356163
312737500 -17.364225 -23.945078 -5.9293485 -18.711178 -4.1800365 -31.012106
-5.9242315 -18.714376 -17.484549 -22.865152 -4.1888709 148.95102
-4.1779256 -31.03713 -4.1898165 148.92525 -12.199415 -44.962158
316475000 -17.349592 -24.487013 -5.9288468 -18.985489 -4.1801157 -31.395529
-5.9230251 -18.986549 -17.468718 -23.434345 -4.1884446 148.5645
-4.1773915 -31.416855 -4.1897998 148.5401 -12.197659 -45.576103
320212500 -17.333664 -25.02705 -5.9282045 -19.257511 -4.1801968 -31.773283
-5.9217477 -19.263176 -17.454662 -23.996401 -4.1883001 148.18394
-4.1770697 -31.799593 -4.1891913 148.15694 -12.19656 -46.184917
323950000 -17.317083 -25.559908 -5.9276652 -19.531782 -4.180408 -32.151993
-5.9209232 -19.534618 -17.438475 -24.546858 -4.1877704 147.80432
-4.1768298 -32.181412 -4.1888785 147.76871 -12.19574 -46.795319
327687500 -17.302959 -26.098991 -5.9271741 -19.801249 -4.180378 -32.532921
-5.9203143 -19.803219 -17.42153 -25.103828 -4.1874743 147.42149
-4.1768212 -32.562908 -4.1886482 147.38187 -12.195411 -47.414482
331425000 -17.290344 -26.63138 -5.9266405 -20.071808 -4.1805058 -32.912582
-5.9198551 -20.072874 -17.406322 -25.659821 -4.1875949 147.03973
-4.1772757 -32.945419 -4.1888657 146.99698 -12.195204 -48.028217
335162500 -17.275984 -27.17119 -5.9264431 -20.344946 -4.1799755 -33.288021
-5.9196987 -20.344017 -17.389027 -26.205816 -4.1875563 146.65851
-4.1765084 -33.327869 -4.1887851 146.60927 -12.195019 -48.645378
338900000 -17.262325 -27.707222 -5.9259176 -20.613573 -4.1804481 -33.66515
-5.9195209 -20.612816 -17.373987 -26.762436 -4.1878138 146.27768
-4.1766615 -33.706169 -4.1885386 146.22754 -12.194922 -49.262352
342637500 -17.248981 -28.234873 -5.9255815 -20.88685 -4.1802073 -34.044945
-5.9193282 -20.877754 -17.358551 -27.312084 -4.1877866 145.89687
-4.1761289 -34.083618 -4.1880717 145.84219 -12.194985 -49.883442
346375000 -17.235535 -28.763391 -5.9257154 -21.156096 -4.1802025 -34.423458
-5.9194646 -21.145994 -17.343624 -27.854792 -4.1876097 145.51678
-4.1767664 -34.462318 -4.1882806 145.46007 -12.195094 -50.506119
350112500 -17.224089 -29.291981 -5.9250479 -21.421202 -4.179894 -34.805241
-5.9193187 -21.414339 -17.332584 -28.405123 -4.1870899 145.13254
-4.1773105 -34.844139 -4.1885324 145.07848 -12.194799 -51.119324
353850000 -17.211155 -29.809145 -5.9253106 -21.687572 -4.1801591 -35.182854
-5.9196744 -21.683832 -17.318165 -28.938 -4.1869016 144.75243
-4.177206 -35.225636 -4.1880755 144.69791 -12.196716 -51.731159
357587500 -17.197969 -30.31889 -5.9251761 -21.954905 -4.1801085 -35.563976
-5.9197745 -21.952755 -17.303963 -29.460762 -4.18642 144.3709
-4.1772308 -35.610046 -4.1878424 144.31625 -12.198359 -52.340282
361325000 -17.185207 -30.839458 -5.9252944 -22.222414 -4.1805243 -35.944962
-5.9206357 -22.21707 -17.288914 -29.994663 -4.1863828 143.98692
-4.1776295 -35.990551 -4.1875076 143.93077 -12.197956 -52.955048
365062500 -17.17444 -31.35294 -5.925643 -22.487448 -4.1808047 -36.323635
