! MARKI MICROWAVE INC.
! Email:             	info@markimicrowave.com   				Phone:   408-778-4200
! Model Number:      	BALH-0003SMG						Date:    06/13
! Filename:		BALH-0003SMG.S3P						Version: 1.0
! Description:       	3-port S-parameter data for Balun BALH-0003SMG
! Frequency Range: 	10 MHz to 3 GHz		
! Port Configuration:	PORT 1: OUTPUT (0 DEGREE), PORT 2: OUTPUT (180 DEGREE), PORT 3:COMMON 


! S3P File: Measurements: Mag<S11> Ang<S11> Mag<S12> Ang<S12> Mag<S13> Ang<S13>! row 1 
!			  Mag<S21> Ang<S21> Mag<S22> Ang<S22> Mag<S23> Ang<S23>! row 2 
!			  Mag<S31> Ang<S31> Mag<S32> Ang<S32> Mag<S33> Ang<S33>! row 3 

# Hz S  dB   R 50
10000000 -22.368082 121.85877 -8.3695936 7.0487251 -4.7846518 -0.78372037
-8.3715801 6.7823596 -20.692459 121.75498 -4.9508619 -179.47723
-4.7788301 0.405417 -4.9493775 -178.0144 -15.996545 18.054892
17487500 -23.551682 125.75925 -8.3410044 5.7100611 -4.7851429 -1.2671503
-8.3415003 5.487349 -21.816057 124.85897 -4.9399815 179.912
-4.7797894 -0.32701659 -4.9387612 -178.91876 -16.01952 15.02621
24975000 -24.711309 130.39604 -8.3148718 4.2926555 -4.7873778 -1.8209711
-8.3144035 4.1129379 -22.942745 128.62981 -4.9301577 179.22578
-4.7824554 -1.1270612 -4.928947 -179.89549 -16.044149 11.806993
32462500 -25.83217 135.54173 -8.2921867 2.8019488 -4.7907157 -2.4409156
-8.2901697 2.6671271 -24.043169 132.86943 -4.9212933 178.467
-4.7862592 -1.9920619 -4.9203897 179.0569 -16.07456 8.4137011
39950000 -26.898031 140.96297 -8.271946 1.2434243 -4.7952933 -3.1294084
-8.2688017 1.1535728 -25.113058 137.35098 -4.913579 177.63329
-4.7910872 -2.919488 -4.912746 177.93991 -16.11348 4.8844457
47437500 -27.919939 146.57306 -8.254509 -0.37226725 -4.8003144 -3.8830216
-8.25 -0.4160482 -26.15313 142.00475 -4.9065175 176.73048
-4.7965422 -3.9095349 -4.9058599 176.75417 -16.160362 1.2392418
54925000 -28.906775 152.25128 -8.2399702 -2.0451148 -4.8063159 -4.7041979
-8.2340326 -2.044137 -27.170061 146.72591 -4.9009404 175.75658
-4.8030419 -4.9624782 -4.9005609 175.50311 -16.212614 -2.5000358
62412500 -29.445522 158.0972 -8.2541523 -3.2627971 -4.8140907 -5.5578847
-8.2472048 -3.2618117 -27.762144 151.50131 -4.9053292 174.79642
-4.8106132 -5.7953949 -4.9054575 174.5564 -16.274826 -4.9660835
69900000 -29.640991 163.44643 -8.2775745 -4.2657142 -4.823144 -6.3928528
-8.2707949 -4.2641702 -28.053848 155.86888 -4.9140182 173.89104
-4.8193383 -6.5844045 -4.913146 173.69388 -16.32416 -6.8609433
77387500 -29.594355 167.9402 -8.3051214 -5.130302 -4.8352609 -7.190032
-8.2984715 -5.1217184 -28.119074 159.58382 -4.9256773 173.04405
-4.8304033 -7.3397446 -4.9235578 172.88084 -16.367199 -8.4956207
84875000 -29.400682 171.47423 -8.3327703 -5.8906574 -4.8473759 -7.9494267
-8.3261623 -5.8750029 -28.041534 162.50317 -4.9372778 172.2401
-4.8417726 -8.0710316 -4.9339805 172.10243 -16.407701 -9.9983082
92362500 -29.118898 174.03619 -8.3589659 -6.5789657 -4.8588605 -8.6823301
-8.3523207 -6.5602531 -27.865742 164.64055 -4.9478807 171.46762
-4.8526206 -8.779006 -4.9443169 171.35298 -16.452999 -11.409443
99850000 -28.790579 175.66447 -8.3832912 -7.2118502 -4.8690519 -9.3998203
-8.3768616 -7.1908226 -27.6472 166.04752 -4.9577751 170.7122
-4.862606 -9.4679317 -4.9539256 170.62434 -16.501225 -12.700032
107337500 -28.472895 176.49828 -8.4062357 -7.8059006 -4.8780665 -10.106794
-8.3997402 -7.7825003 -27.416067 166.71295 -4.9671893 169.97052
-4.8714533 -10.149131 -4.963551 169.90602 -16.548428 -13.884764
114825000 -28.185204 176.70306 -8.4271421 -8.3721313 -4.8864093 -10.810158
-8.4211979 -8.3462458 -27.200844 166.81619 -4.9764953 169.23988
-4.8799458 -10.825274 -4.9726677 169.19963 -16.591026 -14.97498
122312500 -27.946701 176.58496 -8.4464741 -8.9109097 -4.8941007 -11.504808
-8.4404678 -8.8833342 -27.007818 166.58896 -4.985034 168.5235
-4.8880563 -11.498103 -4.9813766 168.50291 -16.626537 -16.018412
129800000 -27.746029 176.17053 -8.4637003 -9.4361267 -4.9019814 -12.192861
-8.4579897 -9.4069328 -26.836981 166.1017 -4.9935341 167.81691
-4.8959503 -12.167905 -4.9898887 167.81352 -16.653894 -17.034002
137287500 -27.575785 175.62787 -8.4785862 -9.9474325 -4.9093938 -12.871074
-8.4733191 -9.9149561 -26.680933 165.42363 -5.0009179 167.11977
-4.9030838 -12.834217 -4.9971304 167.12608 -16.677668 -18.034267
144775000 -27.430119 175.00562 -8.4918652 -10.444121 -4.9162111 -13.541534
-8.4871407 -10.410435 -26.542557 164.62029 -5.007844 166.42949
-4.909905 -13.493781 -5.0039392 166.44527 -16.701748 -19.033855
152262500 -27.305935 174.32277 -8.5040312 -10.928521 -4.9224334 -14.203805
-8.4992514 -10.89323 -26.421318 163.72667 -5.0144339 165.7458
-4.9159231 -14.150691 -5.01055 165.76341 -16.724449 -20.015348
159750000 -27.203175 173.55844 -8.5150919 -11.403389 -4.9279032 -14.862539
-8.5106392 -11.369932 -26.32058 162.73647 -5.0207682 165.06657
-4.9215407 -14.808871 -5.0169754 165.08591 -16.745499 -20.963291
167237500 -27.120182 172.7076 -8.5246353 -11.872701 -4.9330497 -15.522001
-8.5201464 -11.84014 -26.229675 161.71043 -5.0269675 164.39186
-4.9267159 -15.468994 -5.0232859 164.40994 -16.762192 -21.873335
174725000 -27.052187 171.82684 -8.5326176 -12.337834 -4.9378014 -16.181635
-8.528554 -12.30268 -26.151817 160.64696 -5.0329928 163.7195
-4.9316101 -16.130245 -5.0290136 163.7357 -16.774618 -22.754856
182212500 -27.002739 170.86153 -8.5397635 -12.803267 -4.9425011 -16.841677
-8.5353565 -12.764212 -26.08477 159.53528 -5.0383191 163.04973
-4.9366097 -16.789997 -5.0347838 163.06277 -16.784994 -23.638308
189700000 -26.969316 169.87381 -8.5456953 -13.268624 -4.9468703 -17.501219
-8.541214 -13.225961 -26.026733 158.405 -5.043273 162.37936
-4.9414115 -17.447424 -5.039855 162.39372 -16.794886 -24.510462
197187500 -26.942959 168.91837 -8.5499067 -13.727738 -4.951117 -18.155567
-8.5453072 -13.687627 -25.976019 157.24028 -5.0477366 161.71146
-4.9453754 -18.104143 -5.0444388 161.72174 -16.803707 -25.37952
204675000 -26.922525 167.93633 -8.5532618 -14.190455 -4.9546871 -18.809696
-8.5489273 -14.149035 -25.934099 156.05637 -5.0522127 161.04289
-4.9491749 -18.761602 -5.0490246 161.04791 -16.810289 -26.234192
212162500 -26.909334 166.99571 -8.5558023 -14.650032 -4.9577379 -19.467531
-8.5517941 -14.608232 -25.905178 154.86285 -5.0564799 160.37215
-4.9526553 -19.418455 -5.0534754 160.37732 -16.816242 -27.074551
219650000 -26.903849 166.02063 -8.557641 -15.10905 -4.9608364 -20.12402
-8.5536747 -15.066377 -25.883337 153.66211 -5.060576 159.70641
-4.9560876 -20.073441 -5.057519 159.70905 -16.820473 -27.908615
227137500 -26.904575 165.0229 -8.5586042 -15.568213 -4.963798 -20.781107
-8.5544415 -15.525667 -25.867577 152.47778 -5.0640903 159.04039
-4.9592595 -20.731812 -5.0615106 159.04352 -16.822859 -28.74506
234625000 -26.907637 164.06372 -8.5584211 -16.025356 -4.9664202 -21.440739
-8.5538549 -15.990909 -25.8549 151.29434 -5.0673647 158.37025
-4.9623108 -21.387545 -5.064795 158.38277 -16.824343 -29.571365
242112500 -26.923357 163.09676 -8.5577745 -16.487772 -4.9691086 -22.099016
-8.5526257 -16.453957 -25.845982 150.10614 -5.0702524 157.70299
-4.9651589 -22.042896 -5.0677958 157.7195 -16.823149 -30.401545
249600000 -26.946802 162.16574 -8.5567045 -16.9503 -4.9713879 -22.751879
-8.5513639 -16.915871 -25.845701 148.88731 -5.0729346 157.03957
-4.9679394 -22.693228 -5.070662 157.05521 -16.822107 -31.229837
257087500 -26.97743 161.24001 -8.5551548 -17.416452 -4.9738512 -23.405909
-8.5494642 -17.384541 -25.850704 147.65257 -5.0755162 156.37485
-4.9705014 -23.347422 -5.0738235 156.39079 -16.82074 -32.055225
264575000 -27.009613 160.3268 -8.5525827 -17.876457 -4.9757681 -24.058529
-8.5475225 -17.851496 -25.859934 146.43446 -5.0780616 155.70976
-4.9727325 -23.999676 -5.0764074 155.73204 -16.816181 -32.873318
272062500 -27.047218 159.4209 -8.549943 -18.342789 -4.977922 -24.714205
-8.5442953 -18.323118 -25.87237 145.2077 -5.0804219 155.04451
-4.974658 -24.654572 -5.07898 155.06995 -16.811945 -33.685604
279550000 -27.089205 158.49934 -8.5469475 -18.815105 -4.9795561 -25.370329
-8.540844 -18.790457 -25.891991 143.98969 -5.0825834 154.38103
-4.9766974 -25.308357 -5.0815125 154.40758 -16.806887 -34.491135
287037500 -27.143269 157.57205 -8.5435457 -19.283358 -4.9818821 -26.027925
-8.5369987 -19.261753 -25.915161 142.77388 -5.0846825 153.7179
-4.9784179 -25.96567 -5.0837703 153.74753 -16.800455 -35.292892
294525000 -27.2048 156.66046 -8.5399513 -19.752707 -4.9838357 -26.680132
-8.5324545 -19.734575 -25.93951 141.56512 -5.0862408 153.0587
-4.980454 -26.62277 -5.0862799 153.08566 -16.794191 -36.099579
302012500 -27.270821 155.76263 -8.5358438 -20.221342 -4.985383 -27.333504
-8.5278988 -20.210407 -25.967016 140.3791 -5.0881066 152.39621
-4.9819856 -27.281395 -5.088624 152.42476 -16.787809 -36.907913
309500000 -27.336565 154.92171 -8.5311422 -20.693441 -4.9866447 -27.983461
-8.5229712 -20.681133 -26.001192 139.17995 -5.0897641 151.73732
-4.983295 -27.931803 -5.090764 151.76166 -16.779799 -37.721455
316987500 -27.412191 154.04433 -8.5268927 -21.16958 -4.9882903 -28.633913
-8.5186148 -21.154093 -26.041531 138.00056 -5.0915041 151.08134
-4.9845853 -28.590231 -5.0930934 151.0981 -16.773449 -38.546276
324475000 -27.482946 153.1904 -8.5214577 -21.641058 -4.9890838 -29.285898
-8.5131063 -21.626383 -26.083954 136.83641 -5.0929956 150.42291
-4.9858809 -29.242741 -5.0948501 150.43744 -16.767075 -39.369076
331962500 -27.55736 152.34009 -8.5156746 -22.113638 -4.9903588 -29.94158
-8.5074272 -22.101564 -26.127743 135.72453 -5.0943708 149.75955
-4.9873338 -29.899286 -5.0971122 149.77914 -16.761988 -40.195499
339450000 -27.632999 151.49544 -8.5103779 -22.590263 -4.9915867 -30.593609
-8.5016832 -22.572916 -26.180779 134.57957 -5.0958877 149.10182
-4.9884763 -30.551226 -5.0985651 149.11929 -16.756254 -41.026451
346937500 -27.711601 150.69717 -8.5042744 -23.068972 -4.993032 -31.245117
-8.4950476 -23.046541 -26.231806 133.46167 -5.0970516 148.44516
-4.9893332 -31.204914 -5.0997863 148.45555 -16.748806 -41.860538
354425000 -27.787485 149.90639 -8.4977512 -23.545256 -4.9939432 -31.892582
-8.4886913 -23.520447 -26.289883 132.33017 -5.0986481 147.79082
-4.9902158 -31.857229 -5.1013875 147.7935 -16.74122 -42.703678
361912500 -27.870022 149.1703 -8.4913311 -24.020723 -4.9946995 -32.541683
-8.4826307 -23.999447 -26.351013 131.21069 -5.0998306 147.13318
-4.9913511 -32.509525 -5.1029415 147.13669 -16.732151 -43.555199
369400000 -27.947266 148.44566 -8.4846315 -24.500004 -4.9950047 -33.190483
-8.4760523 -24.478416 -26.416914 130.09036 -5.1009393 146.47598
-4.9920988 -33.159233 -5.1038733 146.47639 -16.724686 -44.421589
376887500 -28.027428 147.7124 -8.4774675 -24.983206 -4.9959936 -33.84375
-8.4698009 -24.95957 -26.48225 128.95219 -5.1025066 145.81464
-4.992507 -33.80909 -5.10428 145.81876 -16.718304 -45.277458
384375000 -28.108881 146.98029 -8.4702559 -25.46904 -4.9968438 -34.500027
-8.4632101 -25.441992 -26.556019 127.81819 -5.1036983 145.15358
-4.9937921 -34.461086 -5.1054559 145.15866 -16.711046 -46.126839
391862500 -28.199883 146.22267 -8.4636726 -25.957977 -4.9974804 -35.15712
-8.4570427 -25.931885 -26.632957 126.65427 -5.1046901 144.49156
-4.9949889 -35.118107 -5.1065407 144.49884 -16.703278 -46.95689
399350000 -28.291111 145.51115 -8.456028 -26.444525 -4.9979944 -35.812859
-8.4505854 -26.420681 -26.710882 125.46516 -5.1057596 143.8291
-4.9959698 -35.769466 -5.1071715 143.84094 -16.693367 -47.79084
406837500 -28.385908 144.81322 -8.4490728 -26.936848 -4.9989839 -36.469585
-8.4438381 -26.912582 -26.792614 124.26015 -5.1066341 143.16397
-4.9966979 -36.423996 -5.1082602 143.18039 -16.683105 -48.629765
414325000 -28.479624 144.12009 -8.4421234 -27.434252 -4.9995494 -37.124813
-8.4370975 -27.406719 -26.877068 122.99291 -5.1080317 142.50301
-4.9968929 -37.078098 -5.1085925 142.51743 -16.672388 -49.463299
421812500 -28.568832 143.45477 -8.4342308 -27.927494 -4.9996471 -37.782207
-8.4296675 -27.902721 -26.960604 121.74717 -5.1084514 141.83826
-4.9972687 -37.732395 -5.1094122 141.85745 -16.662165 -50.29377
429300000 -28.665552 142.77296 -8.4269199 -28.423874 -4.9996967 -38.443672
-8.4231052 -28.399792 -27.04846 120.44868 -5.1092935 141.17151
-4.9981041 -38.389084 -5.1103301 141.19701 -16.653568 -51.120003
436787500 -28.766558 142.07584 -8.4197273 -28.918591 -4.9997001 -39.104542
-8.4166031 -28.896133 -27.137701 119.14074 -5.1098833 140.50662
-4.9987483 -39.044682 -5.110744 140.53825 -16.644756 -51.936607
444275000 -28.87418 141.38913 -8.4123573 -29.413988 -5.0003958 -39.7658
-8.4097557 -29.394461 -27.227425 117.79104 -5.1108894 139.8419
-4.9989109 -39.704411 -5.1111851 139.87457 -16.637014 -52.754375
451762500 -28.979811 140.7244 -8.4049015 -29.910177 -5.0006733 -40.424347
-8.402257 -29.890024 -27.316238 116.41119 -5.1114373 139.18011
-4.9995189 -40.362877 -5.1122489 139.21356 -16.628712 -53.568539
459250000 -29.082239 140.05807 -8.3969698 -30.406206 -5.0007458 -41.08252
-8.3946552 -30.384893 -27.406315 115.00088 -5.1120572 138.51921
-4.9998379 -41.021496 -5.1126313 138.54831 -16.619349 -54.385937
466737500 -29.185043 139.43512 -8.3890963 -30.902805 -5.000649 -41.740604
-8.3864822 -30.882765 -27.490105 113.56971 -5.112433 137.8557
-4.9994278 -41.678413 -5.1129732 137.88757 -16.609961 -55.220203
474225000 -29.285963 138.86307 -8.3808165 -31.399706 -5.0007567 -42.400227
-8.3779459 -31.379086 -27.569994 112.13059 -5.1131797 137.19135
-4.9993172 -42.33786 -5.113142 137.2253 -16.603205 -56.060005
481712500 -29.396065 138.32365 -8.3731909 -31.898098 -5.0010467 -43.060802
-8.3692322 -31.874403 -27.646177 110.70306 -5.1136293 136.52722
-4.9987106 -42.998661 -5.113492 136.56119 -16.594807 -56.895885
489200000 -29.50625 137.81659 -8.3648252 -32.396843 -5.0009327 -43.721447
-8.3612537 -32.372093 -27.720175 109.25546 -5.1141148 135.86519
-4.9987884 -43.661175 -5.1138253 135.896 -16.587852 -57.727707
496687500 -29.627443 137.31509 -8.3564253 -32.892288 -5.0012527 -44.384521
-8.3536911 -32.869919 -27.793732 107.82183 -5.1147814 135.20174
-4.9991736 -44.324337 -5.1140399 135.23355 -16.576565 -58.568245
504175000 -29.748844 136.81619 -8.3484755 -33.392517 -5.0017834 -45.045437
-8.3454046 -33.369259 -27.855278 106.38722 -5.115746 134.54027
-4.9993029 -44.985851 -5.1147647 134.56934 -16.563728 -59.412975
511662500 -29.86808 136.38318 -8.3398829 -33.891788 -5.0022001 -45.705784
-8.3367825 -33.869545 -27.916664 105.0064 -5.1164651 133.87685
-4.9994631 -45.648075 -5.1149936 133.905 -16.552282 -60.26511
519150000 -29.994926 135.97997 -8.330924 -34.396961 -5.0027404 -46.367245
-8.3280363 -34.372982 -27.972145 103.6354 -5.1168513 133.21294
-4.999845 -46.310135 -5.1156549 133.23767 -16.538103 -61.138493
526637500 -30.118299 135.5834 -8.3222008 -34.901829 -5.0032048 -47.027626
-8.3191719 -34.87616 -28.022047 102.32893 -5.1174722 132.55119
-5.0003867 -46.972351 -5.1160583 132.57373 -16.524321 -62.005127
534125000 -30.246536 135.1842 -8.3133926 -35.415516 -5.0035009 -47.692574
-8.3105841 -35.388332 -28.065226 101.04654 -5.117722 131.88448
-5.000483 -47.636303 -5.1162028 131.90475 -16.509237 -62.856232
541612500 -30.385719 134.81076 -8.3055305 -35.928326 -5.0039825 -48.354942
-8.3019037 -35.90107 -28.107399 99.787933 -5.1174607 131.21989
-5.0012255 -48.300312 -5.1168866 131.24149 -16.493113 -63.712082
549100000 -30.534441 134.45651 -8.2973347 -36.440739 -5.0047593 -49.019642
-8.2937393 -36.410316 -28.147696 98.569878 -5.117691 130.55493
-5.0022755 -48.967186 -5.1171656 130.57599 -16.475456 -64.560776
556587500 -30.685568 134.10396 -8.2886992 -36.953075 -5.0053959 -49.683846
-8.2859726 -36.921677 -28.18955 97.41777 -5.1179504 129.88861
-5.0035753 -49.630836 -5.1176038 129.90793 -16.454878 -65.410126
564075000 -30.829742 133.78069 -8.2799301 -37.466175 -5.006012 -50.346809
-8.2775726 -37.432636 -28.231447 96.295456 -5.1180048 129.22275
-5.0050511 -50.292923 -5.1183381 129.24255 -16.434771 -66.26342
571562500 -30.977697 133.44621 -8.2711716 -37.98135 -5.0070529 -51.00914
-8.2688618 -37.950356 -28.269169 95.211784 -5.1185031 128.55739
-5.005856 -50.954243 -5.1186309 128.57788 -16.413286 -67.121544
579050000 -31.122112 133.15224 -8.2622299 -38.497944 -5.0077581 -51.668934
-8.2591105 -38.466103 -28.312059 94.162788 -5.1182642 127.89274
-5.0059395 -51.614815 -5.1188908 127.91201 -16.393957 -67.977783
586537500 -31.282696 132.89735 -8.2535305 -39.011494 -5.0082288 -52.331596
-8.2509832 -38.978966 -28.36935 93.146088 -5.1180563 127.22628
-5.0073533 -52.277916 -5.1191497 127.24536 -16.373356 -68.837509
594025000 -31.446293 132.63789 -8.2450075 -39.52647 -5.0092292 -52.992714
-8.2422724 -39.495857 -28.428858 92.14283 -5.1181388 126.56505
-5.0081706 -52.939522 -5.1198306 126.58304 -16.351141 -69.688141
601512500 -31.598724 132.4454 -8.2363214 -40.042114 -5.0102873 -53.65469
-8.233263 -40.010052 -28.4883 91.206558 -5.1184659 125.90174
-5.0092044 -53.601437 -5.1200676 125.92013 -16.329712 -70.533066
609000000 -31.748053 132.29242 -8.2271862 -40.558311 -5.0109468 -54.317234
-8.2238512 -40.52739 -28.558523 90.287415 -5.1181622 125.23545
-5.0099759 -54.262077 -5.1201887 125.25603 -16.307491 -71.391396
616487500 -31.902102 132.25522 -8.2177896 -41.070293 -5.012239 -54.978691
-8.2144623 -41.038704 -28.632202 89.433311 -5.1186724 124.56974
-5.0109744 -54.92009 -5.1201444 124.59417 -16.286192 -72.262306
623975000 -32.047176 132.19186 -8.2072783 -41.586586 -5.0131683 -55.636932
-8.2047529 -41.556412 -28.706881 88.58989 -5.1187539 123.90524
-5.0118318 -55.578796 -5.119957 123.93147 -16.265041 -73.137711
631462500 -32.194561 132.1769 -8.1979799 -42.10421 -5.0139203 -56.294682
-8.195282 -42.077053 -28.791918 87.735733 -5.1189041 123.24168
-5.0123725 -56.235649 -5.1199055 123.26485 -16.24509 -74.009644
638950000 -32.346924 132.17531 -8.1885452 -42.625191 -5.0147548 -56.952629
-8.1856728 -42.597408 -28.87294 86.83551 -5.1186848 122.57903
-5.0124779 -56.893379 -5.1196518 122.60052 -16.225382 -74.875687
646437500 -32.498955 132.22011 -8.1789684 -43.1478 -5.0153618 -57.610394
-8.1763229 -43.118793 -28.966234 85.923531 -5.1187811 121.91613
-5.0130763 -57.554207 -5.1193433 121.93333 -16.205324 -75.73481
653925000 -32.651882 132.29852 -8.1697788 -43.669064 -5.0160923 -58.268475
-8.1668968 -43.64109 -29.063808 85.003799 -5.1187434 121.25183
-5.0137258 -58.214516 -5.1195717 121.2693 -16.185478 -76.589767
661412500 -32.800858 132.39258 -8.1605825 -44.192356 -5.0167141 -58.931042
-8.1575212 -44.164913 -29.163 84.072479 -5.1184812 120.58426
-5.015275 -58.874123 -5.1201463 120.60493 -16.164246 -77.447342
668900000 -32.94141 132.43039 -8.1505671 -44.717163 -5.0176549 -59.591446
-8.1474342 -44.696106 -29.257278 83.142128 -5.11905 119.918
-5.0158582 -59.535797 -5.1201582 119.94499 -16.144888 -78.308739
676387500 -33.089455 132.60635 -8.1409264 -45.247726 -5.0180511 -60.251553
-8.1377888 -45.224319 -29.359001 82.165298 -5.1189384 119.2493
-5.0163326 -60.193947 -5.1198158 119.27698 -16.127312 -79.178009
683875000 -33.246891 132.77174 -8.1313515 -45.776188 -5.0183473 -60.907475
-8.1286316 -45.754208 -29.464258 81.106773 -5.1188641 118.58435
-5.0165739 -60.854111 -5.1193562 118.61051 -16.109411 -80.042534
691362500 -33.412205 132.9563 -8.1221991 -46.308365 -5.0186768 -61.563801
-8.1196384 -46.284237 -29.571098 80.00869 -5.1187916 117.91823
-5.0168505 -61.512356 -5.1190977 117.94228 -16.090509 -80.898415
698850000 -33.573116 133.10574 -8.1135578 -46.837852 -5.0187149 -62.220203
-8.1109219 -46.815762 -29.689098 78.832237 -5.1184902 117.25543
-5.0172715 -62.172165 -5.1191306 117.2775 -16.072166 -81.746887
706337500 -33.733948 133.38298 -8.1053524 -47.36377 -5.0191274 -62.883099
-8.1019897 -47.341515 -29.808754 77.675285 -5.1187973 116.58608
-5.0177326 -62.832127 -5.1197858 116.61024 -16.052839 -82.588631
713825000 -33.882851 133.65218 -8.0960999 -47.895672 -5.0194807 -63.54356
-8.0924644 -47.8708 -29.921274 76.492813 -5.1185956 115.91898
-5.018239 -63.494076 -5.1198173 115.94335 -16.033741 -83.435356
721312500 -34.037544 133.99039 -8.0866222 -48.423199 -5.0197315 -64.202522
-8.0832014 -48.400375 -30.043739 75.347374 -5.1187415 115.25574
-5.0189223 -64.154877 -5.1199179 115.28086 -16.015018 -84.289467
