!Marki	Microwave	Inc.				
!Sales	Email:	info@markimicrowave.com				
!Support	Email:	support@markimicrowave.com				
!Phone:	408-778-4200					
!Model	Number:	MBAL-1440CH				
!Filename:	MBAL-1440CH.s3p					
!Description:	14-40GHz Balun				
!Port	1:	Common				
!	2:	0°	Output			
!	3:	180°	Output			
! S3P File: Measurements: Mag<S11> Ang<S11> Mag<S12> Ang<S12> Mag<S13> Ang<S13>! row 1 
!			  Mag<S21> Ang<S21> Mag<S22> Ang<S22> Mag<S23> Ang<S23>! row 2 
!			  Mag<S31> Ang<S31> Mag<S32> Ang<S32> Mag<S33> Ang<S33>! row 3 				
#	Hz	S	dB	R	50	
10000000	-0.034882676	-0.014539683	-51.995514	-113.24245	-54.870544	88.150436
-58.386642	-14.818816	-0.45156863	-179.40823	-66.063667	-13.65308	
-56.505207	161.38467	-64.115417	133.31569	-0.42771709	-179.36592	
344950000	-0.001691591	-3.7669156	-69.75956	-168.13321	-87.089684	-162.49501
-66.162247	137.20488	-0.41695118	173.43251	-41.635818	96.718437	
-67.286797	-1.794117	-41.206268	98.223991	-0.43564361	173.58244	
679900000	-0.005169446	-7.4631257	-56.65855	151.24686	-58.704876	14.191759
-56.515762	168.59004	-0.47296157	167.23747	-35.147957	84.361565	
-58.237862	-11.000337	-35.22934	84.035164	-0.47923666	167.70451	
1014850000	-0.007332138	-11.077349	-50.673653	161.58185	-52.589466	-12.30685
-50.162334	163.10526	-0.53744745	161.55354	-31.744823	75.817825	
-50.872677	-3.4039006	-31.794785	76.074593	-0.51191282	161.82581	
1349800000	-0.016415045	-14.710841	-45.549671	159.25839	-46.454041	-18.554285
-45.456955	155.862	-0.54629534	155.72333	-29.487803	67.799362	
-46.688877	-14.685084	-29.518675	68.041344	-0.5510875	155.98853	
1684750000	-0.011592958	-18.356445	-41.542812	156.25717	-42.821117	-20.136011
-41.573666	155.93607	-0.56952828	149.89442	-27.782375	60.887852	
-42.887264	-19.679522	-27.80677	61.127804	-0.58066416	150.13972	
2019700000	-0.014791709	-22.090248	-38.570354	150.26277	-39.472435	-23.915855
-38.461056	151.41466	-0.59833938	144.0788	-26.380413	54.635349	
-39.686954	-23.960575	-26.355419	54.952309	-0.62695539	144.36041	
2354650000	-0.019909859	-25.791716	-35.779591	146.259	-36.958267	-29.472233
-35.811371	145.07964	-0.63665503	138.23608	-25.321436	48.035503	
-36.808281	-29.127291	-25.334824	48.383629	-0.66711295	138.60107	
2689600000	-0.040018011	-29.440575	-33.40155	141.071	-34.418346	-35.310493
-33.490517	142.20778	-0.67721206	132.35074	-24.422974	41.861908	
-34.386459	-34.637749	-24.454889	42.036633	-0.7012403	132.77357	
3024550000	-0.052739829	-33.179989	-31.366215	136.96367	-32.380894	-39.300591
-31.416588	137.13182	-0.71012098	126.37328	-23.772821	35.50565	
-32.378857	-39.475433	-23.763435	35.612011	-0.73800534	126.82827	
3359500000	-0.065920591	-36.933117	-29.568956	132.74229	-30.488083	-44.69873
-29.531982	132.3607	-0.75664657	120.41456	-23.235394	29.22208	
-30.472399	-44.070866	-23.252638	29.418739	-0.77553666	120.98208	
3694450000	-0.081970423	-40.641178	-27.820831	127.55986	-28.759308	-48.913586
-27.812893	127.59406	-0.79282105	114.47187	-22.873066	23.391867	
-28.712954	-49.431969	-22.873173	23.368614	-0.80493397	115.12013	
4029400000	-0.10004675	-44.357121	-26.224331	123.30946	-27.180897	-54.0853
-26.258471	122.77948	-0.82143694	108.46233	-22.647617	17.214975	
-27.147635	-54.056763	-22.634552	17.224463	-0.84270841	109.06894	
4364350000	-0.12949756	-48.178501	-24.831985	117.95761	-25.694996	-59.111908
-24.791637	118.1126	-0.84679037	102.42654	-22.509932	11.222816	
-25.702475	-59.082989	-22.488253	11.285307	-0.86671603	103.0659	
4699300000	-0.15648516	-51.984047	-23.422148	113.44696	-24.313755	-64.015038
-23.406479	113.3637	-0.86461103	96.336754	-22.537327	5.2594404	
-24.352537	-64.124573	-22.536167	5.5460482	-0.90344578	97.014145	
5034250000	-0.31983274	-54.59671	-22.222988	107.94765	-23.067324	-69.286179
-22.238615	107.96281	-0.74125612	88.864075	-22.503555	-1.9131835	
-23.046051	-69.259605	-22.49827	-1.8299849	-0.75018853	89.329895	
5369200000	-0.35088378	-58.365688	-21.043413	103.08347	-21.87907	-74.440453
-21.064552	103.17605	-0.77678996	82.664841	-22.843199	-7.777329	
-21.857462	-74.406425	-22.825068	-7.344593	-0.77354938	83.119255	
5704150000	-0.37913871	-62.242798	-19.935556	97.909584	-20.687948	-79.818748
-19.907745	98.03022	-0.80258316	76.375221	-23.397062	-12.882833	
-20.730843	-79.73996	-23.353182	-12.849313	-0.80220324	76.76841	
6039100000	-0.43086532	-66.094353	-18.88895	92.87606	-19.645515	-85.142265
-18.880102	92.721786	-0.8364107	70.096405	-24.045935	-18.132675	
-19.654104	-84.961739	-24.054356	-17.593912	-0.83152819	70.540474	
6374050000	-0.47411451	-69.954048	-17.892471	87.574196	-18.624865	-90.369392
-17.893898	87.456711	-0.87691379	63.720207	-24.996592	-22.24893	
-18.631203	-90.350266	-25.013945	-22.012215	-0.84738761	64.274055	
6709000000	-0.52975482	-73.958382	-16.964294	82.202538	-17.659498	-95.888878
-16.955629	82.088165	-0.90503311	57.391033	-26.196646	-25.36466	
-17.675407	-95.695381	-26.263412	-25.351032	-0.87322444	57.838943	
7043950000	-0.59904122	-77.993019	-16.058754	76.771843	-16.751598	-101.39997
-16.047417	76.74263	-0.93298185	50.948086	-27.776854	-26.445122	
-16.73773	-101.21243	-27.780903	-26.645151	-0.89577168	51.472786	
7378900000	-0.67118841	-82.017242	-15.209328	71.382614	-15.885284	-107.08701
-15.212092	71.174866	-0.96059465	44.498344	-29.892942	-23.269512	
-15.898173	-106.98118	-29.869549	-23.666702	-0.92545813	45.019188	
7713850000	-0.75041789	-86.047775	-14.400613	65.760124	-15.061643	-112.67171
-14.408662	65.653732	-0.98460758	38.047844	-32.254498	-13.276181	
-15.07776	-112.49046	-32.192886	-12.565845	-0.94223744	38.613445	
8048800000	-0.84553051	-89.254494	-13.728657	60.525463	-14.389945	-118.06045
-13.724857	60.377335	-0.99952555	31.223965	-33.762375	10.984944	
-14.377903	-118.09337	-33.899033	11.951458	-0.94626296	31.593468	
8383750000	-0.95539647	-93.433891	-13.004666	54.924706	-13.646883	-123.7308
-13.003814	54.618073	-1.0296767	24.812786	-32.431774	37.321651	
-13.645497	-123.67317	-32.276493	37.837364	-0.98178953	25.25215	
8718700000	-1.0794249	-97.569458	-12.313448	49.196411	-12.950859	-129.48549
-12.303627	48.89822	-1.0692651	18.337461	-29.387367	50.448109	
-12.936201	-129.541	-29.390614	50.18343	-1.0146123	18.946344	
9053650000	-1.2061321	-101.83562	-11.668682	43.419868	-12.281852	-135.37891
-11.664883	43.193741	-1.1175796	11.943932	-26.609531	54.371067	
-12.289153	-135.41701	-26.681711	54.435101	-1.046487	12.639087	
9388600000	-1.36397	-106.13707	-11.060605	37.653908	-11.664705	-141.22198
-11.064893	37.275558	-1.1736071	5.5944529	-24.382227	53.233875	
-11.664163	-141.28613	-24.403824	53.537224	-1.0974013	6.2934418	
9723550000	-1.5314955	-110.41053	-10.491711	31.730886	-11.077831	-147.14914
-10.495482	31.503967	-1.2329956	-0.76387781	-22.560566	50.06052	
-11.094604	-147.08997	-22.56719	50.24707	-1.1476576	-0.004124111	
10058500000	-1.7128122	-114.72531	-9.9467363	25.89031	-10.519379	-153.02684
-9.9666719	25.595892	-1.3030291	-7.0927238	-20.981903	45.30389	
-10.53861	-153.09465	-20.982862	45.679905	-1.2036695	-6.1789441	
10393450000	-1.9090123	-119.0523	-9.4512653	20.044706	-10.025879	-158.91966
-9.4628134	19.723879	-1.3818332	-13.339249	-19.690638	39.956959	
-10.020909	-158.98219	-19.692228	40.236504	-1.2722297	-12.327167	
10728400000	-2.1442635	-123.54031	-8.9909086	14.205292	-9.5296221	-164.84311
-8.9936066	13.828184	-1.4666224	-19.54096	-18.537848	34.124905	
-9.5498018	-164.79294	-18.559433	34.459904	-1.3510123	-18.505821	
11063350000	-2.3830004	-128.01076	-8.5402498	8.3011427	-9.0626678	-170.70206
-8.5523806	7.9665952	-1.5713892	-25.625595	-17.59285	27.812605	
-9.0763502	-170.68608	-17.590088	28.114683	-1.4474647	-24.494562	
11398300000	-2.6465044	-132.54832	-8.1282215	2.4154596	-8.6423225	-176.64488
-8.1337271	2.1399772	-1.6812007	-31.633287	-16.761122	21.162884	
-8.6474857	-176.61632	-16.759396	21.47839	-1.5450642	-30.40624	
11733250000	-2.9411345	-137.15616	-7.7422409	-3.4195077	-8.2367983	177.46179
-7.7572637	-3.7158697	-1.8031442	-37.550621	-16.080769	14.423388	
-8.2524557	177.50682	-16.079165	14.852723	-1.6419454	-36.34874	
12068200000	-3.2613575	-141.72879	-7.3839269	-9.2454319	-7.8654356	171.63689
-7.3993421	-9.5630093	-1.9331121	-43.434986	-15.475722	7.6961274	
-7.8878965	171.67964	-15.467927	8.0940247	-1.7695388	-42.190613	
12403150000	-3.5948796	-146.43916	-7.0427842	-15.093072	-7.5167036	165.79668
-7.0609264	-15.384206	-2.0794041	-49.285992	-14.965793	0.63685894	
-7.5335822	165.86226	-14.964971	1.0177355	-1.9033819	-47.934765	
12738100000	-3.9606588	-151.19478	-6.7336764	-20.914736	-7.1865087	159.96422
-6.7556968	-21.105204	-2.2336335	-54.995689	-14.578032	-6.4833765	
-7.1989307	160.06551	-14.565459	-6.1201982	-2.0526416	-53.680542	
13073050000	-4.3623099	-156.07048	-6.4602704	-26.693338	-6.8931117	154.18178
-6.4715095	-26.954979	-2.4011724	-60.630722	-14.25592	-13.649596	
-6.9102063	154.34145	-14.25129	-13.21288	-2.2130995	-59.312187	
13408000000	-4.79562	-161.03732	-6.193079	-32.390347	-6.6058197	148.50002
-6.2195883	-32.611118	-2.5889993	-66.193436	-14.004304	-20.792131	
-6.6286426	148.55176	-14.002765	-20.511045	-2.3950474	-64.930656	
13742950000	-5.2412477	-166.02364	-5.9549003	-38.126907	-6.3466959	142.80841
-5.9626899	-38.301872	-2.8041561	-71.627686	-13.851643	-28.236933	
-6.3650284	142.95023	-13.848415	-27.904758	-2.6016023	-70.322205	
14077900000	-5.7513828	-171.26186	-5.7259679	-43.784534	-6.1058173	137.20024
-5.7461801	-44.009857	-3.0334787	-77.040367	-13.761056	-35.525246	
-6.1249042	137.31233	-13.754198	-35.208233	-2.8149552	-75.578568	
14412850000	-6.3115888	-176.52029	-5.5193434	-49.378765	-5.8694358	131.66493
-5.5385661	-49.621174	-3.3002441	-82.410294	-13.740274	-42.848675	
-5.8918891	131.71364	-13.738724	-42.612061	-3.0660896	-80.98188	
14747800000	-6.9056993	178.05447	-5.3353906	-54.980415	-5.659903	126.09319
-5.356914	-55.238018	-3.585633	-87.710312	-13.801883	-50.562172	
-5.6819921	126.17319	-13.790737	-50.218868	-3.3543298	-86.35405	
15082750000	-7.5522966	172.31042	-5.1731701	-60.486115	-5.4594741	120.47684
-5.2012677	-60.728817	-3.892436	-92.897995	-13.970658	-58.152641	
-5.4951844	120.56013	-13.961134	-57.901543	-3.6526036	-91.507599	
15417700000	-8.2697086	166.40671	-5.0265493	-65.995743	-5.3034873	114.95811
-5.0499487	-66.240982	-4.238009	-98.115433	-14.214181	-65.754158	
-5.3170404	115.08724	-14.199543	-65.230736	-3.9969654	-96.768692	
15752650000	-9.0213118	160.14995	-4.8939605	-71.352211	-5.1427183	109.56796
-4.9247084	-71.613091	-4.621078	-103.09361	-14.522304	-73.233475	
-5.1704059	109.71875	-14.503506	-72.888748	-4.3657765	-101.77222	
16087600000	-9.8726606	153.70616	-4.7788725	-76.727577	-5.0049467	104.07829
-4.7950306	-76.939812	-5.0373545	-107.98975	-14.915336	-81.021996	
-5.0240855	104.32436	-14.91714	-80.623161	-4.7959514	-106.63961	
16422550000	-10.751813	146.72968	-4.672184	-82.084946	-4.8669949	98.711967
-4.6933341	-82.276291	-5.5173111	-112.62142	-15.413393	-88.848106	
-4.8878617	98.954552	-15.425392	-88.376198	-5.2842078	-111.29166	
16757500000	-11.750811	138.68611	-4.5811329	-87.362938	-4.757813	93.447853
-4.5992022	-87.565582	-6.0282421	-117.14437	-16.020361	-96.673676	
-4.7772055	93.637283	-16.009884	-96.318092	-5.7985549	-115.82681	
17092450000	-12.830134	130.21407	-4.5046659	-92.552704	-4.6598783	88.136414
-4.5236583	-92.766617	-6.6004958	-121.52677	-16.711647	-104.82087	
-4.6798005	88.383949	-16.710539	-104.40875	-6.3754373	-120.22753	
17427400000	-13.921342	120.53793	-4.4350252	-97.719978	-4.5782194	82.89949
-4.4637094	-97.859383	-7.2302504	-125.55415	-17.559492	-113.08356	
-4.6008072	83.160011	-17.546171	-112.73994	-7.0124497	-124.07898	
17762350000	-15.054299	110.01392	-4.3943267	-102.84586	-4.5067592	77.782372
-4.4069214	-102.98303	-7.9123797	-129.29652	-18.539835	-121.45683	
-4.5228901	78.022873	-18.558907	-121.29456	-7.7072787	-127.76166	
18097300000	-16.185307	97.091087	-4.3456211	-107.79877	-4.4535813	72.694733
-4.3646526	-107.98306	-8.6574755	-132.56068	-19.637049	-130.10141	
-4.4724913	72.962021	-19.639675	-129.79184	-8.4570675	-130.79916	
18432250000	-17.245848	82.401199	-4.3198934	-112.85661	-4.3963213	67.695
-4.3352656	-112.95339	-9.4639683	-135.33771	-20.878191	-139.82472	
-4.4270854	67.908791	-20.89794	-139.56058	-9.240325	-133.21648	
18767200000	-17.943003	65.73658	-4.2918987	-117.69658	-4.348845	62.74461
-4.3121142	-117.82859	-10.314806	-137.38846	-22.356146	-150.77196	
-4.3808532	62.990635	-22.384989	-150.41248	-10.134476	-135.39069	
19102150000	-18.266996	48.07489	-4.272181	-122.54076	-4.3267899	57.871456
-4.2975044	-122.65326	-11.237971	-138.84337	-24.13409	-163.27715	
-4.3453331	58.080631	-24.109209	-163.00548	-11.062435	-136.84409	
19437100000	-18.061544	31.388664	-4.2760329	-127.31675	-4.3102937	53.015781
-4.2899599	-127.44546	-12.210598	-139.28532	-25.989342	-178.27267	
-4.3279819	53.275093	-26.06839	-178.46228	-11.932281	-137.23065	
19772050000	-17.569952	15.643844	-4.2724838	-131.93102	-4.3108621	48.334705
-4.2913399	-132.10713	-13.202168	-138.4473	-27.925575	161.25595	
-4.324264	48.611187	-27.905289	162.11949	-12.895627	-136.33231	
20107000000	-16.857561	2.6088877	-4.2862086	-136.57747	-4.2908869	43.705463
-4.2958732	-136.73558	-14.18499	-136.2585	-29.291334	135.5984	
-4.3135943	43.944931	-29.254852	135.69118	-13.916849	-134.10721	
20441950000	-16.038094	-9.6742067	-4.3074503	-141.13776	-4.3057756	39.080372
-4.3071227	-141.2751	-15.165954	-132.15355	-29.076681	107.06923	
-4.3230338	39.345413	-29.262333	107.23401	-14.741437	-130.34554	
20776900000	-15.248036	-19.673195	-4.3133893	-145.70461	-4.3094416	34.491505
-4.3248682	-145.76607	-15.922488	-127.32892	-28.054586	81.963425	
-4.3320107	34.910679	-27.994488	82.064491	-15.425159	-125.9157	
21111850000	-14.503894	-27.57023	-4.3396473	-150.09727	-4.3283277	30.161873
-4.3473897	-150.15144	-16.453936	-121.50339	-26.249655	63.134418	
-4.3412342	30.402927	-26.239971	63.452122	-15.971858	-120.57938	
21446800000	-13.86162	-34.978336	-4.3471417	-154.38084	-4.3298383	25.747478
-4.3568211	-154.49799	-16.704227	-115.26656	-24.471096	49.516853	
-4.3410282	26.087812	-24.459621	49.89006	-16.168808	-115.35213	
21781750000	-13.268271	-41.273197	-4.3724737	-158.76486	-4.3446021	21.37587
-4.3778939	-158.81612	-16.719303	-109.72103	-23.044388	37.565357	
-4.3597698	21.712885	-23.039051	38.061569	-16.179043	-109.79794	
22116700000	-12.766042	-47.487316	-4.3917727	-162.9052	-4.3589888	17.18911
-4.4006262	-163.01691	-16.454403	-104.89951	-21.838446	28.761667	
-4.3708668	17.520649	-21.848003	28.960016	-15.874507	-105.26969	
22451650000	-12.424973	-53.052452	-4.4109297	-167.24742	-4.365602	13.007592
-4.4099202	-167.19398	-16.032238	-100.84183	-20.710924	21.420189	
-4.3777928	13.331999	-20.722425	21.860983	-15.724072	-101.44064	
22786600000	-12.059882	-57.946903	-4.4357176	-171.32518	-4.3859553	8.8658485
-4.4405179	-171.35602	-15.615201	-97.77182	-19.71373	14.312009	
-4.3969274	9.1454134	-19.722843	14.301792	-15.269208	-98.776749	
23121550000	-11.709911	-62.8727	-4.4506168	-175.44463	-4.3919063	4.7458282
-4.4567056	-175.52075	-15.089337	-95.558823	-18.866484	7.9153876	
-4.4066238	4.9989905	-18.846804	8.1545296	-14.763927	-97.453903	
23456500000	-11.498529	-67.753029	-4.4763455	-179.55498	-4.4096999	0.72314173
-4.4777136	-179.53423	-14.609433	-94.122513	-18.14193	2.0227911	
-4.4204655	1.0110024	-18.155872	2.2719617	-14.335774	-95.838936	
23791450000	-11.364532	-72.261253	-4.4807014	176.4557	-4.4104071	-3.2454531
-4.4929509	176.39835	-14.162412	-93.506561	-17.469343	-3.2657862	
-4.4256153	-2.9803648	-17.489531	-2.9246864	-13.952991	-95.093231	
24126400000	-11.218683	-76.338089	-4.5006747	172.39792	-4.4207687	-7.2663755
-4.5044403	172.3125	-13.804147	-93.240631	-16.825129	-8.4568539	
-4.424696	-6.9453573	-16.851318	-8.0483494	-13.604715	-94.356461	
24461350000	-11.054554	-80.236916	-4.5232992	168.53372	-4.4240761	-11.192042
-4.5259008	168.412	-13.432754	-93.862846	-16.257586	-13.477367	
-4.4369631	-10.882274	-16.263836	-13.091547	-13.322157	-94.304825	
24796300000	-11.027302	-84.234535	-4.5245652	164.5977	-4.4258595	-15.122377
-4.5306363	164.49837	-13.112496	-94.59198	-15.765567	-18.107546	
-4.4351964	-14.756542	-15.764387	-17.515226	-13.084218	-95.579254	
25131250000	-11.320296	-83.89724	-4.4802036	162.93478	-4.3807268	-17.087219
-4.4954839	162.98763	-12.555759	-84.734489	-14.627558	-21.538414	
-4.4063249	-16.57033	-14.631294	-21.078108	-12.554504	-86.412468	
25466200000	-11.518689	-87.002655	-4.4796743	159.02432	-4.3755245	-20.900211
-4.4952621	159.00308	-12.422202	-85.197975	-14.209906	-26.312288	
-4.4042315	-20.486237	-14.229589	-25.971388	-12.362348	-86.239235	
25801150000	-11.806581	-90.236092	-4.4700885	155.10812	-4.366796	-24.83828
-4.4892659	155.10034	-12.260864	-85.659386	-13.863089	-31.133469	
-4.3826165	-24.410044	-13.87071	-30.722908	-12.341285	-87.591515	
26136100000	-12.113648	-93.096176	-4.4645061	151.14923	-4.3330197	-28.788681
-4.4831047	151.14482	-12.164476	-86.309921	-13.509535	-35.56596	
-4.3632922	-28.379818	-13.534275	-35.170841	-12.285641	-87.631958	
26471050000	-12.518632	-95.477806	-4.4582014	147.16936	-4.3227811	-32.756298
-4.4650421	147.187	-12.101015	-86.875496	-13.193115	-39.975349	
-4.3478951	-32.338005	-13.213221	-39.525791	-12.27959	-87.633072	
26806000000	-12.91633	-97.357018	-4.4710102	143.16893	-4.3218265	-36.728645
-4.4602647	143.25966	-12.067562	-86.808281	-12.868809	-44.552174	
-4.3576574	-36.189808	-12.916261	-43.74646	-12.322873	-87.434692	
27140950000	-13.355088	-99.850586	-4.4313278	139.19304	-4.2955632	-40.60265
-4.4534092	139.32483	-12.046494	-87.503723	-12.620875	-48.87051	
-4.3211045	-40.100414	-12.627426	-48.707596	-12.326237	-87.595596	
27475900000	-14.001252	-100.90009	-4.4059958	135.31349	-4.2627039	-44.661858
-4.432508	135.15366	-12.111732	-87.786514	-12.340953	-53.428677	
-4.2907562	-44.199295	-12.367105	-52.799133	-12.461283	-87.790146	
27810850000	-14.641927	-101.84933	-4.4269829	131.32347	-4.2724681	-48.570484
-4.4138618	131.01213	-12.03124	-87.246452	-12.080108	-57.847832	
-4.2822971	-48.067402	-12.095815	-57.064285	-12.411072	-87.227646	
28145800000	-15.377785	-101.99859	-4.4065638	127.1498	-4.2605414	-52.539063
-4.4098606	127.14117	-12.087948	-87.301071	-11.862988	-62.062023	
-4.2866464	-52.136559	-11.879785	-61.580318	-12.392448	-86.975822	
28480750000	-16.015047	-101.70438	-4.4033322	123.19872	-4.2408724	-56.490864
-4.4019756	123.0071	-12.096327	-86.930855	-11.612031	-66.38356	
-4.2548265	-56.126205	-11.691309	-66.078598	-12.49439	-85.796082	
28815700000	-16.753441	-98.911736	-4.3900518	119.08323	-4.2186542	-60.579174
-4.4236455	119.00214	-12.124353	-86.448807	-11.438526	-70.854782	
-4.2563992	-60.126415	-11.432528	-70.134834	-12.547526	-84.778976	
29150650000	-17.431667	-94.455482	-4.3886437	115.07297	-4.2310534	-64.705673
-4.4073496	114.76289	-12.080227	-85.920219	-11.21092	-75.417694	
-4.256496	-64.162483	-11.233712	-74.720139	-12.54415	-83.692932	
29485600000	-18.10532	-89.348442	-4.4051232	110.91231	-4.2431531	-68.583641
-4.4027328	110.62916	-12.049878	-85.116631	-11.099884	-79.651627	
-4.225791	-68.210419	-11.10543	-79.086212	-12.447102	-83.221329	
29820550000	-18.770367	-81.007523	-4.4005456	106.65057	-4.2395549	-72.966461
-4.4317155	106.3229	-11.91861	-84.249947	-10.930554	-83.990768	
-4.2274208	-72.478455	-10.934511	-83.396683	-12.345205	-81.170441	
30155500000	-18.754038	-74.074432	-4.4255729	102.53692	-4.229784	-76.903404
-4.4268537	102.36525	-11.777956	-82.930733	-10.793702	-88.388138	
-4.2486544	-76.416168	-10.822787	-87.621155	-12.168577	-79.49604	
30490450000	-18.553652	-66.083702	-4.4410329	98.323769	-4.2589221	-81.123283
-4.4541059	98.113976	-11.632938	-81.341293	-10.677031	-92.708466	
-4.2734618	-80.759483	-10.718339	-92.23542	-11.911854	-77.863853	
30825400000	-17.745899	-59.312611	-4.4873695	94.187378	-4.2711191	-85.172653
-4.498291	94.009529	-11.464807	-80.777954	-10.613894	-96.904556	
-4.2854571	-84.474915	-10.624731	-96.303825	-11.635347	-76.7127	
31160350000	-16.526688	-54.72263	-4.5338626	89.977417	-4.300571	-89.28019
-4.525712	89.971375	-11.260047	-80.072044	-10.523587	-101.39291	
