! MARKI MICROWAVE INC.
! Email:             	info@markimicrowave.com   				Phone:   408-778-4200
! Model Number:      	MBAL-0220SM						Date:    10/19
! Filename:		MBAL-0220SM.S3P						Version: 1.0
! Description:       	3-port S-parameter data for Balun MBAL-0220SM
! Frequency Range: 	10 MHz to 20 GHz		
! Port Configuration:	PORT 1: COMMON , PORT 2: OUTPUT(0 DEGREE), PORT 3: COMMON (180 DEGREE)


! S3P File: Measurements: Mag<S11> Ang<S11> Mag<S12> Ang<S12> Mag<S13> Ang<S13>! row 1 
!			  Mag<S21> Ang<S21> Mag<S22> Ang<S22> Mag<S23> Ang<S23>! row 2 
!			  Mag<S31> Ang<S31> Mag<S32> Ang<S32> Mag<S33> Ang<S33>! row 3 
# Hz S  dB   R 50

10000000 -2.3014133 178.9966 -44.355595 -96.204536 -21.595037 2.974431
-43.798409 -90.747246 -0.78720391 179.49254 -61.544178 84.435516
-21.527504 2.2895811 -59.123936 85.547691 -0.86312616 179.78256
41237500 -2.3584676 172.27611 -32.710648 -98.070862 -21.384327 7.0181499
-32.702522 -99.198242 -0.87346458 173.70856 -50.509109 82.365341
-21.406078 7.0619302 -50.586491 82.201973 -0.92178398 174.43588
72475000 -2.3936758 166.23982 -27.845507 -103.76111 -20.900154 11.145374
-27.859522 -103.97128 -0.89871818 168.66077 -45.330273 84.309067
-20.925219 11.21289 -45.387341 84.784851 -0.93600541 169.92715
103712500 -2.4599795 160.30597 -24.811911 -109.04953 -20.339678 14.299429
-24.82815 -109.06233 -0.95302409 163.782 -42.215233 84.903862
-20.345747 14.261438 -42.291904 84.871101 -0.99504787 165.55458
134950000 -2.5252192 154.52365 -22.617012 -114.27659 -19.651541 16.264748
-22.623592 -114.27601 -0.99691021 158.99712 -39.955948 83.399414
-19.656982 16.266068 -39.865906 84.018539 -1.0384469 161.25467
166187500 -2.5843446 148.77008 -20.880783 -119.4586 -18.89887 17.157801
-20.880772 -119.50468 -1.043323 154.2635 -37.89938 82.96106
-18.90329 17.210032 -37.993885 83.519218 -1.0631211 157.08409
197425000 -2.648773 143.04503 -19.460762 -124.63542 -18.167725 17.103975
-19.462515 -124.68553 -1.0928992 149.56616 -36.266609 81.932594
-18.17119 17.138655 -36.224522 81.940903 -1.1084433 152.84641
228662500 -2.7304595 137.39244 -18.285793 -129.84329 -17.466707 16.305067
-18.286987 -129.84198 -1.1511203 144.89775 -34.747475 80.58799
-17.46792 16.335897 -34.778618 80.04921 -1.1467607 148.69957
259900000 -2.8024242 131.69669 -17.234371 -135.00082 -16.782993 14.824741
-17.253498 -134.94875 -1.1871184 140.23195 -33.429989 78.31002
-16.780416 14.866667 -33.351551 78.636047 -1.1774985 144.522
291137500 -2.8786643 126.06094 -16.348837 -140.11665 -16.140551 12.860165
-16.350229 -140.14197 -1.2450845 135.59801 -32.134857 76.554596
-16.140673 12.841372 -32.186184 76.378189 -1.2235967 140.35626
322375000 -2.9740479 120.48265 -15.562874 -145.29605 -15.533997 10.443398
-15.564032 -145.2652 -1.2979749 130.98265 -31.005669 73.954567
-15.536016 10.471517 -31.018888 73.93512 -1.2625352 136.22151
353612500 -3.0694041 114.93684 -14.855926 -150.31387 -14.960458 7.7803402
-14.862422 -150.32919 -1.3583097 126.38305 -29.960011 71.521477
-14.961007 7.7885261 -29.934301 71.536903 -1.2982254 132.07799
384850000 -3.1590779 109.38786 -14.225263 -155.39107 -14.439158 4.8123403
-14.227438 -155.41016 -1.4174004 121.81289 -28.938234 68.872787
-14.432787 4.8217692 -28.949049 68.836975 -1.3488474 127.95132
416087500 -3.2620738 103.92251 -13.660051 -160.4055 -13.941917 1.6797094
-13.664948 -160.38853 -1.477324 117.31557 -28.024738 65.994392
-13.930907 1.6798378 -27.986315 66.040497 -1.3872988 123.87614
447325000 -3.3683205 98.449516 -13.147634 -165.3589 -13.475457 -1.7004095
-13.145658 -165.32761 -1.5355647 112.82887 -27.115927 63.173752
-13.472045 -1.6604153 -27.118767 63.126472 -1.4290777 119.80361
478562500 -3.478406 93.033829 -12.677718 -170.31677 -13.049252 -5.1455364
-12.682399 -170.35339 -1.6095145 108.35464 -26.314859 59.939938
-13.040727 -5.1789513 -26.307293 59.865005 -1.4794899 115.76472
509800000 -3.5940773 87.671761 -12.252619 -175.18829 -12.644612 -8.7083654
-12.254498 -175.20135 -1.6771234 103.92404 -25.522356 56.65308
-12.636508 -8.7125626 -25.508568 56.618538 -1.5225737 111.69353
541037500 -3.7140725 82.30262 -11.866048 179.94714 -12.264836 -12.400018
-11.870992 179.95351 -1.7454827 99.506439 -24.781937 53.315376
-12.266414 -12.413536 -24.777172 53.329403 -1.5704532 107.66962
572275000 -3.8327823 76.984848 -11.510233 175.11699 -11.916208 -16.140598
-11.514211 175.11998 -1.8183992 95.145393 -24.095243 49.86483
-11.907267 -16.125296 -24.077843 49.889381 -1.627856 103.68617
603512500 -3.9545264 71.685883 -11.17157 170.33084 -11.57515 -19.958912
-11.182934 170.30795 -1.8848845 90.809189 -23.406109 46.270218
-11.566896 -19.980803 -23.393818 46.313435 -1.6679912 99.701866
634750000 -4.0873942 66.475922 -10.87868 165.59087 -11.274122 -23.831482
-10.879346 165.58476 -1.9536912 86.481964 -22.793568 42.643677
-11.266706 -23.844961 -22.784781 42.706097 -1.725634 95.689987
665987500 -4.2128773 61.231575 -10.600948 160.80777 -10.978132 -27.794147
-10.601758 160.81755 -2.0345213 82.18541 -22.193956 38.942184
-10.970784 -27.816931 -22.190575 38.965973 -1.7802428 91.718094
697225000 -4.3528948 56.037048 -10.346176 156.15375 -10.702924 -31.756788
-10.342203 156.15511 -2.106853 77.94326 -21.624914 35.202896
-10.696668 -31.750399 -21.619312 35.235722 -1.8334403 87.776161
728462500 -4.4905701 50.886631 -10.112514 151.52504 -10.452058 -35.730034
-10.111953 151.51839 -2.1836448 73.719658 -21.087168 31.484451
-10.444785 -35.733185 -21.085381 31.471945 -1.8883638 83.843849
759700000 -4.6345992 45.739491 -9.8922453 146.89915 -10.202415 -39.752792
-9.8866053 146.87982 -2.254015 69.517975 -20.563843 27.597345
-10.194075 -39.776848 -20.559755 27.583855 -1.9374423 79.930229
790937500 -4.772398 40.677086 -9.6819801 142.33624 -9.9731417 -43.782021
-9.6784286 142.33354 -2.3218696 65.344437 -20.06958 23.790812
-9.95965 -43.785915 -20.065475 23.784643 -1.9947289 76.033638
822175000 -4.9238858 35.610817 -9.5009069 137.7572 -9.7608061 -47.865837
-9.4986143 137.74046 -2.4043605 61.192383 -19.608192 19.796902
-9.7488012 -47.878689 -19.596327 19.826969 -2.0564532 72.13974
853412500 -5.0814567 30.594536 -9.3274994 133.28725 -9.561511 -51.923496
-9.3314257 133.26376 -2.4807734 57.087238 -19.16424 15.909913
-9.5502262 -51.925983 -19.155478 15.929529 -2.1141384 68.274193
884650000 -5.2281194 25.598713 -9.1616697 128.81944 -9.3703108 -56.000267
-9.1681595 128.80435 -2.5549049 53.012173 -18.742508 11.967786
-9.3586597 -56.007778 -18.728003 11.99013 -2.182714 64.415154
915887500 -5.3833842 20.63739 -9.0195198 124.37172 -9.1973658 -60.03228
-9.0219231 124.37626 -2.6286504 48.921692 -18.342987 8.0600138
-9.1877756 -60.053928 -18.338251 8.0368252 -2.2430186 60.606331
947125000 -5.5416837 15.723796 -8.8828096 119.98078 -9.021987 -64.116997
-8.8805571 119.97005 -2.7000296 44.890656 -17.948532 4.0776505
-9.0123158 -64.116867 -17.943314 4.1329589 -2.2991884 56.797939
978362500 -5.7047849 10.817441 -8.7546501 115.59974 -8.8611326 -68.187439
-8.7435179 115.60595 -2.7772686 40.905746 -17.567156 0.13949758
-8.8562202 -68.20723 -17.565483 0.13004464 -2.3621678 53.033443
1009600000 -5.8728051 5.9734902 -8.6315413 111.27885 -8.7147179 -72.242584
-8.6260462 111.26701 -2.8520887 36.896591 -17.216173 -3.8257811
-8.708086 -72.260216 -17.216093 -3.8300691 -2.4220896 49.250668
1040837500 -6.0407972 1.1275891 -8.5158606 106.97566 -8.5778675 -76.314186
-8.5202551 106.97546 -2.9272256 32.93103 -16.881681 -7.7805257
-8.5655556 -76.318726 -16.869164 -7.7784176 -2.4917989 45.507607
1072075000 -6.2123709 -3.6864793 -8.4178524 102.69255 -8.4448185 -80.389671
-8.4145889 102.71194 -3.0004165 28.957218 -16.55517 -11.799144
-8.435462 -80.383354 -16.549612 -11.799691 -2.5534337 41.755192
1103312500 -6.3906708 -8.4683876 -8.3181849 98.445549 -8.3220816 -84.436882
-8.3240166 98.446609 -3.0745938 25.028376 -16.243338 -15.767648
-8.3120041 -84.435837 -16.236151 -15.770718 -2.6179163 38.03072
1134550000 -6.5628791 -13.271623 -8.2273159 94.203224 -8.2062931 -88.528481
-8.2322149 94.225555 -3.1409967 21.102819 -15.946848 -19.785061
-8.1924191 -88.539978 -15.934054 -19.802574 -2.6852887 34.310497
1165787500 -6.740366 -17.990553 -8.1423759 90.011818 -8.0972576 -92.551018
-8.1397486 90.033653 -3.2154813 17.192249 -15.657936 -23.759596
-8.080308 -92.549149 -15.644932 -23.751652 -2.7527049 30.632067
1197025000 -6.9263725 -22.741882 -8.068018 85.854988 -7.9889936 -96.607895
-8.0693064 85.853775 -3.2919767 13.325104 -15.385572 -27.718178
-7.9765429 -96.648331 -15.373035 -27.739573 -2.8163896 26.969931
1228262500 -7.1221328 -27.412172 -7.9930692 81.727379 -7.8898211 -100.65587
-7.9910326 81.702393 -3.3619425 9.4547138 -15.114241 -31.685846
-7.8811722 -100.63642 -15.103644 -31.664576 -2.8887339 23.311018
1259500000 -7.3125744 -32.122826 -7.9266834 77.614098 -7.7979627 -104.6519
-7.929358 77.619217 -3.4421785 5.6172371 -14.863617 -35.574047
-7.7864518 -104.67294 -14.850685 -35.598969 -2.9599752 19.667917
1290737500 -7.5013089 -36.821541 -7.8611526 73.488167 -7.7101007 -108.69727
-7.8609715 73.490776 -3.5153675 1.7661502 -14.615392 -39.595337
-7.6996374 -108.70229 -14.604788 -39.594284 -3.0295868 16.053072
1321975000 -7.6926985 -41.451027 -7.8026667 69.42337 -7.6281266 -112.69418
-7.8016891 69.427727 -3.5845921 -2.0778258 -14.381827 -43.481865
-7.6151624 -112.69968 -14.367895 -43.494045 -3.1002536 12.42033
1353212500 -7.8997784 -46.061455 -7.7438655 65.369026 -7.5537419 -116.71731
-7.7441416 65.384972 -3.6552756 -5.8708034 -14.146591 -47.423294
-7.5401659 -116.73003 -14.13518 -47.442932 -3.1702757 8.8373146
1384450000 -8.111187 -50.707863 -7.6941233 61.314396 -7.4868922 -120.70201
-7.6905942 61.333263 -3.7285719 -9.6451054 -13.924058 -51.346073
-7.4680605 -120.70679 -13.908361 -51.367222 -3.2413061 5.2845201
1415687500 -8.3278408 -55.320915 -7.6451616 57.321426 -7.4160666 -124.69144
-7.6459079 57.330093 -3.8002505 -13.425548 -13.707659 -55.243839
-7.4040341 -124.70313 -13.698527 -55.249443 -3.3134451 1.7046863
1446925000 -8.5357027 -59.928654 -7.6034679 53.329159 -7.3523703 -128.64577
-7.6037345 53.334545 -3.8803327 -17.18602 -13.498749 -59.162189
-7.3422432 -128.68027 -13.488601 -59.18504 -3.3840363 -1.827202
1478162500 -8.7581463 -64.463722 -7.5642281 49.358116 -7.3020034 -132.60645
-7.5602946 49.387814 -3.9531865 -20.954372 -13.301142 -63.060616
-7.2867351 -132.6292 -13.291199 -63.105812 -3.4652388 -5.3647118
1509400000 -8.9822578 -69.00132 -7.5235195 45.391964 -7.2504344 -136.59023
-7.5207376 45.4034 -4.0256925 -24.714661 -13.106204 -67.012726
-7.2351332 -136.60339 -13.093586 -67.042671 -3.5393836 -8.9133844
1540637500 -9.21171 -73.530708 -7.4940238 41.442154 -7.2030501 -140.52171
-7.4929295 41.460052 -4.1056409 -28.473202 -12.924898 -70.958946
-7.1885023 -140.5211 -12.908657 -70.981514 -3.6112392 -12.40195
1571875000 -9.4429502 -78.05407 -7.4578199 37.571613 -7.1596394 -144.43484
-7.4615459 37.586082 -4.1749001 -32.171917 -12.742729 -74.850784
-7.1457663 -144.46321 -12.727696 -74.894531 -3.686697 -15.925029
1603112500 -9.669261 -82.522491 -7.4313331 33.70047 -7.1185308 -148.33002
-7.4346232 33.704521 -4.2508588 -35.877235 -12.572314 -78.770432
-7.1085992 -148.33881 -12.563209 -78.78688 -3.7561307 -19.409163
1634350000 -9.8931894 -87.03772 -7.4066238 29.871767 -7.0818219 -152.16801
-7.4098582 29.896465 -4.3260827 -39.559765 -12.413214 -82.587715
-7.072855 -152.17876 -12.404236 -82.614525 -3.8341498 -22.863014
1665587500 -10.12483 -91.522423 -7.3782263 26.054535 -7.0485559 -156.03783
-7.3789177 26.085196 -4.4022632 -43.279095 -12.256231 -86.470146
-7.0336733 -156.03314 -12.243716 -86.479355 -3.910686 -26.368309
1696825000 -10.343324 -96.055046 -7.3497238 22.227989 -7.0136943 -159.86363
-7.3469772 22.25005 -4.4752502 -46.970928 -12.106868 -90.313179
-7.0003262 -159.88577 -12.095232 -90.367905 -3.9853301 -29.82061
1728062500 -10.570827 -100.62671 -7.3246474 18.438375 -6.9792786 -163.66606
-7.3215098 18.466331 -4.5597367 -50.664352 -11.958584 -94.089478
-6.9630113 -163.70059 -11.949109 -94.145317 -4.0645356 -33.273045
1759300000 -10.810103 -105.15613 -7.2962294 14.684797 -6.9499402 -167.49841
-7.297411 14.697187 -4.6293497 -54.351986 -11.812807 -97.920395
-6.9352655 -167.50435 -11.798009 -97.949081 -4.1370573 -36.728657
1790537500 -11.042284 -109.73318 -7.270473 10.900042 -6.917026 -171.31523
-7.2712736 10.932961 -4.7135358 -58.047287 -11.675477 -101.7252
-6.905293 -171.34229 -11.661485 -101.7782 -4.2154002 -40.176182
1821775000 -11.284219 -114.35528 -7.2476087 7.1177392 -6.8901758 -175.08585
-7.2468243 7.1716099 -4.7965393 -61.74659 -11.539046 -105.47231
-6.8789597 -175.11169 -11.527308 -105.54299 -4.296185 -43.606869
1853012500 -11.522079 -119.00486 -7.2252316 3.3720424 -6.8633819 -178.88832
-7.2263088 3.4150681 -4.8707504 -65.393456 -11.407317 -109.25873
-6.8511486 -178.93036 -11.392389 -109.3169 -4.3784304 -47.005306
1884250000 -11.76444 -123.65337 -7.205873 -0.40034667 -6.8396282 177.30605
-7.2032366 -0.3770822 -4.957489 -69.085876 -11.276428 -113.0697
-6.8238378 177.2757 -11.262747 -113.13361 -4.4476562 -50.439571
1915487500 -12.014067 -128.32332 -7.1868954 -4.1256061 -6.8197131 173.55396
-7.1856351 -4.1101618 -5.0461712 -72.769119 -11.153359 -116.80923
-6.8085938 173.52217 -11.142629 -116.85535 -4.5348811 -53.843307
1946725000 -12.259089 -133.03116 -7.1693339 -7.8263721 -6.805253 169.7879
-7.1644802 -7.800498 -5.130271 -76.394707 -11.039513 -120.5098
-6.7896881 169.75523 -11.032219 -120.55549 -4.6209755 -57.245579
1977962500 -12.529685 -137.81813 -7.1528487 -11.556122 -6.7792211 165.99306
-7.1502976 -11.533693 -5.2267714 -80.060608 -10.916565 -124.32974
-6.7700486 165.97121 -10.908255 -124.33776 -4.7027216 -60.649048
2009200000 -12.788017 -142.67194 -7.1361036 -15.294599 -6.7662616 162.20886
-7.1385326 -15.263786 -5.3193154 -83.71817 -10.807817 -128.14711
-6.7541652 162.20189 -10.796928 -128.15042 -4.7898326 -64.039154
2040437500 -13.034991 -147.45522 -7.122684 -18.993725 -6.7560992 158.4883
-7.1281095 -18.960501 -5.4105206 -87.376213 -10.700684 -131.86116
-6.7466393 158.4817 -10.686959 -131.88765 -4.8756356 -67.397301
2071675000 -13.287936 -152.24825 -7.1077156 -22.639097 -6.7426438 154.76833
-7.1078916 -22.609055 -5.4987459 -90.987137 -10.590948 -135.51845
-6.7304196 154.75821 -10.580672 -135.53542 -4.9586577 -70.795036
2102912500 -13.550297 -157.14484 -7.0958252 -26.330339 -6.7324739 151.06236
-7.0968809 -26.288109 -5.5873156 -94.613991 -10.489846 -139.21362
-6.7176757 151.06041 -10.47408 -139.24365 -5.0387549 -74.125275
2134150000 -13.811263 -162.03786 -7.07933 -29.994654 -6.7166996 147.34006
-7.0830407 -29.951107 -5.6810036 -98.270737 -10.381218 -142.92513
-6.7070498 147.35129 -10.368313 -142.95714 -5.1222935 -77.481506
2165387500 -14.070704 -167.02151 -7.0646276 -33.664677 -6.7080884 143.62502
-7.0691991 -33.646553 -5.7805772 -101.91768 -10.281376 -146.66498
-6.6987157 143.62204 -10.26717 -146.69562 -5.2048182 -80.843933
2196625000 -14.327427 -171.98772 -7.0554228 -37.327232 -6.7037206 139.93645
-7.0516343 -37.281502 -5.875751 -105.59545 -10.184855 -150.34615
-6.6884813 139.94325 -10.170177 -150.37463 -5.292016 -84.222588
2227862500 -14.590583 -177.05402 -7.0434108 -40.96381 -6.6949511 136.25583
-7.0447803 -40.931362 -5.9702311 -109.26332 -10.089316 -154.02414
-6.6854434 136.25203 -10.080123 -154.05797 -5.3773084 -87.565208
2259100000 -14.855428 177.85866 -7.0285435 -44.608498 -6.6872978 132.5407
-7.0307398 -44.571518 -6.0644135 -112.88476 -9.9954538 -157.772
-6.6760979 132.56232 -9.9809561 -157.79785 -5.454392 -90.944984
2290337500 -15.089231 172.65166 -7.0239468 -48.248104 -6.682611 128.8828
-7.0167966 -48.219261 -6.1677666 -116.51846 -9.9050531 -161.42697
-6.6751661 128.87152 -9.8966341 -161.46121 -5.5388989 -94.264061
2321575000 -15.335977 167.44629 -7.0178046 -51.881504 -6.6815042 125.2254
-7.0147333 -51.8461 -6.2692833 -120.14999 -9.8218107 -165.10681
-6.673224 125.2158 -9.814024 -165.14656 -5.6215611 -97.597755
2352812500 -15.587305 162.16078 -7.0095592 -55.490437 -6.6744552 121.59267
-7.0010114 -55.466022 -6.3722119 -123.80765 -9.7354689 -168.7688
-6.6698003 121.57281 -9.7327337 -168.81458 -5.7056179 -100.92973
2384050000 -15.845608 156.8389 -7.0013037 -59.094414 -6.67908 117.9269
-7.0007968 -59.083057 -6.4823771 -127.48339 -9.6540346 -172.4472
-6.6707344 117.9171 -9.6483574 -172.46704 -5.7935896 -104.28933
2415287500 -16.090094 151.44087 -6.9878068 -62.704517 -6.6732297 114.28964
-6.9879837 -62.705788 -6.5818877 -131.1403 -9.5690536 -176.16739
-6.6703892 114.2914 -9.5646725 -176.16078 -5.878191 -107.63342
2446525000 -16.30632 146.04764 -6.9836802 -66.268623 -6.6768484 110.64482
-6.9834228 -66.256706 -6.6932006 -134.79521 -9.5022039 -179.7674
-6.6656733 110.64548 -9.4926386 -179.79486 -5.9643412 -110.96716
2477762500 -16.531694 140.48018 -6.974833 -69.87767 -6.6805582 107.02045
-6.9738922 -69.837479 -6.7956686 -138.42212 -9.422946 176.57565
-6.6693544 107.03081 -9.4133024 176.54819 -6.051311 -114.26691
2509000000 -16.753256 134.91075 -6.9667215 -73.479149 -6.6830268 103.41829
-6.9674258 -73.440575 -6.9028549 -142.10271 -9.3543844 172.92314
-6.6729527 103.44521 -9.3441582 172.89903 -6.1374412 -117.61723
2540237500 -16.952124 129.27034 -6.957128 -77.075493 -6.67907 99.814911
-6.9629478 -77.030228 -7.0168877 -145.74924 -9.2794371 169.2634
-6.673779 99.817207 -9.2695255 169.24661 -6.2162108 -120.92269
2571475000 -17.145693 123.60989 -6.9561825 -80.632202 -6.6866107 96.204674
-6.9566197 -80.598541 -7.1293893 -149.42415 -9.2170591 165.63643
-6.674994 96.215576 -9.2038736 165.61093 -6.3034067 -124.27908
2602712500 -17.326462 117.88484 -6.9426117 -84.218948 -6.6880112 92.626068
-6.944201 -84.185631 -7.2451658 -153.12679 -9.1405764 161.97949
-6.6774268 92.619415 -9.128047 161.92371 -6.3929586 -127.58137
2633950000 -17.514162 112.10556 -6.939528 -87.77803 -6.689558 89.05127
-6.9375706 -87.764366 -7.3568134 -156.84363 -9.0735683 158.35248
-6.6788931 89.045647 -9.0621166 158.31154 -6.4751821 -130.92537
2665187500 -17.673519 106.36943 -6.9374251 -91.352928 -6.6905451 85.467964
-6.9357362 -91.313423 -7.479126 -160.53122 -9.0129919 154.7155
-6.6849961 85.471252 -9.0050745 154.67659 -6.5622344 -134.24686
2696425000 -17.806519 100.40331 -6.9279008 -94.886505 -6.6966648 81.873619
-6.9286661 -94.860718 -7.5964684 -164.24074 -8.95401 151.10121
-6.6880522 81.888321 -8.9407177 151.0715 -6.6498566 -137.59215
2727662500 -17.925091 94.417 -6.9208732 -98.490379 -6.7068062 78.3274
-6.9254012 -98.470421 -7.7110376 -167.96442 -8.8973436 147.4559
-6.693501 78.323914 -8.8797073 147.4218 -6.7376313 -140.92441
2758900000 -18.022829 88.568222 -6.9173684 -102.04412 -6.709167 74.746834
-6.9167018 -101.99747 -7.8324451 -171.66255 -8.8342943 143.81136
-6.6959443 74.746651 -8.8192654 143.76482 -6.8230944 -144.24689
2790137500 -18.126245 82.696754 -6.9105802 -105.5845 -6.7118368 71.208267
-6.9132757 -105.54831 -7.9588175 -175.41214 -8.7775087 140.22928
-6.7076211 71.180908 -8.7651167 140.19125 -6.9127903 -147.61287
2821375000 -18.21426 76.623764 -6.9046574 -109.1278 -6.7161365 67.651672
-6.9097247 -109.08452 -8.0788555 -179.15344 -8.7152996 136.57608
-6.7110505 67.640335 -8.7039595 136.53261 -6.9948697 -150.93565
2852612500 -18.270718 70.667618 -6.8979573 -112.67751 -6.7242579 64.093559
-6.9065142 -112.62588 -8.2084188 177.06804 -8.6634007 132.96812
-6.7144036 64.093704 -8.6453114 132.91512 -7.0867586 -154.27209
2883850000 -18.29611 64.80172 -6.8949666 -116.23125 -6.7290444 60.551041
-6.8958082 -116.18384 -8.3409166 173.28816 -8.6101475 129.35506
-6.7205219 60.548 -8.6007051 129.29396 -7.1762195 -157.61511
2915087500 -18.307287 59.02034 -6.8954043 -119.75485 -6.73878 57.019798
-6.8897047 -119.69958 -8.46803 169.49844 -8.5656824 125.73829
-6.7258177 57.018921 -8.5528059 125.68243 -7.2638836 -160.97293
2946325000 -18.321432 53.321972 -6.887991 -123.30251 -6.7494278 53.516075
-6.8896432 -123.2824 -8.5916233 165.70813 -8.5204086 122.12619
-6.7356963 53.499496 -8.5031786 122.10532 -7.3603272 -164.32425
2977562500 -18.316545 47.475178 -6.8822536 -126.82245 -6.748661 49.959835
-6.8820648 -126.78196 -8.7303247 161.88985 -8.4618416 118.52608
