!Marki	Microwave	Inc.				
!Sales	Email:	info@markimicrowave.com				
!Support	Email:	support@markimicrowave.com				
!Phone:	408-778-4200					
!Model	Number:	MBAL-1445SM				
!Filename:	MBAL-1445SM.s3p					
!Description:	MMIC 14-45 GHz BALUN					
!Port	1:	0°	balanced			
!	2:	180°	balanced			
!	3:	Common			
!Measurements:	"<S11,S12,S13>"					
!	"<S21,S22,S23>"					
!	"<S31,S32,S33>"	
#	Hz	S	dB	R	50

10000000 -0.40246409 174.35915 -60.845409 128.62308 -74.469574 145.01865
-54.738461 119.22922 -0.41821024 174.36276 -66.200172 -46.645767
-67.531754 -93.196671 -65.450905 36.591278 -0.010085454 -0.94240528
72487500 -0.44323865 170.69073 -54.490379 106.53712 -81.245575 -124.82966
-54.330692 102.05582 -0.44775644 170.66339 -82.595947 178.72284
-80.540039 -6.4344792 -89.470871 16.072538 0.00092630362 -7.1781659
134975000 -0.510961 163.79919 -47.378426 91.575623 -81.531189 150.01979
-47.328278 92.271095 -0.51675767 163.82576 -89.371124 -4.1530824
-80.93943 77.680832 -83.869576 71.507713 -0.0028058705 -13.368857
197462500 -0.55295342 156.87352 -43.248333 81.955948 -78.200165 161.75964
-43.259483 82.575874 -0.55880404 156.95985 -81.055923 3.4221375
-76.289413 129.89151 -77.300285 4.7649002 -0.0031553572 -19.577917
259950000 -0.59980023 149.88823 -40.595642 72.282578 -75.371925 140.67606
-40.670361 72.187996 -0.59510463 150.021 -78.456528 -27.000456
-76.376686 137.10869 -83.151894 -7.2090917 -0.005342477 -25.742607
322437500 -0.63129431 142.99066 -38.534943 63.537479 -69.442444 138.78363
-38.620396 62.879993 -0.63144743 143.12296 -69.984627 -30.938568
-70.67794 128.16283 -74.110703 -8.4234343 -0.0051454199 -31.927235
384925000 -0.66327393 136.03148 -36.976223 54.968758 -68.394188 134.23708
-36.950741 54.725319 -0.67182839 136.16638 -70.013863 -36.834263
-69.256836 133.07504 -70.057625 -32.521702 -0.0072243409 -38.093266
447412500 -0.68919718 129.10599 -35.689465 46.605427 -66.520218 120.07369
-35.619427 46.837872 -0.70046401 129.22563 -66.837181 -44.805595
-67.974007 138.7247 -67.271927 -52.439762 -0.010372449 -44.283939
509900000 -0.73041594 122.18123 -34.524765 39.009415 -62.844456 119.7563
-34.518036 38.933575 -0.73313665 122.32703 -64.463577 -50.775749
-64.259354 129.07344 -64.784798 -48.201359 -0.018361853 -50.450977
572387500 -0.75064802 115.24939 -33.538086 31.498425 -62.797024 115.29717
-33.548939 31.395176 -0.75605494 115.42488 -63.570412 -49.407867
-62.367725 111.55004 -62.523781 -51.906929 -0.017444391 -56.629253
634875000 -0.77887338 108.37309 -32.639931 23.922016 -60.105274 104.8829
-32.647457 23.975981 -0.77643132 108.54797 -61.566311 -65.06929
-60.459949 105.7616 -60.593075 -57.913891 -0.026387475 -62.7985
697362500 -0.79958385 101.44867 -31.828173 16.612389 -58.109295 102.93866
-31.845451 16.713816 -0.80671358 101.66216 -58.955093 -66.431862
-58.440731 102.99474 -59.394352 -66.008026 -0.032637648 -68.975517
759850000 -0.82216424 94.553871 -31.153044 9.3641272 -57.599453 100.90243
-31.136663 9.5204229 -0.82388556 94.767204 -58.257648 -76.496284
-57.151127 102.22696 -57.769096 -73.382797 -0.039655395 -75.148926
822337500 -0.84479731 87.656494 -30.485481 2.4408302 -56.27417 90.375702
-30.452436 2.5001087 -0.83446759 87.936142 -56.432758 -79.009308
-56.245705 91.69709 -56.341351 -83.956024 -0.051652756 -81.303474
884825000 -0.85653937 80.767151 -29.855558 -4.6980605 -54.999699 86.051949
-29.854628 -4.5246468 -0.85536224 81.073769 -55.549786 -87.853302
-54.700134 84.716537 -55.24239 -90.912109 -0.062205367 -87.483315
947312500 -0.88286692 73.893532 -29.316956 -11.595905 -53.663952 77.803917
-29.291727 -11.636768 -0.87093997 74.196228 -53.741604 -94.73291
-53.653435 78.74128 -54.207932 -95.947929 -0.078420937 -93.65152
1009800000 -0.89772516 67.016045 -28.779718 -18.555361 -52.575794 73.006798
-28.78211 -18.705856 -0.88476783 67.319061 -53.012646 -104.05578
-52.682785 73.014175 -52.999733 -103.6908 -0.094692849 -99.797226
1072287500 -0.91057581 60.131641 -28.276394 -25.725359 -51.473759 67.677437
-28.281046 -25.655764 -0.8958838 60.410183 -51.995415 -107.07015
-51.413784 67.182304 -52.013699 -110.79688 -0.10826515 -105.97083
1134775000 -0.92222321 53.272629 -27.821251 -32.535339 -50.394722 59.748199
-27.840502 -32.521603 -0.90905082 53.551544 -51.065361 -114.31722
-50.525032 60.819992 -51.014469 -116.92463 -0.12827466 -112.11021
1197262500 -0.92985767 46.383186 -27.395952 -39.408669 -49.631302 53.215816
-27.408358 -39.426834 -0.91774893 46.691387 -50.056305 -123.16076
-49.448761 53.227516 -50.150303 -122.01509 -0.14288984 -118.25356
1259750000 -0.94088477 39.524998 -26.986816 -46.262451 -48.636383 46.688862
-26.975073 -46.318348 -0.92460084 39.810566 -49.179054 -128.6055
-48.699009 47.045547 -49.086594 -129.00027 -0.1693002 -124.38792
1322237500 -0.94465238 32.661423 -26.580477 -53.228241 -47.96328 40.131725
-26.597258 -53.256035 -0.92849952 32.928623 -48.45916 -135.40523
-47.873787 41.08276 -48.433163 -134.34482 -0.19007222 -130.50023
1384725000 -0.9526664 25.799759 -26.225573 -60.047207 -47.113373 34.864723
-26.235504 -60.08617 -0.9363023 26.041697 -47.789146 -141.34015
-47.008358 34.318909 -47.630096 -142.13863 -0.21487978 -136.60252
1447212500 -0.95740306 18.92757 -25.867929 -66.861229 -46.443878 28.376305
-25.881289 -66.951775 -0.93505168 19.183344 -46.835629 -148.12329
-46.508339 27.600414 -46.894108 -149.25714 -0.24058524 -142.72609
1509700000 -0.95297879 12.088826 -25.528578 -73.868599 -45.700615 21.654932
-25.510189 -73.940521 -0.94259518 12.292047 -46.112621 -154.03374
-45.617516 21.165325 -46.227787 -154.77834 -0.26788634 -148.81924
1572187500 -0.95693809 5.2211642 -25.20945 -80.718842 -44.958729 15.053345
-25.212198 -80.785622 -0.94032019 5.4152446 -45.600697 -160.62985
-44.951618 15.122034 -45.457695 -160.8829 -0.29312691 -154.89162
1634675000 -0.95627844 -1.613387 -24.905788 -87.579201 -44.327995 9.6148195
-24.907187 -87.644173 -0.94079125 -1.4435816 -44.729061 -167.0509
-44.233944 8.5494928 -44.772694 -167.02951 -0.33342025 -160.95485
1697162500 -0.95133913 -8.4604855 -24.612816 -94.543549 -43.693825 2.3725491
-24.617935 -94.609634 -0.9376877 -8.3047962 -44.113007 -173.62701
-43.785938 2.4756892 -44.083469 -173.87115 -0.35603386 -166.99155
1759650000 -0.94765818 -15.293168 -24.322071 -101.46978 -43.027348 -4.3339682
-24.335941 -101.46678 -0.94047791 -15.165709 -43.503788 179.76413
-43.061722 -3.5661173 -43.536419 179.87445 -0.38711813 -173.01395
1822137500 -0.94548565 -22.125198 -24.069504 -108.41528 -42.69223 -10.161143
-24.06395 -108.37645 -0.93457782 -22.057322 -43.010418 172.9778
-42.483822 -10.20797 -43.000973 173.5304 -0.41601452 -179.01079
1884625000 -0.94028002 -28.963814 -23.809633 -115.36564 -42.018272 -16.321733
-23.816212 -115.31808 -0.92925054 -28.956608 -42.54425 167.08374
-42.053268 -16.578588 -42.370216 167.36604 -0.44573629 174.95181
1947112500 -0.93003428 -35.791172 -23.560999 -122.31564 -41.571648 -22.501747
-23.571383 -122.24513 -0.92225963 -35.851616 -41.863377 160.56209
-41.396179 -22.956553 -41.747459 160.47673 -0.47206652 168.99274
2009600000 -0.92755055 -42.626873 -23.330927 -129.3689 -40.915375 -29.029844
-23.351265 -129.39471 -0.92751974 -42.740322 -41.371017 153.64702
-40.892796 -28.529539 -41.378075 153.79367 -0.50805944 163.01161
2072087500 -0.92881423 -49.494972 -23.115482 -136.28436 -40.43399 -35.164593
-23.130325 -136.38997 -0.92659718 -49.662868 -40.809013 147.91777
-40.491325 -35.124226 -40.862015 147.57758 -0.52838075 157.07768
2134575000 -0.92460144 -56.344444 -22.934546 -143.21814 -40.029713 -41.690918
-22.944191 -143.28453 -0.92751336 -56.557446 -40.240395 141.42905
-40.011391 -41.276394 -40.332169 140.62924 -0.55979496 151.17078
2197062500 -0.92489552 -63.177517 -22.728554 -150.2972 -39.520523 -48.224766
-22.738121 -150.30908 -0.92396158 -63.471741 -39.807186 134.69928
-39.543694 -48.007549 -39.813072 134.8857 -0.58212674 145.25815
2259550000 -0.92692274 -70.036453 -22.569332 -157.31583 -39.076714 -54.3736
-22.577282 -157.27791 -0.93111455 -70.408264 -39.395538 128.14638
-39.051361 -54.619789 -39.385368 128.49745 -0.60098243 139.34909
2322037500 -0.9264949 -76.869537 -22.398079 -164.27948 -38.589973 -60.255444
-22.415854 -164.26776 -0.92991292 -77.309113 -38.930183 121.50728
-38.542713 -60.530346 -38.944206 121.68308 -0.62848574 133.48085
2384525000 -0.92754245 -83.720779 -22.239807 -171.26662 -38.128918 -66.628883
-22.242222 -171.30986 -0.93172389 -84.208611 -38.512985 115.63515
-38.166527 -66.925995 -38.468292 115.70218 -0.64840382 127.60941
2447012500 -0.92797858 -90.523972 -22.116451 -178.28491 -37.687027 -73.119194
-22.106703 -178.28548 -0.94384849 -91.108429 -38.071133 109.41785
-37.782063 -73.122375 -38.000408 109.2974 -0.67113835 121.75163
2509500000 -0.92865866 -97.340454 -21.984297 174.71201 -37.343292 -79.503685
-21.985142 174.73961 -0.94869965 -97.990753 -37.651714 102.90044
-37.352249 -79.870796 -37.666351 102.51021 -0.68733358 115.90354
2571987500 -0.92728812 -104.13686 -21.859137 167.75458 -36.947414 -85.807434
-21.851578 167.82285 -0.94807786 -104.87605 -37.279488 96.838264
-36.977665 -85.661537 -37.265568 96.609779 -0.69966006 110.09485
2634475000 -0.93935263 -110.90755 -21.739954 160.80457 -36.56028 -92.113434
-21.741972 160.82759 -0.951069 -111.73088 -36.92984 90.20359
-36.57476 -91.896996 -36.872417 89.9618 -0.72341889 104.27229
2696962500 -0.94368476 -117.68687 -21.643457 153.90526 -36.182949 -97.996529
-21.663601 153.87299 -0.96562475 -118.57811 -36.523258 84.036209
-36.230011 -98.561562 -36.491051 83.54847 -0.73624498 98.434311
2759450000 -0.95206124 -124.4088 -21.563087 146.97083 -35.801277 -104.30963
-21.576267 146.99831 -0.97748125 -125.43566 -36.153465 77.546997
-35.761597 -104.16312 -36.164539 77.314461 -0.75561333 92.670998
2821937500 -0.95930445 -131.15697 -21.488285 140.09459 -35.460556 -110.64766
-21.495255 140.00908 -0.98481715 -132.25668 -35.794579 70.979454
-35.483547 -110.6473 -35.816605 71.1661 -0.76674169 86.816055
2884425000 -0.97039926 -137.84944 -21.414774 133.12791 -35.183804 -116.57809
-21.416449 133.15253 -0.99318844 -139.06856 -35.420059 65.156143
-35.138203 -116.9971 -35.421253 64.76384 -0.78281802 81.074226
2946912500 -0.97435343 -144.52066 -21.347282 126.33746 -34.790443 -123.15024
-21.359247 126.37392 -1.0107051 -145.84947 -35.098072 58.522285
-34.785686 -123.1164 -35.112469 58.798912 -0.79834825 75.249557
3009400000 -0.99051052 -151.19279 -21.288607 119.50602 -34.430576 -129.50859
-21.299139 119.50158 -1.0103196 -152.61575 -34.735367 52.283951
-34.480015 -129.39809 -34.746475 52.330036 -0.80420953 69.457642
3071887500 -0.99723989 -157.81876 -21.252234 112.7169 -34.13892 -135.58525
-21.248915 112.65508 -1.0256428 -159.36179 -34.394989 46.216633
-34.126087 -135.65182 -34.453281 46.019238 -0.81630683 63.659145
3134375000 -1.0072893 -164.41281 -21.21373 105.83114 -33.797413 -141.66371
-21.213264 105.94099 -1.0362467 -166.07784 -34.109295 39.723404
-33.815678 -141.70406 -34.12114 39.914059 -0.82552671 57.843132
3196862500 -1.0178401 -170.97729 -21.163885 99.191383 -33.503967 -148.03368
-21.175047 99.188965 -1.0452462 -172.75696 -33.747562 33.542904
-33.474876 -147.71942 -33.752613 33.603424 -0.83476472 52.05114
3259350000 -1.0233356 -177.50999 -21.129251 92.499168 -33.199253 -153.98523
-21.142265 92.539551 -1.0566741 -179.43359 -33.442795 27.425676
-33.185726 -153.94075 -33.479733 27.180498 -0.84519905 46.256989
3321837500 -1.0434966 175.98247 -21.124577 85.817551 -32.873638 -160.07115
-21.12907 85.817886 -1.0685254 173.90572 -33.160198 21.031199
-32.921448 -160.28912 -33.119007 20.99589 -0.84799719 40.454159
3384325000 -1.0545343 169.47244 -21.099045 79.152321 -32.623035 -166.35242
-21.107355 79.154602 -1.0820401 167.29359 -32.829639 14.782496
-32.576897 -166.44472 -32.817947 14.788938 -0.8586213 34.662056
3446812500 -1.0625795 163.04147 -21.082281 72.535942 -32.28791 -172.36282
-21.098938 72.568756 -1.0895262 160.71317 -32.548786 8.5909138
-32.315018 -172.5522 -32.562908 8.7481575 -0.86292642 28.848253
3509300000 -1.069268 156.61258 -21.076965 65.975822 -32.014145 -178.40343
-21.084421 66.016975 -1.0975466 154.18893 -32.257988 2.5501957
-32.057465 -178.41692 -32.248348 2.399878 -0.87396175 22.996546
3571787500 -1.0857047 150.2224 -21.079262 59.47752 -31.734087 175.40814
-21.071205 59.478115 -1.1118852 147.66879 -31.994429 -3.5710304
-31.712427 175.46657 -31.968451 -3.7417541 -0.87741917 17.167248
3634275000 -1.0888979 143.85655 -21.061131 52.964329 -31.4708 169.33495
-21.068861 53.006584 -1.1209867 141.19914 -31.696608 -9.8234558
-31.454062 169.34799 -31.682722 -10.027298 -0.88653821 11.283137
3696762500 -1.1037946 137.53798 -21.066584 46.47401 -31.197617 163.26741
-21.07295 46.571739 -1.1323371 134.72441 -31.420595 -15.843621
-31.182924 163.5294 -31.443977 -16.310356 -0.88753605 5.4787626
3759250000 -1.1115344 131.21678 -21.059694 40.095181 -30.910225 157.16673
-21.06926 40.039093 -1.137338 128.2972 -31.153326 -22.222082
-30.912407 157.16266 -31.113274 -22.203356 -0.89335805 -0.46642083
3821737500 -1.1191545 124.91081 -21.068342 33.626545 -30.612041 151.07936
-21.07408 33.626072 -1.1501502 121.86989 -30.859756 -28.254972
-30.615641 151.13612 -30.84551 -28.312944 -0.89905435 -6.373673
3884225000 -1.1348873 118.66056 -21.083532 27.215054 -30.349262 145.08179
-21.085184 27.244101 -1.1619143 115.48686 -30.602325 -34.473572
-30.36331 145.04669 -30.598711 -34.578125 -0.89901286 -12.26204
3946712500 -1.140889 112.42215 -21.080601 20.902416 -30.086657 138.90286
-21.092148 20.913748 -1.1684649 109.10044 -30.321688 -40.647484
-30.074833 138.83131 -30.332056 -40.5797 -0.90425634 -18.211433
4009200000 -1.1549749 106.22764 -21.095652 14.627356 -29.812162 132.81625
-21.097866 14.557385 -1.1759635 102.77084 -30.075659 -46.794041
-29.84104 132.7502 -30.045996 -46.769543 -0.90668303 -24.189995
4071687500 -1.1689109 99.994804 -21.106413 8.3204355 -29.571724 126.71216
-21.104204 8.3378057 -1.1908162 96.467079 -29.829201 -52.992996
-29.565207 126.67646 -29.824944 -52.872623 -0.913122 -30.224627
4134175000 -1.1701962 93.827873 -21.110737 2.061975 -29.299343 120.73895
-21.113089 2.0433636 -1.1996144 90.193169 -29.55479 -59.025074
-29.288773 120.77502 -29.540392 -59.06641 -0.9162671 -36.138462
4196662500 -1.1947943 87.628586 -21.13069 -4.2590928 -29.038254 114.74364
-21.142014 -4.230298 -1.2110424 83.920898 -29.31518 -65.265305
-29.03586 114.52448 -29.295305 -65.197067 -0.91391122 -42.224949
4259150000 -1.2019644 81.522896 -21.137775 -10.434574 -28.803211 108.54739
-21.137745 -10.435238 -1.2178135 77.689537 -29.057274 -71.451019
-28.777166 108.495 -29.039536 -71.429024 -0.92106867 -48.219963
4321637500 -1.2116802 75.395981 -21.140034 -16.574339 -28.521021 102.46144
-21.153467 -16.56456 -1.2239232 71.500786 -28.811409 -77.53653
-28.512968 102.47383 -28.789581 -77.54023 -0.91938114 -54.306355
4384125000 -1.2175233 69.270813 -21.151434 -22.774618 -28.289511 96.347305
-21.153322 -22.735779 -1.2320987 65.308968 -28.553118 -83.759491
-28.28187 96.340279 -28.550907 -83.720543 -0.9215917 -60.39621
4446612500 -1.2300317 63.155613 -21.159304 -29.019566 -28.012146 90.385406
-21.165071 -28.919394 -1.2421774 59.119316 -28.309576 -89.817139
-28.018972 90.218658 -28.300407 -89.768616 -0.92221546 -66.468094
4509100000 -1.2378962 57.062206 -21.15807 -35.101788 -27.765207 84.022324
-21.173496 -35.061485 -1.2474524 52.968285 -28.057079 -95.981552
-27.776438 84.13588 -28.048841 -95.865036 -0.92451543 -72.636696
4571587500 -1.2489638 50.990089 -21.160522 -41.186752 -27.540623 77.834183
-21.169323 -41.124294 -1.2521176 46.812695 -27.817734 -102.07787
-27.547153 78.012985 -27.812017 -102.09467 -0.92463362 -78.828003
4634075000 -1.2548406 44.875065 -21.167671 -47.341515 -27.269907 71.815056
-21.168118 -47.369976 -1.2624743 40.662025 -27.548403 -108.33987
-27.28796 71.812332 -27.538889 -108.23224 -0.92715305 -85.040771
4696562500 -1.2726281 38.758934 -21.176821 -53.466713 -27.044661 65.58812
-21.175549 -53.452927 -1.2643005 34.526707 -27.341084 -114.53917
-27.035799 65.678139 -27.325401 -114.57476 -0.9266836 -91.191666
4759050000 -1.2777268 32.695526 -21.165855 -59.510025 -26.78533 59.535973
-21.183802 -59.546513 -1.2722753 28.401802 -27.084473 -120.63666
-26.788754 59.578655 -27.088648 -120.75864 -0.92520314 -97.462395
4821537500 -1.2852933 26.601667 -21.169653 -65.654648 -26.565454 53.404339
-21.169348 -65.679291 -1.2755029 22.283272 -26.845171 -126.797
-26.555399 53.381821 -26.848257 -126.78481 -0.9285081 -103.67294
4884025000 -1.2944574 20.550348 -21.176683 -71.715584 -26.30929 47.2883
-21.173758 -71.759239 -1.2899081 16.143936 -26.627932 -132.99947
-26.327541 47.237034 -26.624249 -132.99113 -0.93445635 -109.95054
4946512500 -1.2921512 14.447761 -21.151621 -77.824272 -26.072254 41.06752
-21.1542 -77.79422 -1.288918 10.075873 -26.396025 -139.24536
-26.082384 40.974754 -26.397411 -139.19839 -0.94274002 -116.17982
5009000000 -1.3155003 8.3663311 -21.165131 -83.892128 -25.852961 34.876511
-21.176779 -83.922836 -1.3007089 3.9578476 -26.162895 -145.44623
-25.84487 34.800739 -26.141119 -145.47787 -0.93848008 -122.52248
5071487500 -1.3175068 2.2807164 -21.161526 -89.92231 -25.602852 28.867252
-21.171808 -89.911964 -1.301596 -2.1101036 -25.936172 -151.54169
-25.615322 28.697142 -25.928755 -151.46933 -0.94722486 -128.72327
5133975000 -1.3331333 -3.8245289 -21.162752 -96.064903 -25.382498 22.555546
-21.17588 -96.03363 -1.3112005 -8.2052145 -25.706942 -157.69666
-25.370611 22.502741 -25.707552 -157.78732 -0.94205266 -135.01309
5196462500 -1.3358343 -9.9257116 -21.158583 -102.09492 -25.152437 16.319561
-21.16662 -102.08718 -1.3146658 -14.345926 -25.484932 -163.98491
-25.155849 16.321037 -25.496332 -163.96408 -0.94572204 -141.31906
5258950000 -1.350787 -16.066847 -21.162382 -108.16873 -24.938065 10.096135
-21.176643 -108.15562 -1.3182763 -20.40126 -25.272243 -170.11374
-24.949324 10.111526 -25.275995 -170.15305 -0.94843602 -147.56619
5321437500 -1.3518773 -22.178732 -21.147753 -114.2252 -24.708748 3.8702686
-21.162306 -114.21326 -1.3272495 -26.47057 -25.055979 -176.29454
-24.713615 3.9968522 -25.051308 -176.38626 -0.94609016 -153.88643
5383925000 -1.3605282 -28.327446 -21.158712 -120.34383 -24.484129 -2.3548131
-21.161993 -120.31736 -1.3303471 -32.592285 -24.827324 177.46156
-24.492254 -2.412235 -24.843485 177.47255 -0.95160222 -160.15747
5446412500 -1.3731376 -34.490555 -21.148741 -126.45254 -24.287743 -8.5078182
-21.161243 -126.40553 -1.3310949 -38.69368 -24.62738 171.29344
-24.288507 -8.5158949 -24.625391 171.28403 -0.95664591 -166.40721
5508900000 -1.3763435 -40.683266 -21.150713 -132.52605 -24.053856 -14.771915
-21.164581 -132.5316 -1.3357098 -44.776669 -24.419853 165.05165
-24.057489 -14.703777 -24.425304 165.17929 -0.95870066 -172.69014
5571387500 -1.3854264 -46.88324 -21.157228 -138.6107 -23.849234 -20.939617
-21.164278 -138.64522 -1.3424655 -50.903809 -24.202997 158.91159
-23.847677 -20.899412 -24.207815 158.87555 -0.96004498 -178.88618
5633875000 -1.4033091 -53.057217 -21.157612 -144.74374 -23.640707 -27.223249
-21.179041 -144.72427 -1.3541206 -56.993942 -24.001431 152.69318
-23.651171 -27.063688 -23.993685 152.65831 -0.96478742 174.78984
5696362500 -1.4097486 -59.243462 -21.158974 -150.83061 -23.431599 -33.420109
-21.161097 -150.86554 -1.3595229 -63.107513 -23.805754 146.52888
-23.441557 -33.379936 -23.793104 146.54668 -0.97468609 168.54353
5758850000 -1.4199398 -65.509613 -21.171043 -156.99937 -23.232336 -39.575474
-21.18585 -156.98534 -1.3750587 -69.257454 -23.600801 140.38904
-23.238974 -39.538353 -23.590183 140.32561 -0.9731968 162.37276
5821337500 -1.428375 -71.721733 -21.182796 -163.08444 -23.031704 -45.8773
-21.186647 -163.12216 -1.3910912 -75.403595 -23.411219 134.10316
-23.01997 -45.796791 -23.414202 134.15181 -0.9827984 156.10971
5883825000 -1.4415659 -77.998184 -21.193333 -169.29045 -22.832726 -52.177853
-21.191307 -169.23067 -1.394365 -81.550346 -23.209387 127.94111
-22.83675 -52.078609 -23.19108 127.94653 -0.98779064 149.88306
5946312500 -1.4598866 -84.278114 -21.209244 -175.42474 -22.632507 -58.273556
