!Keysight Technologies,N5225A,MY51451185,Z.10.48.20
!Date: Wednesday, March 01, 2017 10:07:51
!S3P File: Measurements: <S11,S12,S13>,
!<S21,S22,S23>,
!<S31,S32,S33>:
!Port Configuration: PORT 1:OUTPUT (0 DEGREE), PORT 2: COMMON, PORT 3: OUTPUT (180 DEGREE)
# Hz S  dB   R 50
10000000 -2.0333638 171.08826 -60.952896 23.598198 -51.988995 36.291985
-62.119751 -47.573448 0.0054157721 -2.1365995 -51.070084 28.954983
-53.506458 63.99448 -58.437347 3.5484912 -2.2187598 170.63092
16237500 -2.0495169 171.81169 -61.123428 122.90383 -54.520561 46.998703
-71.314491 77.932854 0.0027141753 -3.3225777 -67.553085 96.534294
-52.528679 64.322662 -69.682297 -142.12819 -2.2423255 171.46968
22475000 -2.0541427 170.25336 -60.911747 66.886246 -52.268093 56.729824
-57.25935 111.62312 0.00084632542 -4.6968741 -60.533661 49.366859
-53.170792 65.228134 -59.285164 59.546333 -2.2577379 169.92175
28712500 -2.0619938 169.02965 -57.437473 129.70161 -51.138527 63.3153
-61.075039 143.23288 -0.0035476433 -5.9417729 -57.979649 53.155861
-50.683563 57.18639 -58.450371 55.974804 -2.2806969 168.48627
34950000 -2.0798538 167.51189 -54.126137 123.50188 -49.588402 68.666084
-55.170807 121.37719 -0.0057403725 -7.1923046 -55.336613 23.174303
-49.251034 67.262283 -55.82 30.058123 -2.2885189 166.90327
41187500 -2.086566 165.7972 -52.579739 130.19257 -47.818913 66.125114
-51.061626 136.69995 -0.0094669452 -8.5067425 -51.538273 19.36717
-48.409691 63.472656 -52.242348 19.600618 -2.2945113 165.04715
47425000 -2.0954559 163.99438 -50.2384 135.95207 -46.634941 64.898315
-50.304585 139.08165 -0.0070093884 -9.7648802 -50.218399 22.107054
-47.128284 65.307541 -50.814228 12.160501 -2.2941453 163.21112
53662500 -2.0962086 162.03644 -48.60957 136.93564 -45.897747 64.429474
-48.656094 131.52025 -0.013751973 -11.061414 -49.145344 4.2529454
-45.782085 61.705902 -50.079155 23.892641 -2.284611 161.25153
59900000 -2.0974836 160.41617 -46.987339 135.74632 -45.297234 64.746407
-46.595711 134.94994 -0.0015627255 -12.455012 -47.041679 7.5696425
-45.190445 66.419632 -46.286083 15.366753 -2.2906697 159.44867
66137500 -2.0960026 158.61028 -45.759304 136.32332 -44.413635 64.89196
-46.277737 138.83905 -0.010445352 -13.646938 -45.418179 9.1489401
-45.086601 67.349602 -44.884975 5.8886547 -2.2842224 157.5592
72375000 -2.1016784 156.77335 -44.251381 137.43039 -43.971901 62.79525
-44.217304 134.79716 -0.0091912737 -14.944857 -44.425808 4.0662007
-44.250294 64.099335 -43.785255 3.7340713 -2.2913141 155.62607
78612500 -2.1047668 154.91632 -42.368607 138.79562 -43.088955 58.988602
-42.829185 134.8692 -0.016253954 -16.244362 -43.123585 -3.4213655
-43.423851 62.069988 -43.309006 1.629092 -2.2916296 153.6647
84850000 -2.1036186 153.06856 -41.24004 138.14886 -42.673859 61.167213
-41.228664 136.63115 -0.016233116 -17.586567 -41.499172 -3.6323385
-43.128258 61.398888 -41.794571 -7.8214402 -2.2960939 151.70119
91087500 -2.1096706 151.22878 -40.121521 137.57001 -42.415283 58.568287
-39.746643 138.2533 -0.011208678 -18.824139 -40.320534 -9.140914
-42.641312 61.99474 -40.525555 -7.8868427 -2.2980921 149.76714
97325000 -2.1093404 149.34483 -39.077423 137.62604 -42.563404 58.567856
-38.837406 135.86154 -0.016340612 -20.097139 -39.335499 -10.229408
-42.457657 61.077389 -39.059555 -10.748828 -2.2964966 147.82742
103562500 -2.1030688 147.48822 -38.158287 137.57272 -41.894058 57.136898
-38.051208 136.661 -0.023449261 -21.409971 -38.433254 -13.63841
-41.612156 58.785347 -38.429451 -12.143937 -2.2860773 145.88873
109800000 -2.1022179 145.62975 -37.069347 135.62837 -41.431732 57.077885
-37.137257 135.95395 -0.024175288 -22.698227 -37.228436 -15.758649
-41.549473 57.34568 -37.288719 -15.653405 -2.2855916 143.91243
116037500 -2.097774 143.75667 -36.18766 134.9536 -41.488014 55.716232
-36.108299 135.36934 -0.019240672 -23.998198 -36.299644 -18.376295
-41.639366 55.714813 -36.255966 -17.292347 -2.2797978 141.97295
122275000 -2.0971239 141.88777 -35.25288 133.92903 -41.24649 55.114517
-35.252605 133.67152 -0.027717646 -25.269621 -35.523708 -20.354876
-41.306015 54.714516 -35.437168 -19.977766 -2.2756665 140.02689
128512500 -2.0972025 140.02757 -34.472263 133.19116 -41.223827 53.912579
-34.557095 132.84093 -0.034127034 -26.578089 -34.642647 -21.809027
-41.101963 54.954765 -34.643887 -22.600903 -2.2739084 138.07211
134750000 -2.0961418 138.17873 -33.702404 131.72018 -41.135418 52.649929
-33.750156 131.9465 -0.034898084 -27.900536 -33.842777 -23.923195
-41.10902 55.242409 -33.746677 -23.805962 -2.2683909 136.13577
140987500 -2.0918624 136.33586 -32.930538 131.11296 -41.149006 52.033085
-32.952805 131.11307 -0.040074524 -29.195118 -33.153183 -26.411154
-41.327766 53.141193 -33.105583 -26.448412 -2.2607231 134.20775
147225000 -2.0944026 134.45744 -32.236095 129.75613 -41.170441 51.828697
-32.17503 129.93294 -0.045561682 -30.51466 -32.329563 -28.132034
-41.267574 52.132317 -32.354023 -28.250994 -2.2506199 132.2547
153462500 -2.0912571 132.61923 -31.519625 129.03783 -41.239246 50.923645
-31.529787 129.10147 -0.051035792 -31.800497 -31.598782 -30.581858
-41.1632 51.875584 -31.612263 -30.726074 -2.2434688 130.28525
159700000 -2.086417 130.79279 -30.832382 127.79239 -41.415127 50.647953
-30.842545 127.78451 -0.05694887 -33.129711 -30.975937 -32.500664
-41.343952 50.550068 -31.0014 -32.40366 -2.2367218 128.37595
165937500 -2.0799022 128.92406 -30.20232 126.75875 -41.470284 50.651962
-30.19907 126.90444 -0.058487061 -34.434654 -30.362955 -34.387596
-41.579239 50.323963 -30.331419 -34.225544 -2.231431 126.44542
172175000 -2.0743296 127.08945 -29.584671 125.37513 -41.889412 50.576794
-29.603918 125.38677 -0.070192367 -35.737789 -29.685793 -36.165241
-41.773685 50.996124 -29.692793 -36.229172 -2.2244506 124.51627
178412500 -2.0724981 125.24191 -28.949471 124.04749 -42.17738 52.328335
-28.934942 123.57723 -0.067324519 -37.051598 -29.091595 -38.459991
-42.06295 50.542229 -29.141531 -38.125153 -2.2144432 122.59167
184650000 -2.0703242 123.40045 -28.411621 122.90154 -42.591385 51.321693
-28.396679 122.93089 -0.074138492 -38.392082 -28.516727 -40.226299
-42.452812 52.266178 -28.509123 -40.533245 -2.1957922 120.65998
190887500 -2.0613904 121.57941 -27.779999 121.82477 -42.8451 53.881123
-27.7859 121.78674 -0.086296931 -39.701283 -27.923813 -41.887142
-42.891659 50.757385 -27.892721 -41.711788 -2.1894386 118.77753
197125000 -2.0582294 119.7274 -27.268459 120.41185 -43.077682 53.700169
-27.28274 120.39937 -0.09585727 -41.018147 -27.369274 -44.28598
-42.806725 52.540733 -27.354502 -43.693485 -2.1736786 116.82091
203362500 -2.0499234 117.88987 -26.733459 119.17377 -43.86721 56.788578
-26.739765 119.13298 -0.10372246 -42.335827 -26.89337 -45.707253
-43.622192 57.77438 -26.917412 -45.762383 -2.1719847 114.96333
209600000 -2.0406535 116.06848 -26.248972 117.94576 -44.212009 59.77824
-26.297277 118.35795 -0.10790265 -43.648972 -26.376114 -47.498356
-44.152287 59.188343 -26.326986 -47.696384 -2.1606307 113.07133
215837500 -2.0372581 114.23277 -25.709896 116.54214 -44.782181 65.235992
-25.74494 116.54951 -0.12188572 -44.984531 -25.887987 -49.536629
-44.897663 65.389236 -25.845325 -49.380432 -2.1535056 111.13567
222075000 -2.0292811 112.3904 -25.238272 115.16848 -45.245102 72.082359
-25.279604 115.36478 -0.12994173 -46.321037 -25.399954 -51.459927
-45.466415 70.214844 -25.401106 -51.3494 -2.1454034 109.23708
228312500 -2.0249557 110.59319 -24.79442 113.76263 -45.81485 79.156982
-24.772512 113.74368 -0.13199377 -47.602787 -24.936605 -53.130806
-45.595776 78.973877 -24.914673 -52.813957 -2.1304641 107.34027
234550000 -2.0189378 108.75357 -24.346525 112.40341 -45.885933 87.125893
-24.363956 112.62481 -0.1525985 -48.946911 -24.502701 -54.469585
-46.029617 84.775032 -24.468267 -54.941578 -2.1194122 105.46289
240787500 -2.0151689 106.94536 -23.90387 110.97696 -45.718502 98.681557
-23.909916 111.15736 -0.15907238 -50.275398 -24.052849 -56.424072
-45.587509 98.432358 -24.012184 -56.645794 -2.1031613 103.5893
247025000 -2.0114832 105.15027 -23.444035 109.61517 -45.210461 108.37169
-23.470587 109.54524 -0.16565356 -51.59893 -23.615578 -58.412743
-45.039116 110.83986 -23.611061 -58.384212 -2.0918257 101.69949
253262500 -2.0031786 103.38702 -23.045376 108.43769 -44.504185 113.10128
-23.014126 108.37257 -0.18113747 -52.931644 -23.167965 -60.23682
-44.002682 117.86251 -23.177368 -60.09042 -2.0829933 99.868042
259500000 -1.9999783 101.5568 -22.607342 106.89993 -43.31612 124.28121
-22.602339 106.96384 -0.18273936 -54.268616 -22.715765 -62.182713
-43.569572 125.42085 -22.762104 -61.861317 -2.0727389 97.956078
265737500 -1.9857008 99.739586 -22.238625 105.26938 -42.143333 130.688
-22.267574 105.34143 -0.20562816 -55.627758 -22.361956 -63.618042
-41.996315 125.39841 -22.363007 -64.043312 -2.0686927 96.142235
271975000 -1.9880141 97.940765 -21.842505 103.97727 -41.273529 134.61346
-21.84506 103.79648 -0.22142282 -56.942833 -21.990013 -65.656708
-41.463211 134.39403 -21.976053 -65.877457 -2.0529854 94.320648
278212500 -1.9724836 96.128685 -21.473558 102.70752 -39.956966 137.85974
-21.478582 102.36744 -0.23306505 -58.268822 -21.634281 -67.231148
-40.039627 134.78458 -21.624647 -67.478462 -2.0331235 92.399582
284450000 -1.9634556 94.315407 -21.075645 101.0058 -38.903301 138.14749
-21.082516 100.71398 -0.23933387 -59.654442 -21.242596 -69.080139
-38.809299 140.25906 -21.215742 -68.333366 -2.0199537 90.536469
290687500 -1.9638705 92.549545 -20.736435 99.48761 -37.939049 139.34564
-20.719873 99.468445 -0.2577545 -61.000729 -20.876356 -70.991417
-37.748726 140.43665 -20.893347 -70.783134 -2.0059729 88.677505
296925000 -1.9593306 90.784523 -20.370953 98.005623 -36.842945 141.63744
-20.384531 98.028946 -0.27277392 -62.369389 -20.525532 -72.514053
-36.91185 140.6628 -20.54677 -72.40583 -1.9963921 86.815361
303162500 -1.9558611 89.030304 -20.026258 96.54052 -35.910297 142.79283
-20.03426 96.52961 -0.28831914 -63.670956 -20.178715 -74.456039
-36.039326 141.62958 -20.175098 -74.393127 -1.9867579 84.993561
309400000 -1.9448855 87.297554 -19.691919 94.953178 -35.053406 141.88623
-19.697128 95.157845 -0.29792058 -65.120094 -19.830976 -76.244194
-34.961441 142.30067 -19.857479 -76.128387 -1.9744315 83.198586
315637500 -1.9317899 85.518166 -19.360619 93.384781 -34.162376 141.9101
-19.376917 93.550735 -0.32400966 -66.473961 -19.512281 -77.79583
-34.161194 141.77557 -19.516359 -77.887314 -1.9731909 81.353203
321875000 -1.9272208 83.723816 -19.032936 92.063835 -33.342964 141.51503
-19.036749 91.916489 -0.34263095 -67.847504 -19.211418 -79.46035
-33.263042 142.84265 -19.198938 -79.578918 -1.9557273 79.564346
328112500 -1.9177699 81.983849 -18.700005 90.341095 -32.536652 141.64432
-18.735073 90.223869 -0.36068755 -69.211182 -18.87182 -81.42086
-32.59412 140.29427 -18.84811 -81.451363 -1.9401782 77.694572
334350000 -1.9129539 80.227837 -18.402817 88.956734 -31.875189 140.77951
-18.427588 88.86998 -0.37807092 -70.53537 -18.565237 -83.240242
-31.808277 140.83057 -18.576134 -83.25029 -1.92689 75.895622
340587500 -1.9081717 78.461609 -18.09458 87.326149 -31.161121 139.52985
-18.121363 87.390839 -0.40347621 -71.912552 -18.286257 -84.751816
-31.119888 139.73582 -18.263741 -84.831657 -1.9175249 74.082054
346825000 -1.906185 76.712967 -17.820917 85.858864 -30.423594 138.66228
-17.815483 85.875092 -0.42518887 -73.24987 -17.974442 -86.668785
-30.381109 139.17592 -17.96916 -86.577087 -1.9060391 72.275009
353062500 -1.8984053 74.959946 -17.516609 84.280952 -29.802448 137.90019
-17.516581 84.284088 -0.44267988 -74.646111 -17.685865 -88.346634
-29.863743 138.31673 -17.698221 -88.251663 -1.8967634 70.544159
359300000 -1.9006169 73.221382 -17.230082 82.650406 -29.176115 136.89951
-17.249155 82.649223 -0.47029248 -76.03492 -17.413357 -90.20491
-29.181084 136.77106 -17.39123 -90.059654 -1.8907307 68.745346
365537500 -1.8913691 71.478073 -16.943161 81.096443 -28.590109 135.8083
-16.969759 81.032837 -0.49175376 -77.399628 -17.133833 -91.834084
-28.548201 134.91765 -17.108173 -91.916367 -1.8821076 66.955345
371775000 -1.8899052 69.75827 -16.676998 79.496017 -28.044905 134.39679
-16.687241 79.58239 -0.51328754 -78.788269 -16.847994 -93.636169
-28.002607 134.20381 -16.857658 -93.631882 -1.8750361 65.220558
378012500 -1.8885963 68.078407 -16.413656 78.088974 -27.473743 132.88678
-16.425093 77.951393 -0.54316628 -80.180061 -16.58979 -95.384689
-27.471861 133.23985 -16.598795 -95.42672 -1.868119 63.40057
384250000 -1.8861392 66.268486 -16.158342 76.444771 -26.925518 131.59756
-16.159012 76.37854 -0.56542277 -81.551323 -16.337677 -97.196701
-26.908016 131.65724 -16.319231 -97.198685 -1.8604523 61.616238
390487500 -1.8809396 64.60257 -15.884221 74.795631 -26.443096 130.41548
-15.902476 74.834282 -0.59350443 -82.905754 -16.074017 -98.860474
-26.394398 130.36472 -16.082293 -98.867325 -1.8453518 59.867905
396725000 -1.8800433 62.881229 -15.637425 73.189178 -25.933607 128.86421
-15.649627 73.244415 -0.62238538 -84.28157 -15.824279 -100.70058
-25.939505 129.12218 -15.835563 -100.56066 -1.845315 58.117146
402962500 -1.8803504 61.179691 -15.390903 71.62825 -25.451424 127.71055
-15.401257 71.71859 -0.65177715 -85.685287 -15.593267 -102.33058
-25.46389 127.71658 -15.58548 -102.35818 -1.8336104 56.37862
409200000 -1.8775657 59.456966 -15.16086 70.008041 -24.973782 126.14551
-15.163325 70.082626 -0.68172705 -87.038033 -15.341793 -104.14249
-25.002552 125.91467 -15.346305 -104.17109 -1.8303176 54.619476
415437500 -1.8766683 57.751389 -14.90975 68.417717 -24.527124 124.84112
-14.925173 68.554962 -0.71324611 -88.421913 -15.114614 -105.87749
-24.556087 124.56522 -15.116634 -105.80712 -1.821901 52.896744
421675000 -1.8738821 56.043259 -14.685014 66.820732 -24.085625 123.14692
-14.693571 66.82988 -0.75057828 -89.800835 -14.891463 -107.61569
-24.098631 123.00287 -14.882066 -107.6948 -1.8144603 51.116539
427912500 -1.8770057 54.380917 -14.451412 65.228035 -23.66309 121.3966
-14.468931 65.214912 -0.77894616 -91.188927 -14.665297 -109.4054
-23.681026 121.48811 -14.652001 -109.35515 -1.8079746 49.408932
434150000 -1.874072 52.696697 -14.232304 63.671898 -23.251135 119.92529
-14.250703 63.628937 -0.81739259 -92.574402 -14.434476 -111.11079
-23.268486 120.03603 -14.440693 -111.11141 -1.8066258 47.69014
440387500 -1.8761364 51.021179 -14.01992 62.023563 -22.852049 118.4123
-14.028584 62.100109 -0.84802401 -93.951752 -14.217866 -112.85795
-22.854008 118.31694 -14.218777 -112.80743 -1.8036122 45.990669
446625000 -1.8782779 49.320404 -13.803568 60.403557 -22.463923 116.81192
-13.810337 60.445938 -0.8848713 -95.321976 -14.013785 -114.60398
-22.471277 116.90002 -14.011747 -114.54569 -1.7987822 44.251434
452862500 -1.8807291 47.687099 -13.593647 58.803577 -22.095495 115.23475
-13.60471 58.841785 -0.92057651 -96.709274 -13.809938 -116.29875
-22.088739 115.06974 -13.801516 -116.2936 -1.7988373 42.54454
459100000 -1.8823532 46.005337 -13.390249 57.168373 -21.720325 113.55478
-13.407006 57.232445 -0.96357131 -98.071831 -13.6057 -117.98284
-21.732588 113.47957 -13.603167 -118.06911 -1.7895803 40.87035
465337500 -1.8838422 44.349762 -13.201949 55.580807 -21.360151 111.92575
-13.194888 55.625977 -1.00354 -99.442993 -13.415203 -119.77918
-21.364679 111.9259 -13.403883 -119.79563 -1.7851427 39.190063
471575000 -1.8862228 42.698532 -12.988614 53.974998 -21.021723 110.3249
-13.002854 53.929375 -1.0399688 -100.86031 -13.221873 -121.57312
-21.014118 110.45535 -13.203895 -121.56009 -1.7880511 37.473549
477812500 -1.8876166 41.05151 -12.798213 52.337952 -20.669228 108.65953
-12.816167 52.300869 -1.0863278 -102.21338 -13.02177 -123.29068
-20.664799 108.72057 -13.016917 -123.2824 -1.7883698 35.803879
484050000 -1.8923661 39.417076 -12.614491 50.629639 -20.335978 107.05791
-12.616988 50.733715 -1.1294163 -103.61964 -12.834388 -125.01505
-20.343998 107.00107 -12.837395 -125.036 -1.7821116 34.138939
490287500 -1.9001552 37.794174 -12.42839 49.02953 -20.034636 105.37237
-12.438416 49.085712 -1.1723628 -104.99072 -12.657988 -126.73034
-20.035807 105.25824 -12.643577 -126.78519 -1.7883066 32.474808
496525000 -1.9060546 36.16206 -12.246131 47.396996 -19.711355 103.67837
-12.257734 47.436771 -1.2197586 -106.36301 -12.484062 -128.55855
-19.722734 103.62223 -12.476691 -128.48424 -1.7908243 30.810427
502762500 -1.9120648 34.496315 -12.070518 45.864002 -19.412912 101.84488
-12.077298 45.754345 -1.2550005 -107.72443 -12.307112 -130.29395
-19.414946 101.89255 -12.294462 -130.16121 -1.7912995 29.001352
509000000 -1.9220155 32.940903 -11.899952 44.214417 -19.103868 100.33307
-11.905878 44.208111 -1.3056891 -109.0861 -12.129378 -131.84691
-19.113911 100.34497 -12.124395 -131.94838 -1.7927549 27.538923
515237500 -1.9218317 31.332592 -11.729062 42.615974 -18.8286 98.650696
-11.737513 42.638561 -1.3616682 -110.47053 -11.960181 -133.70468
-18.839146 98.555878 -11.961991 -133.59593 -1.7913986 25.841467
521475000 -1.9323226 29.716913 -11.554162 40.986549 -18.541367 96.862755
-11.571179 40.939404 -1.4115582 -111.79261 -11.802955 -135.39914
-18.5481 96.98867 -11.795463 -135.33774 -1.795396 24.243216
527712500 -1.9444534 28.131491 -11.399404 39.287613 -18.276524 95.404488
-11.416556 39.235882 -1.4549748 -113.22801 -11.638488 -137.05692
-18.284946 95.229721 -11.623128 -137.13129 -1.8017081 22.658548
533950000 -1.951542 26.543667 -11.238394 37.686222 -18.001282 93.709152
-11.24577 37.658924 -1.5149302 -114.63122 -11.485133 -138.81085
-18.00943 93.588333 -11.478106 -138.87466 -1.8091162 21.035044
540187500 -1.9655252 24.951662 -11.07776 36.064091 -17.742317 91.955551
-11.083336 36.059498 -1.5618666 -116.00291 -11.335823 -140.51282
-17.745476 91.83213 -11.320152 -140.51492 -1.8160682 19.43327
546425000 -1.9759053 23.40987 -10.920378 34.382225 -17.483355 90.281136
-10.946271 34.404179 -1.6231891 -117.35416 -11.181126 -142.23634
-17.497547 90.17733 -11.179111 -142.30736 -1.8183943 17.830883
552662500 -1.9852085 21.804573 -10.787043 32.849125 -17.248203 88.595673
-10.788925 32.781925 -1.6784675 -118.70841 -11.033674 -143.91977
-17.25893 88.585228 -11.03299 -143.88808 -1.8275764 16.258804
558900000 -2.0013444 20.27277 -10.631504 31.211636 -17.000488 86.86422
-10.652709 31.220608 -1.737334 -120.0407 -10.884523 -145.62775
-17.009808 86.816185 -10.884584 -145.60832 -1.8341038 14.650681
565137500 -2.0091486 18.724005 -10.492308 29.597851 -16.771559 85.167122
-10.510104 29.588455 -1.793133 -121.38071 -10.752921 -147.3958
-16.776699 85.125 -10.75405 -147.30646 -1.8416376 13.061543
571375000 -2.0260346 17.196842 -10.357945 27.967167 -16.537516 83.529503
-10.372656 27.985641 -1.8494993 -122.75488 -10.61626 -149.02742
-16.540169 83.480011 -10.609995 -149.05119 -1.8530957 11.520633
577612500 -2.0387504 15.65013 -10.215985 26.364862 -16.311436 81.816788
-10.23208 26.341179 -1.9071922 -124.09914 -10.475476 -150.70842
-16.315235 81.80349 -10.475863 -150.72443 -1.8640447 9.9349117
583850000 -2.0465708 14.117742 -10.076904 24.716976 -16.094301 80.132179
-10.092134 24.727032 -1.9694252 -125.39628 -10.349694 -152.38988
-16.099461 80.163437 -10.336361 -152.40105 -1.8774912 8.3939066
590087500 -2.0613143 12.58889 -9.950901 23.107105 -15.873348 78.4552
-9.9665594 23.15589 -2.0336468 -126.7409 -10.2171 -154.14699
-15.879959 78.412216 -10.21856 -154.08452 -1.8818116 6.867043
596325000 -2.0752351 11.045362 -9.8192625 21.546141 -15.670962 76.725777
-9.8399734 21.49486 -2.0940816 -128.05885 -10.094854 -155.82098
-15.676682 76.613777 -10.086674 -155.79933 -1.8971784 5.3187089
602562500 -2.0977321 9.546422 -9.7032337 19.921284 -15.462605 75.091438
-9.7200289 19.924549 -2.1587534 -129.36786 -9.9684258 -157.45424
-15.474103 75.094383 -9.9660063 -157.45091 -1.9077414 3.7880878
608800000 -2.1112249 8.0474577 -9.5752945 18.321398 -15.255293 73.364693
-9.5965595 18.26757 -2.2221255 -130.72952 -9.8458767 -159.11719
-15.281202 73.35038 -9.8434086 -159.13576 -1.9201152 2.289722
615037500 -2.1232548 6.566555 -9.4626627 16.710806 -15.077192 71.713684
-9.4740295 16.703316 -2.2914312 -132.07623 -9.7369499 -160.7878
-15.069088 71.725937 -9.7344694 -160.81894 -1.9378655 0.77223337
