! MARKI MICROWAVE INC.
! Email:             	info@markimicrowave.com   				Phone:   408-778-4200
! Model Number:      	MPD-0226SM						Date:    05/20
! Filename:		MPD-0226SM.S3P						Version: 1.0
! Description:       	3-port S-parameter data for Power Divider MPD-0226SM
! Frequency Range: 	2 GHz to 26.5 GHz		
! Port Configuration:	PORT 1:Output , PORT 2: Output, Port 3: COMMON


! S3P File: Measurements: Mag<S11> Ang<S11> Mag<S12> Ang<S12> Mag<S13> Ang<S13>! row 1 
!			  Mag<S21> Ang<S21> Mag<S22> Ang<S22> Mag<S23> Ang<S23>! row 2 
!			  Mag<S31> Ang<S31> Mag<S32> Ang<S32> Mag<S33> Ang<S33>! row 3 
# Hz S  dB   R 50
10000000 -10.578197 171.39055 -4.041966 -5.941556 -3.6253622 -5.0780878
-3.9759257 -6.391233 -10.550465 171.718 -3.6093397 -5.0220628
-3.6265721 -5.4496593 -3.6138778 -5.1523957 -10.158778 174.10687
43112500 -10.640663 168.4321 -4.0345654 -8.376689 -3.6405349 -7.102098
-3.9816442 -8.7315178 -10.615929 168.61131 -3.627419 -7.0816112
-3.6417391 -7.3855152 -3.6318324 -7.1768222 -10.17308 171.87592
76225000 -10.718035 164.92793 -4.0330787 -11.298081 -3.6560729 -9.5079241
-3.9895263 -11.568702 -10.686968 164.94022 -3.6478417 -9.5165329
-3.6567471 -9.7193289 -3.65185 -9.5825481 -10.198922 169.23653
109337500 -10.79378 160.76195 -4.0374074 -14.684587 -3.6727803 -12.310403
-4.0048485 -14.861076 -10.766941 160.61954 -3.6667373 -12.344523
-3.6736887 -12.456298 -3.670007 -12.391672 -10.222165 166.1485
142450000 -10.871931 156.0519 -4.0445766 -18.533943 -3.6891501 -15.506874
-4.0233645 -18.613697 -10.847301 155.76251 -3.6867943 -15.581622
-3.6884997 -15.584724 -3.6913056 -15.612326 -10.251872 162.66882
175562500 -10.966934 150.73209 -4.0535278 -22.840717 -3.7054136 -19.096514
-4.0437903 -22.811216 -10.933983 150.28464 -3.7067773 -19.222645
-3.7087271 -19.097734 -3.7158785 -19.229912 -10.280165 158.79504
208675000 -11.028435 145.41611 -4.0826454 -27.087732 -3.7145114 -22.66844
-4.0744591 -27.050173 -10.99285 144.84337 -3.7192843 -22.789707
-3.7228382 -22.625042 -3.7351782 -22.798216 -10.316707 154.94948
241787500 -11.083489 140.16177 -4.1142039 -31.31856 -3.7223473 -26.225071
-4.1068821 -31.273829 -11.039318 139.4894 -3.7285905 -26.349508
-3.7308185 -26.180233 -3.7439632 -26.377951 -10.347472 151.23894
274900000 -11.137783 134.86212 -4.1515579 -35.53307 -3.7303238 -29.770527
-4.1479249 -35.486115 -11.084323 134.19946 -3.7465999 -29.900854
-3.7371912 -29.730984 -3.7550688 -29.92256 -10.390522 147.47758
308012500 -11.20302 129.61765 -4.1876292 -39.755116 -3.7378256 -33.307869
-4.1875 -39.691975 -11.13054 128.91055 -3.7601545 -33.437756
-3.7432711 -33.24036 -3.7634535 -33.470284 -10.418846 143.70734
341125000 -11.276595 124.42935 -4.2310505 -43.942165 -3.7447727 -36.809059
-4.2283425 -43.888542 -11.188848 123.69917 -3.7705278 -36.972424
-3.7536938 -36.782066 -3.7770994 -37.014675 -10.44913 140.02272
374237500 -11.335923 119.19353 -4.2756958 -48.094669 -3.749378 -40.328064
-4.2722993 -48.041225 -11.233047 118.47246 -3.7809873 -40.522694
-3.7592695 -40.325771 -3.7897093 -40.569725 -10.464566 136.34464
407350000 -11.403559 114.01629 -4.3168302 -52.234665 -3.7570319 -43.844501
-4.3158774 -52.185345 -11.283369 113.33366 -3.7928913 -44.060314
-3.767035 -43.865608 -3.8024814 -44.117584 -10.491566 132.75523
440462500 -11.4713 108.84777 -4.3633828 -56.392399 -3.7629895 -47.369217
-4.3646545 -56.340004 -11.326479 108.15217 -3.8066897 -47.580936
-3.7741637 -47.376629 -3.8136647 -47.622677 -10.505289 129.08723
473575000 -11.534464 103.71603 -4.417099 -60.521732 -3.7714114 -50.897549
-4.4145322 -60.498913 -11.368511 103.01978 -3.8194056 -51.072357
-3.7776873 -50.91106 -3.8256834 -51.11536 -10.521781 125.433
506687500 -11.598415 98.515533 -4.4725904 -64.638557 -3.781764 -54.420982
-4.4697757 -64.591812 -11.407618 97.908073 -3.8335485 -54.592331
-3.7801807 -54.454983 -3.8357832 -54.652672 -10.540659 121.85122
539800000 -11.664611 93.403473 -4.5302696 -68.748932 -3.7883718 -57.919621
-4.5244088 -68.690926 -11.456294 92.817146 -3.844692 -58.086147
-3.7837484 -57.974976 -3.8495042 -58.162121 -10.563405 118.23459
572912500 -11.73192 88.304543 -4.5871601 -72.833069 -3.7946408 -61.444553
-4.5802817 -72.790627 -11.507904 87.701233 -3.8540637 -61.603157
-3.7918844 -61.495766 -3.8601382 -61.659184 -10.573041 114.61617
606025000 -11.790355 83.22747 -4.647141 -76.869202 -3.8069468 -64.960281
-4.639297 -76.86882 -11.549994 82.705612 -3.864295 -65.132645
-3.8027549 -65.023514 -3.8710825 -65.161781 -10.585488 111.09058
639137500 -11.843206 78.14978 -4.7058268 -80.929932 -3.8157558 -68.471703
-4.7011657 -80.92305 -11.580731 77.679321 -3.8743649 -68.639908
-3.8044851 -68.525208 -3.8761475 -68.651787 -10.591781 107.50421
672250000 -11.90828 73.140762 -4.7664294 -84.984436 -3.8256595 -71.984467
-4.7643995 -84.978111 -11.623749 72.670059 -3.88253 -72.13295
-3.814667 -72.037788 -3.8839896 -72.143959 -10.603177 103.9856
705362500 -11.968318 68.175667 -4.8335233 -89.002983 -3.8321185 -75.514854
-4.8282981 -89.01017 -11.658684 67.734444 -3.8904068 -75.649796
-3.8221331 -75.532799 -3.8942547 -75.63472 -10.605357 100.45452
738475000 -12.038717 63.158337 -4.8977671 -92.992676 -3.8397098 -79.018486
-4.8939986 -93.012314 -11.706619 62.8302 -3.8980546 -79.159233
-3.8313808 -79.055428 -3.903599 -79.147995 -10.613588 96.945045
771587500 -12.096682 58.189175 -4.9615192 -97.009407 -3.8445451 -82.518677
-4.9637351 -97.009949 -11.751553 57.955856 -3.9082477 -82.664368
-3.8384497 -82.548164 -3.9109652 -82.649261 -10.622933 93.449432
804700000 -12.158965 53.291477 -5.0281415 -101.00011 -3.8498404 -86.012482
-5.0302391 -101.03104 -11.800673 53.104481 -3.9132731 -86.133652
-3.8447204 -86.049156 -3.9141059 -86.113129 -10.62529 89.917595
837812500 -12.228285 48.266705 -5.0951772 -104.98022 -3.852155 -89.514313
-5.0969925 -105.02721 -11.841322 48.260792 -3.9228599 -89.635574
-3.8518505 -89.537033 -3.9239967 -89.616501 -10.617017 86.385994
870925000 -12.293468 43.301823 -5.166657 -108.93248 -3.8614337 -93.022758
-5.1691542 -108.98124 -11.883544 43.482494 -3.9328103 -93.118073
-3.8612094 -93.040367 -3.9356644 -93.113976 -10.618648 82.928429
904037500 -12.356528 38.403923 -5.2385707 -112.91821 -3.8645363 -96.508919
-5.2399735 -112.92757 -11.930775 38.720112 -3.9413366 -96.594719
-3.8644342 -96.55143 -3.9452276 -96.600555 -10.611133 79.413666
937150000 -12.424194 33.444908 -5.3132758 -116.87175 -3.8682289 -100.0168
-5.3149571 -116.88158 -11.986142 34.005089 -3.9524844 -100.07372
-3.8746834 -100.0573 -3.9591365 -100.09059 -10.616392 75.957878
970262500 -12.489665 28.515015 -5.3871002 -120.80402 -3.8755548 -103.52095
-5.3896313 -120.83364 -12.042844 29.30969 -3.9630499 -103.54682
-3.8810151 -103.54182 -3.9684434 -103.55293 -10.619235 72.416374
1003375000 -12.552044 23.572165 -5.4625549 -124.7674 -3.882864 -106.99475
-5.4658546 -124.7831 -12.090828 24.585562 -3.9729092 -107.00954
-3.8871202 -107.02932 -3.9779079 -107.04681 -10.614185 68.885963
1036487500 -12.60457 18.672466 -5.5411901 -128.6963 -3.8912196 -110.48483
-5.5424018 -128.72078 -12.138999 19.936481 -3.9833798 -110.47768
-3.8939612 -110.52206 -3.9898949 -110.50404 -10.612382 65.397942
1069600000 -12.664612 13.823364 -5.6206555 -132.61728 -3.9014621 -113.98052
-5.6213942 -132.66389 -12.188653 15.283689 -3.9911587 -113.95016
-3.9033113 -114.03877 -3.9973032 -113.97921 -10.609031 61.872253
1102712500 -12.724104 8.9158716 -5.6992526 -136.52679 -3.9116664 -117.49244
-5.7006412 -136.54074 -12.2364 10.643761 -4.0027909 -117.43039
-3.9147947 -117.53445 -4.0105448 -117.46201 -10.606604 58.364204
1135825000 -12.773252 4.1868849 -5.7819319 -140.43895 -3.9228413 -120.98398
-5.7846131 -140.43562 -12.291385 6.0664663 -4.0099831 -120.88177
-3.924484 -121.0228 -4.0148177 -120.92085 -10.604151 54.865646
1168937500 -12.822249 -0.59415215 -5.8631458 -144.33392 -3.9301143 -124.45815
-5.8661685 -144.31949 -12.340646 1.4484158 -4.0143962 -124.35813
-3.9308982 -124.50891 -4.0198326 -124.37272 -10.601052 51.37756
1202050000 -12.880623 -5.439774 -5.9469752 -148.19043 -3.9389961 -127.95913
-5.9510303 -148.19931 -12.393633 -3.1592224 -4.0245724 -127.81493
-3.9431777 -128.00751 -4.0303593 -127.83512 -10.605349 47.875698
1235162500 -12.927872 -10.172794 -6.0334244 -152.05409 -3.9496391 -131.46483
-6.0349593 -152.04431 -12.442991 -7.6966338 -4.0298662 -131.27306
-3.9514663 -131.49928 -4.0388222 -131.30162 -10.600722 44.365788
1268275000 -12.96638 -14.96286 -6.1186543 -155.91553 -3.9576321 -134.94714
-6.1210093 -155.88028 -12.493504 -12.216397 -4.0364962 -134.73837
-3.9612708 -134.98079 -4.0458398 -134.78024 -10.589073 40.840172
1301387500 -13.011771 -19.622292 -6.2052932 -159.76596 -3.9653811 -138.44513
-6.2089 -159.73811 -12.549546 -16.672688 -4.0436149 -138.18971
-3.9702008 -138.47452 -4.0535936 -138.2122 -10.58681 37.318195
1334500000 -13.060327 -24.290291 -6.29319 -163.58798 -3.9741716 -141.92783
-6.2948289 -163.54645 -12.612292 -21.191938 -4.0483203 -141.64095
-3.9827843 -141.94563 -4.0595613 -141.67447 -10.585272 33.812225
1367612500 -13.107704 -28.974743 -6.3832655 -167.4053 -3.9847684 -145.40814
-6.3811102 -167.34381 -12.670284 -25.674194 -4.054141 -145.09755
-3.992686 -145.40948 -4.0685644 -145.14139 -10.582595 30.323919
1400725000 -13.146686 -33.561417 -6.4741759 -171.23576 -3.9911387 -148.88043
-6.4720488 -171.18634 -12.728158 -30.092905 -4.0587668 -148.53479
-4.0013452 -148.873 -4.0725904 -148.58488 -10.57342 26.814556
1433837500 -13.18544 -38.233479 -6.5644526 -175.01668 -4.000236 -152.36703
-6.5623236 -174.99146 -12.780822 -34.552143 -4.0680866 -152.00529
-4.0097404 -152.37743 -4.0803308 -152.03476 -10.571198 23.298176
1466950000 -13.225579 -42.806545 -6.6543975 -178.81746 -4.0100451 -155.84532
-6.6545324 -178.79767 -12.843163 -38.929577 -4.0751963 -155.44179
-4.0212631 -155.84718 -4.0861945 -155.4868 -10.566533 19.760235
1500062500 -13.249406 -47.364407 -6.7495956 177.39955 -4.017952 -159.30199
-6.747242 177.43062 -12.900242 -43.321339 -4.0789409 -158.91524
-4.0287762 -159.29356 -4.0919895 -158.94666 -10.560281 16.191868
1533175000 -13.281326 -51.913761 -6.8421416 173.63724 -4.0253572 -162.76556
-6.8393564 173.65414 -12.950781 -47.761791 -4.0863352 -162.37126
-4.0377808 -162.74846 -4.0970354 -162.39426 -10.555789 12.602535
1566287500 -13.313173 -56.395977 -6.9399104 169.86179 -4.0352902 -166.23653
-6.9351883 169.88794 -13.005237 -52.12674 -4.092762 -165.83278
-4.0446687 -166.21553 -4.1032152 -165.8539 -10.562366 9.0806694
1599400000 -13.337133 -60.928074 -7.0360374 166.1226 -4.044014 -169.69482
-7.0296378 166.15285 -13.066537 -56.473476 -4.0989518 -169.30531
-4.053216 -169.68187 -4.1086597 -169.32951 -10.564429 5.5277333
1632512500 -13.352702 -65.373528 -7.1308818 162.39337 -4.0526476 -173.16313
-7.1259642 162.4072 -13.114594 -60.817413 -4.1044903 -172.75989
-4.0597291 -173.1633 -4.1115642 -172.77983 -10.562696 1.9580067
1665625000 -13.367023 -69.791817 -7.2240458 158.66103 -4.0587316 -176.61459
-7.2244248 158.6786 -13.172958 -65.109779 -4.1136775 -176.21404
-4.0678678 -176.62329 -4.1162119 -176.23167 -10.562228 -1.6230948
1698737500 -13.3839 -74.23027 -7.3183522 154.98793 -4.0662932 179.91605
-7.3214817 154.98238 -13.21651 -69.428535 -4.1215439 -179.6826
-4.0751109 179.90353 -4.1219764 -179.69212 -10.566979 -5.184381
1731850000 -13.397663 -78.594658 -7.4183712 151.28757 -4.0736885 176.45842
-7.41959 151.28177 -13.265543 -73.678635 -4.1253757 176.86092
-4.0834475 176.47809 -4.131319 176.86234 -10.568449 -8.755949
1764962500 -13.41285 -83.001991 -7.5194659 147.61423 -4.0790324 172.99126
-7.5161452 147.60306 -13.310349 -77.939011 -4.1296697 173.40469
-4.0900698 173.01067 -4.1385312 173.42633 -10.568501 -12.324062
1798075000 -13.424382 -87.300209 -7.6180038 143.93718 -4.0854621 169.52997
-7.6147094 143.92513 -13.353397 -82.12027 -4.1372576 169.97246
-4.0926089 169.53635 -4.1413493 169.98654 -10.571236 -15.85213
1831187500 -13.425747 -91.568932 -7.7159982 140.26297 -4.0912347 166.08369
-7.7168121 140.25893 -13.41236 -86.270042 -4.1393633 166.52328
-4.0978394 166.07277 -4.1404424 166.51604 -10.575739 -19.376076
1864300000 -13.429448 -95.812447 -7.8116155 136.60551 -4.0972857 162.62581
-7.8158669 136.62001 -13.465226 -90.46685 -4.1421256 163.0947
-4.1061091 162.61317 -4.1428852 163.08948 -10.583509 -22.968269
1897412500 -13.431868 -100.0192 -7.9119935 132.97179 -4.1062331 159.17767
-7.9180913 132.99286 -13.507318 -94.710121 -4.1450562 159.65831
-4.1125822 159.17921 -4.1424465 159.66893 -10.592969 -26.596952
1930525000 -13.437322 -104.16853 -8.0172873 129.29633 -4.1126294 155.71732
-8.02141 129.34244 -13.550019 -98.879425 -4.1482868 156.22626
-4.1177611 155.71902 -4.1446743 156.20798 -10.598414 -30.24114
1963637500 -13.434457 -108.31002 -8.1246099 125.68159 -4.1186109 152.26056
-8.1221924 125.73428 -13.592127 -103.02133 -4.1470013 152.79004
-4.122447 152.27684 -4.1457915 152.78307 -10.60403 -33.897766
1996750000 -13.431619 -112.391 -8.2320957 122.05308 -4.127018 148.79286
-8.2250051 122.12518 -13.640772 -107.17302 -4.1473656 149.33914
-4.1275668 148.81924 -4.145061 149.35049 -10.61062 -37.527081
2029862500 -13.422577 -116.4779 -8.3345318 118.44499 -4.1341558 145.34702
-8.3267136 118.56321 -13.682501 -111.33438 -4.1491699 145.89917
-4.1298137 145.35225 -4.1433778 145.88922 -10.617787 -41.208096
2062975000 -13.409396 -120.47774 -8.4376965 114.83403 -4.138617 141.91647
-8.4295301 114.95256 -13.727918 -115.45238 -4.1512942 142.44145
-4.1353679 141.92001 -4.1468863 142.41974 -10.623941 -44.909996
2096087500 -13.404592 -124.4834 -8.5387917 111.24589 -4.1442037 138.46783
-8.5361719 111.3672 -13.773999 -119.62694 -4.1498723 138.98978
-4.1450715 138.48383 -4.1470838 138.9668 -10.634385 -48.656025
2129200000 -13.393831 -128.50267 -8.6422701 107.69673 -4.1525502 135.01547
-8.6396999 107.79773 -13.804603 -123.78016 -4.1545744 135.53625
-4.1518888 135.03976 -4.1513824 135.54422 -10.640662 -52.38763
2162312500 -13.380627 -132.39357 -8.7501669 104.17038 -4.1575899 131.5667
-8.745451 104.24779 -13.832444 -127.91111 -4.1543517 132.0807
-4.1582952 131.5918 -4.1520772 132.08626 -10.645765 -56.118088
2195425000 -13.367396 -136.30969 -8.854126 100.63367 -4.1601477 128.12421
-8.8470039 100.70045 -13.869599 -131.99307 -4.154758 128.63106
-4.1619496 128.13564 -4.1572061 128.62451 -10.654103 -59.835114
2228537500 -13.358206 -140.27882 -8.9567795 97.129951 -4.1643276 124.679
-8.9486856 97.191727 -13.905236 -136.07747 -4.1561956 125.16968
-4.1688685 124.70835 -4.1607418 125.18877 -10.666325 -63.5676
2261650000 -13.349369 -144.23004 -9.0601959 93.665939 -4.1722546 121.24459
-9.0526762 93.68972 -13.936012 -140.16617 -4.1606545 121.70741
-4.1766348 121.25397 -4.1642785 121.73756 -10.679778 -67.340523
2294762500 -13.33103 -148.05351 -9.1652756 90.213829 -4.173481 117.81889
-9.1596975 90.209564 -13.95909 -144.19844 -4.1600909 118.24298
-4.1824508 117.81122 -4.1678181 118.28153 -10.701567 -71.083801
2327875000 -13.31944 -151.84389 -9.2733059 86.752563 -4.1778488 114.36349
-9.2676802 86.68969 -13.99056 -148.2146 -4.1587677 114.78661
-4.1900029 114.36884 -4.1672158 114.83037 -10.719075 -74.804588
2360987500 -13.305346 -155.67082 -9.3781185 83.305267 -4.1861453 110.91668
-9.3772678 83.271744 -14.016129 -152.2491 -4.1633534 111.351
-4.1942358 110.933 -4.1639733 111.36881 -10.738976 -78.606033
2394100000 -13.283756 -159.48958 -9.4863882 79.845245 -4.1904821 107.46333
-9.4830713 79.821556 -14.040501 -156.22476 -4.1663094 107.87808
-4.1954842 107.48455 -4.1648011 107.90305 -10.755454 -82.359833
2427212500 -13.270493 -163.25543 -9.5954475 76.411041 -4.1919203 104.00834
-9.5906391 76.40937 -14.056342 -160.23326 -4.162889 104.41281
-4.1987906 104.03582 -4.165946 104.43925 -10.779641 -86.172173
2460325000 -13.256783 -167.03752 -9.703517 72.994652 -4.1971879 100.57854
-9.6971502 72.959137 -14.073746 -164.15344 -4.1642127 100.94408
-4.2014289 100.5894 -4.1660733 100.96717 -10.801576 -89.987068
2493437500 -13.241785 -170.72595 -9.8136082 69.605553 -4.1997299 97.123413
-9.8037624 69.577431 -14.082888 -168.08046 -4.1647878 97.480583
-4.2065291 97.137276 -4.1660256 97.506119 -10.824196 -93.827713
2526550000 -13.228851 -174.38057 -9.9188919 66.196243 -4.2057467 93.688988
-9.9099474 66.17012 -14.099261 -172.03088 -4.1652851 94.030678
-4.2067299 93.690125 -4.1672354 94.037445 -10.854916 -97.70356
2559662500 -13.216798 -178.04211 -10.022639 62.755737 -4.2041011 90.245895
-10.0176 62.743656 -14.114485 -175.96092 -4.163291 90.559372
-4.2045617 90.233803 -4.1646743 90.563713 -10.879138 -101.55161
2592775000 -13.210101 178.31752 -10.130497 59.361134 -4.2080569 86.80761
-10.12482 59.352612 -14.126659 -179.88451 -4.1651692 87.122002
-4.2057695 86.792969 -4.1651583 87.097702 -10.897257 -105.49277
2625887500 -13.199429 174.6384 -10.233111 55.951923 -4.2077789 83.374092
-10.230387 55.99889 -14.133986 176.20866 -4.1680017 83.6614
-4.2087879 83.341331 -4.1683264 83.62867 -10.925581 -109.4519
2659000000 -13.187998 171.03577 -10.338997 52.597988 -4.2079482 79.931763
-10.333131 52.634663 -14.136726 172.35405 -4.1653266 80.192184
-4.2093372 79.876785 -4.1719933 80.161827 -10.952079 -113.37183
2692112500 -13.19001 167.47714 -10.437358 49.277599 -4.2142353 76.483177
-10.434431 49.289677 -14.14163 168.40268 -4.1655803 76.736389
-4.2133193 76.452148 -4.1738672 76.708572 -10.989582 -117.35112
2725225000 -13.185489 163.93259 -10.540513 45.931599 -4.2181077 73.022369
-10.537694 45.915897 -14.151801 164.57477 -4.1660199 73.273361
-4.2150092 73.001923 -4.1695476 73.258278 -11.017265 -121.30002
2758337500 -13.17501 160.32162 -10.636817 42.578579 -4.2215815 69.545578
-10.639729 42.585163 -14.163876 160.68878 -4.1702747 69.781433
-4.21769 69.562584 -4.1724129 69.798843 -11.043216 -125.27641
2791450000 -13.168656 156.77586 -10.733771 39.223488 -4.2260776 66.088486
-10.743293 39.23362 -14.17059 156.81372 -4.1731577 66.309311
-4.2197995 66.113342 -4.171124 66.324303 -11.072416 -129.25662
2824562500 -13.164324 153.23972 -10.83432 35.935902 -4.2266521 62.628319
-10.844948 35.927929 -14.168621 153.05928 -4.176836 62.828979
-4.2243371 62.644913 -4.1705093 62.845718 -11.095718 -133.13759
2857675000 -13.163292 149.81258 -10.93436 32.629406 -4.2311659 59.179504
-10.945276 32.634571 -14.169621 149.30165 -4.1783509 59.377239
-4.2304597 59.218334 -4.1718349 59.391891 -11.132854 -137.07236
2890787500 -13.155053 146.30006 -11.030701 29.318684 -4.2334137 55.731556
-11.040332 29.336687 -14.177313 145.49869 -4.1785707 55.903347
-4.2346606 55.764664 -4.1756926 55.90781 -11.171553 -141.06227
2923900000 -13.15359 142.9026 -11.13195 26.043449 -4.2375541 52.297489
-11.140445 26.022635 -14.186475 141.78712 -4.1780281 52.429028
-4.2320576 52.328373 -4.1745229 52.444901 -11.201377 -145.02318
2957012500 -13.157646 139.44568 -11.227536 22.733839 -4.2427092 48.831188
-11.235113 22.717894 -14.190407 137.99226 -4.1798687 48.957642
-4.2378006 48.871967 -4.1723552 48.987656 -11.241001 -149.05539
2990125000 -13.150647 136.04422 -11.328102 19.485523 -4.2393909 45.385658
-11.33629 19.443775 -14.188171 134.36662 -4.1793056 45.480576
-4.2382083 45.396812 -4.1721988 45.516537 -11.278635 -152.9782
3023237500 -13.154273 132.65149 -11.422517 16.240709 -4.2402468 41.96452
-11.428144 16.2045 -14.191714 130.66071 -4.1826444 42.041988
-4.2419066 41.948666 -4.176065 42.024452 -11.320131 -156.97014
3056350000 -13.161052 129.28618 -11.52072 13.005747 -4.2389188 38.531322
-11.52022 12.984498 -14.195985 126.99184 -4.181458 38.604622
-4.2425127 38.496758 -4.1782789 38.55307 -11.362508 -160.95984
3089462500 -13.16439 125.87658 -11.619906 9.8018265 -4.2393417 35.072803
-11.611012 9.7411194 -14.197114 123.34558 -4.1810694 35.130703
-4.2439957 35.036079 -4.1809521 35.095135 -11.402678 -164.91914
3122575000 -13.164931 122.52052 -11.714336 6.5452728 -4.2424293 31.622093
-11.704589 6.5296421 -14.203068 119.66519 -4.1784911 31.652193
-4.2458596 31.583229 -4.1821356 31.617414 -11.445171 -168.97159
3155687500 -13.166604 119.08932 -11.803021 3.3429542 -4.24259 28.157219
-11.796535 3.3119447 -14.210889 115.98788 -4.1781173 28.161215
