! MARKI MICROWAVE INC.
! Email:             	info@markimicrowave.com   				Phone:   408-778-4200
! Model Number:      	PBR0012SMG   					        Date:    07/19
! Filename:		PBR-0012SMG.s3p						Version: 1.0
! Description:       	3-port S-parameter data for Power Divider PBRX04479
! Frequency Range: 	300 KHz to 12 GHz		
! Port Configuration:	PORT 1: COMMON, PORT 2 and Port 3: Output


! S3P File: Measurements: Mag<S11> Ang<S11> Mag<S12> Ang<S12> Mag<S13> Ang<S13>! row 1 
!			  Mag<S21> Ang<S21> Mag<S22> Ang<S22> Mag<S23> Ang<S23>! row 2 
!			  Mag<S31> Ang<S31> Mag<S32> Ang<S32> Mag<S33> Ang<S33>! row 3 
# Hz S  dB   R 50
300000 -14.670528 145.25778 -3.5568702 -8.69244 -8.7678604 17.846382
-3.5521734 -8.6796389 -14.628804 145.11378 -14.724628 -37.478226
-8.7619143 17.843431 -14.724691 -37.495796 -14.601495 144.46634
549250 -15.744459 140.73837 -3.8618972 -8.7637672 -8.3558531 16.338301
-3.858541 -8.7546101 -15.720119 140.58443 -15.815721 -41.477318
-8.3510447 16.335129 -15.81427 -41.494972 -15.685685 140.1763
798500 -16.976431 136.0625 -4.1861415 -8.7226791 -7.9292121 14.656753
-4.1843758 -8.7206697 -16.969769 135.92529 -17.060406 -45.547932
-7.9260426 14.650076 -17.060558 -45.563896 -16.919348 135.77182
1047750 -18.340961 131.32567 -4.5232496 -8.5961275 -7.4929051 12.843292
-4.5226402 -8.6018333 -18.34543 131.21146 -18.436958 -49.658543
-7.4902925 12.836392 -18.43568 -49.674046 -18.28149 131.36047
1297000 -19.79648 126.46862 -4.8696876 -8.4071875 -7.0484948 10.944956
-4.8715281 -8.4168921 -19.839243 126.41377 -19.913637 -53.801044
-7.0460668 10.931402 -19.909111 -53.824005 -19.742693 126.89597
1546250 -21.008457 124.18674 -5.0838981 -7.7613773 -6.8349733 9.3471041
-5.085917 -7.7698526 -21.062256 124.127 -21.148653 -55.777832
-6.8327956 9.3234806 -21.144129 -55.818302 -20.946562 124.82249
1795500 -22.002106 122.95035 -5.218739 -7.1265659 -6.715754 8.1653824
-5.2209177 -7.1242995 -22.055618 123.05631 -22.168945 -56.800655
-6.7147641 8.1465549 -22.163816 -56.842773 -21.936125 123.73556
2044750 -22.836189 122.15243 -5.310205 -6.607389 -6.6383595 7.3119702
-5.3114634 -6.6072416 -22.873358 122.32053 -23.007647 -57.444786
-6.6371632 7.2873602 -23.00424 -57.490517 -22.749414 123.10403
2294000 -23.541216 121.53551 -5.3791065 -6.194603 -6.5818114 6.678236
-5.3801975 -6.1924076 -23.583248 121.66887 -23.708847 -57.90049
-6.5799646 6.656002 -23.707731 -57.951805 -23.438425 122.44711
2543250 -24.150042 120.88453 -5.4333835 -5.8717189 -6.535944 6.1767282
-5.4337311 -5.8633804 -24.203051 120.98242 -24.322464 -58.379951
-6.5324564 6.1649828 -24.318644 -58.427357 -24.037653 121.87691
2792500 -24.684004 120.02464 -5.4786577 -5.6076398 -6.4951735 5.7705402
-5.4792695 -5.5952759 -24.748295 120.35591 -24.868563 -58.991463
-6.4919534 5.7627559 -24.865686 -59.038361 -24.581205 121.28705
3041750 -25.180496 119.35678 -5.5199642 -5.38766 -6.4586453 5.4172711
-5.5181208 -5.3709831 -25.238785 119.63537 -25.369972 -59.606571
-6.4555039 5.4197216 -25.369699 -59.653767 -25.073246 120.53926
3291000 -25.638266 118.45944 -5.5553441 -5.1894388 -6.4266224 5.1130838
-5.5532141 -5.1785254 -25.70937 118.99694 -25.8323 -60.29726
-6.4223838 5.1231728 -25.829996 -60.315285 -25.534861 119.94053
3540250 -26.065704 117.69667 -5.5872421 -5.021688 -6.3983178 4.8480263
-5.5839648 -5.0103331 -26.160219 118.1786 -26.263189 -60.920795
-6.3931327 4.8524694 -26.264673 -60.959206 -25.965855 119.30173
3789500 -26.461514 116.93531 -5.6156435 -4.8667564 -6.370697 4.604228
-5.6112871 -4.8576837 -26.607187 117.43385 -26.67584 -61.57576
-6.3660054 4.6113939 -26.676851 -61.618237 -26.377279 118.5633
4038750 -26.855944 116.18145 -5.6409025 -4.7192054 -6.3475018 4.378087
-5.6364059 -4.7126904 -27.003334 116.74938 -27.077749 -62.193047
-6.3426948 4.3865347 -27.077934 -62.228466 -26.779905 118.06974
4288000 -27.24194 115.39806 -5.6640701 -4.5827861 -6.3255253 4.1670017
-5.6594286 -4.5773787 -27.400091 116.2067 -27.469498 -62.792717
-6.3211937 4.1692252 -27.466524 -62.811665 -27.167419 117.54364
4537250 -27.614702 114.86413 -5.6847234 -4.460988 -6.3064175 3.9635489
-5.6805429 -4.4542923 -27.776524 115.66183 -27.844877 -63.321163
-6.3011193 3.9694567 -27.837851 -63.309639 -27.526621 116.98817
4786500 -27.990814 114.27415 -5.7027445 -4.3394547 -6.2898402 3.7752283
-5.6990523 -4.3404555 -28.140757 115.08888 -28.207888 -63.788586
-6.283525 3.780236 -28.199356 -63.771408 -27.893236 116.50034
5035750 -28.348059 113.75481 -5.720283 -4.229785 -6.2739849 3.597944
-5.7161818 -4.22966 -28.480595 114.6347 -28.550396 -64.247688
-6.2689462 3.5999801 -28.542023 -64.214607 -28.253555 116.12548
5285000 -28.692833 113.28585 -5.7353787 -4.1269045 -6.2601428 3.4261415
-5.7320237 -4.1234183 -28.814053 114.28382 -28.886374 -64.641365
-6.2551799 3.4338644 -28.873655 -64.577225 -28.597319 115.78719
5534250 -29.049965 112.97961 -5.7498727 -4.0299139 -6.2486124 3.2675486
-5.7470002 -4.0246844 -29.127846 113.90251 -29.216211 -64.894226
-6.2433219 3.2738345 -29.213181 -64.82074 -28.911409 115.40186
5783500 -29.391737 112.59868 -5.7640619 -3.9436014 -6.2367849 3.1168189
-5.7596917 -3.9360127 -29.437408 113.6715 -29.526754 -65.26548
-6.2315559 3.1263309 -29.525005 -65.17337 -29.209358 115.0604
6032750 -29.704327 112.34479 -5.776123 -3.8576131 -6.2275844 2.9751101
-5.7712822 -3.853761 -29.748947 113.26969 -29.806393 -65.502838
-6.2217026 2.9903562 -29.808344 -65.414978 -29.538988 114.68609
6282000 -30.009026 112.15746 -5.7873869 -3.7755842 -6.2192802 2.8469825
-5.7814322 -3.7757013 -30.066008 112.88816 -30.09458 -65.722618
-6.2129364 2.8614206 -30.09794 -65.643089 -29.829041 114.43324
6531250 -30.257595 111.84728 -5.7970848 -3.7070625 -6.2119403 2.7099698
-5.7915587 -3.7040706 -30.356012 112.68867 -30.372841 -65.897163
-6.2054396 2.7317162 -30.377592 -65.805611 -30.160112 114.36761
6780500 -30.540325 111.80351 -5.805305 -3.647558 -6.2052321 2.5854681
-5.8000636 -3.6379645 -30.645163 112.4911 -30.650152 -66.067413
-6.198307 2.6090703 -30.654919 -66.004395 -30.406744 114.29823
7029750 -30.833797 111.44719 -5.8139067 -3.5769742 -6.19875 2.4716032
-5.8077121 -3.5794306 -30.90921 112.50472 -30.915823 -66.3498
-6.1917849 2.4944446 -30.917282 -66.284981 -30.677782 114.27888
7279000 -31.118893 111.20548 -5.8208609 -3.5260551 -6.1935334 2.3578959
-5.8157125 -3.5269985 -31.163731 112.26617 -31.195185 -66.495964
-6.1859097 2.3744581 -31.186508 -66.419411 -30.963428 114.28553
7528250 -31.334429 111.0769 -5.8264041 -3.4717696 -6.1882267 2.2502208
-5.8222775 -3.4740617 -31.425997 112.29327 -31.444109 -66.625603
-6.180656 2.2638714 -31.433956 -66.540588 -31.258734 114.37713
7777500 -31.615664 111.09483 -5.8322444 -3.4284964 -6.1839051 2.142544
-5.828619 -3.4272768 -31.625246 112.3326 -31.724775 -66.806633
-6.1760802 2.1556511 -31.711666 -66.754776 -31.45701 114.71935
8026750 -31.887518 110.96627 -5.8380079 -3.3891385 -6.179358 2.0434597
-5.8348422 -3.381582 -31.820719 112.26636 -31.973125 -66.848694
-6.1722307 2.0500929 -31.95796 -66.803337 -31.693535 114.76395
8276000 -32.190369 111.10727 -5.8428612 -3.347084 -6.1742377 1.9590423
-5.8401189 -3.3434005 -32.015934 112.20718 -32.220367 -66.998688
-6.1688571 1.9553379 -32.199089 -66.935387 -31.8834 114.72162
8525250 -32.42366 111.1692 -5.8481088 -3.3039234 -6.1699572 1.8651768
-5.8453846 -3.3080118 -32.218292 112.0927 -32.454144 -66.943733
-6.1644006 1.8659688 -32.435646 -66.901054 -32.131157 114.47153
8774500 -32.63131 111.49192 -5.8526402 -3.2708795 -6.167923 1.7822517
-5.8508673 -3.2741237 -32.425915 111.96237 -32.668056 -66.881653
-6.1614113 1.7752105 -32.654549 -66.856049 -32.361572 114.39768
9023750 -32.790249 111.57104 -5.8574109 -3.2333608 -6.1641407 1.7042689
-5.8540807 -3.2376609 -32.638428 111.93385 -32.852192 -66.862595
-6.1595502 1.6968524 -32.83617 -66.874222 -32.580296 114.52299
9273000 -33.02169 111.70325 -5.861259 -3.2084322 -6.1626587 1.6288433
-5.8594861 -3.2130713 -32.845516 111.88175 -33.073727 -66.760284
-6.1569591 1.6124337 -33.05204 -66.807846 -32.768158 114.49197
9522250 -33.156841 111.68983 -5.8653183 -3.1791282 -6.159472 1.5666192
-5.8632665 -3.1828918 -33.064095 111.84693 -33.243904 -66.799408
-6.1534362 1.5388397 -33.21447 -66.793152 -32.986813 114.23525
9771500 -33.345161 111.53621 -5.869071 -3.1560903 -6.1574492 1.4958806
-5.8671379 -3.1656601 -33.288975 112.11133 -33.43251 -66.814964
-6.1514297 1.4652315 -33.404099 -66.867691 -33.156006 114.50278
10020750 -33.53196 111.48177 -5.8731952 -3.1344616 -6.1561432 1.4183046
-5.8709917 -3.1451781 -33.502247 112.27528 -33.601803 -66.681297
-6.14957 1.3948764 -33.580433 -66.746559 -33.361294 114.81808
10270000 -33.7491 111.60353 -5.8763309 -3.1214693 -6.1539259 1.3585976
-5.8741107 -3.1282821 -33.679176 112.22331 -33.809917 -66.677567
-6.1477275 1.3219672 -33.783283 -66.674347 -33.509544 114.99251
10519250 -33.941772 111.27743 -5.8795919 -3.09918 -6.1508532 1.2926574
-5.8765488 -3.1086423 -33.831047 112.37011 -33.986542 -66.704941
-6.1452761 1.2668289 -33.96014 -66.709892 -33.640736 115.1815
10768500 -34.17065 111.51078 -5.8823128 -3.0836935 -6.1489763 1.2260725
-5.880434 -3.095263 -33.969353 112.45708 -34.186714 -66.825714
-6.142169 1.2066245 -34.166386 -66.833534 -33.7463 115.22927
11017750 -34.343819 111.41018 -5.8858113 -3.0650454 -6.1465282 1.162855
-5.8819628 -3.0865853 -34.137329 112.30178 -34.345406 -66.864693
-6.139946 1.1489201 -34.327103 -66.87793 -33.878487 115.18643
11267000 -34.547005 111.58353 -5.8881311 -3.0547006 -6.1448021 1.0889648
-5.8849263 -3.082422 -34.297821 112.12895 -34.531849 -66.759514
-6.1388817 1.0834655 -34.523705 -66.766815 -34.02948 115.21044
11516250 -34.655373 111.88919 -5.8911781 -3.0342798 -6.1425033 1.0307077
-5.887557 -3.0652075 -34.462585 111.95122 -34.655777 -66.630157
-6.1370382 1.0263247 -34.656414 -66.654572 -34.235668 115.13779
11765500 -34.735752 111.7952 -5.8933687 -3.0177448 -6.1398916 0.97850686
-5.8891544 -3.0486665 -34.61277 111.88966 -34.808983 -66.943405
-6.134037 0.96945697 -34.813835 -66.921806 -34.371426 115.09628
12014750 -34.86602 111.68845 -5.8958888 -3.0018284 -6.1383238 0.92049074
-5.8913326 -3.0369704 -34.781525 112.0118 -34.9422 -66.949654
-6.1317525 0.9194935 -34.945461 -67.013168 -34.520885 114.99068
12264000 -34.997368 111.64358 -5.8966961 -2.9985104 -6.1357675 0.86531246
-5.8926954 -3.0336351 -34.993755 112.10869 -35.108986 -67.103699
-6.129571 0.85386419 -35.107262 -67.161453 -34.682648 115.05631
12513250 -35.082542 111.66482 -5.8990169 -2.9940341 -6.1336832 0.81468755
-5.895288 -3.0205214 -35.189426 112.34843 -35.245682 -67.046089
-6.1291776 0.80098552 -35.23658 -67.096199 -34.889324 115.22559
12762500 -35.221489 111.51392 -5.901299 -2.9932115 -6.1319704 0.76735407
-5.897696 -3.0083148 -35.353989 112.36823 -35.396152 -67.108765
-6.1284943 0.74411863 -35.384235 -67.112946 -35.032452 115.47893
13011750 -35.34341 111.36135 -5.9029918 -2.9808879 -6.1306744 0.7214489
-5.8997331 -2.9965537 -35.510509 112.4283 -35.534317 -67.137909
-6.1277294 0.6989184 -35.520962 -67.167862 -35.175018 115.94045
13261000 -35.54916 111.47241 -5.9048905 -2.9790778 -6.1289806 0.66615385
-5.9012136 -2.9929967 -35.587006 112.55991 -35.732288 -67.525558
-6.126142 0.65087122 -35.711067 -67.427956 -35.260632 116.078
13510250 -35.770645 111.78062 -5.9067192 -2.9827528 -6.1274934 0.61456364
-5.9034357 -2.9934032 -35.71051 112.44303 -35.901642 -67.344383
-6.1248493 0.60229307 -35.871254 -67.265244 -35.374405 115.99303
13759500 -35.845711 112.03382 -5.9088116 -2.9801176 -6.1257963 0.56591481
-5.9056163 -2.9901764 -35.840828 112.19326 -36.029728 -67.345665
-6.1250944 0.55187732 -36.008427 -67.212524 -35.561405 116.13114
14008750 -36.004208 112.61618 -5.9114909 -2.977174 -6.1254411 0.51794636
-5.9084392 -2.98663 -35.933182 111.53104 -36.191032 -66.916946
-6.1245909 0.50251698 -36.178322 -66.816757 -35.676842 116.19351
14258000 -36.16185 112.64849 -5.9128351 -2.972244 -6.1251922 0.46906817
-5.90978 -2.9872358 -36.051003 111.24392 -36.31356 -66.86647
-6.1222167 0.45339307 -36.302422 -66.7407 -35.804028 116.00723
14507250 -36.312649 112.63076 -5.9130745 -2.9672956 -6.1240244 0.41586217
-5.9107246 -2.9885769 -36.155376 111.21907 -36.472103 -66.855064
-6.1206307 0.40878025 -36.470688 -66.758781 -35.952282 115.99722
14756500 -36.460117 113.02457 -5.9156199 -2.9710972 -6.1233506 0.37326613
-5.9133773 -2.9833286 -36.252254 111.2197 -36.611294 -66.647316
-6.1204662 0.3565667 -36.601933 -66.661163 -36.06229 115.78739
15005750 -36.538303 112.94842 -5.9169631 -2.9707608 -6.1230454 0.33928254
-5.9162202 -2.9797125 -36.421234 110.95335 -36.727497 -66.321976
-6.1195474 0.3103362 -36.713039 -66.416656 -36.1991 115.94643
15255000 -36.587017 113.10496 -5.9194808 -2.9635284 -6.1231303 0.29849809
-5.9184437 -2.975776 -36.536163 110.88445 -36.837658 -66.185753
-6.1200643 0.26804662 -36.825241 -66.330475 -36.379597 116.17786
15504250 -36.700691 113.10204 -5.9214792 -2.9626014 -6.1236792 0.26186305
-5.9207954 -2.9737985 -36.694401 110.97256 -36.958031 -66.105179
-6.1187272 0.22974052 -36.940926 -66.258125 -36.525551 116.20612
15753500 -36.81633 112.67151 -5.9231 -2.9607117 -6.1230083 0.22240297
-5.9223685 -2.9729211 -36.798748 111.33214 -37.075886 -66.159088
-6.1186056 0.19202548 -37.048241 -66.248329 -36.662712 116.43527
16002750 -36.91011 112.63422 -5.9254618 -2.9591272 -6.1229835 0.18604781
-5.924377 -2.9783871 -36.978317 111.4059 -37.219109 -66.049156
-6.1192527 0.15301776 -37.196022 -66.065933 -36.762833 116.68101
16252000 -36.94862 113.24752 -5.9284377 -2.9507723 -6.1236396 0.1564814
-5.9276953 -2.9659402 -37.151157 111.16396 -37.280003 -65.835114
-6.1197429 0.1236548 -37.249344 -65.814865 -36.914898 116.75222
16501250 -37.058079 113.01235 -5.9299765 -2.9469376 -6.1223593 0.12303795
-5.9286876 -2.9669852 -37.266033 111.73241 -37.41045 -65.913383
-6.1186085 0.094114609 -37.37838 -65.876862 -37.085011 116.91388
16750500 -37.170868 112.97342 -5.9323225 -2.9452987 -6.1222129 0.086797379
-5.9306917 -2.9554296 -37.377064 112.25802 -37.518646 -65.78212
-6.1188803 0.064114407 -37.487 -65.803612 -37.234997 116.72095
16999750 -37.347363 112.94267 -5.9342914 -2.943862 -6.121676 0.055726629
-5.9328456 -2.9527562 -37.530418 112.25755 -37.649345 -65.726219
-6.118793 0.035891771 -37.612549 -65.720512 -37.2948 116.81303
17249000 -37.572323 113.13375 -5.9366665 -2.9433997 -6.1203914 0.018859174
-5.9348879 -2.9547637 -37.573181 112.3486 -37.80724 -65.447075
-6.119946 -0.0020670248 -37.775505 -65.406494 -37.365089 117.13802
17498250 -37.721745 113.62727 -5.9395609 -2.9444551 -6.1207385 -0.013609488
-5.937407 -2.945374 -37.745506 112.32451 -37.913589 -65.348686
-6.1211038 -0.03389274 -37.884964 -65.31221 -37.472565 117.46196
17747500 -37.830368 113.81184 -5.941555 -2.9385741 -6.1202092 -0.039138451
-5.9394989 -2.9371164 -37.837883 112.32395 -37.982311 -65.212929
-6.121098 -0.058226004 -37.948479 -65.327049 -37.633976 117.5875
17996750 -37.926914 113.82722 -5.9435234 -2.9379499 -6.1205893 -0.081432395
-5.9418788 -2.9422097 -37.978672 112.66969 -38.100578 -64.901321
-6.1213055 -0.094488963 -38.078529 -64.997948 -37.757172 117.52291
18246000 -38.006973 113.79745 -5.9456954 -2.935565 -6.1213779 -0.11595453
-5.9435763 -2.9430914 -38.116043 112.14096 -38.188507 -64.795898
-6.1228108 -0.12859564 -38.181648 -64.773003 -37.865509 117.87643
18495250 -38.086239 114.29974 -5.9471521 -2.9355657 -6.1223774 -0.14830241
-5.9457574 -2.9478993 -38.328602 111.71016 -38.27124 -64.431786
-6.1229172 -0.1593841 -38.252983 -64.31459 -37.980774 118.02022
18744500 -38.232441 114.34003 -5.9484806 -2.9366436 -6.123888 -0.17369691
-5.9476933 -2.9449863 -38.400986 112.00514 -38.398678 -64.097343
-6.1233616 -0.19372216 -38.385075 -64.046967 -38.091427 117.79942
18993750 -38.31673 113.70728 -5.9492588 -2.9297087 -6.1239614 -0.19813438
-5.9487906 -2.9378159 -38.552265 112.21178 -38.454552 -64.212456
-6.1226249 -0.21995839 -38.439793 -64.282219 -38.232861 118.13403
19243000 -38.402477 113.8528 -5.9511452 -2.933919 -6.1244559 -0.23062059
-5.9500279 -2.9347115 -38.630939 112.254 -38.56551 -64.103958
-6.1227183 -0.25492746 -38.553963 -64.344063 -38.383652 118.0063
19492250 -38.582714 113.93163 -5.9512548 -2.9403875 -6.124228 -0.26586819
-5.9504504 -2.9506009 -38.641342 111.86228 -38.730026 -63.933365
-6.1235876 -0.29244789 -38.712818 -64.14196 -38.43787 118.89832
19741500 -38.800251 114.10136 -5.9530559 -2.9500163 -6.1223531 -0.28208825
-5.9502506 -2.9564271 -38.729862 112.07722 -38.857754 -63.951389
-6.1237426 -0.31351948 -38.829685 -64.376091 -38.487701 119.22572
19990750 -38.900993 114.31845 -5.9545741 -2.9544311 -6.1228313 -0.30423185
-5.9522491 -2.9665771 -38.953659 112.33968 -38.924923 -63.490734
-6.1221566 -0.33652896 -38.88525 -64.014053 -38.632675 118.81893
20240000 -39.172127 113.91279 -5.955955 -2.95521 -6.1211162 -0.33968365
-5.9515052 -2.9835305 -38.931313 112.61109 -39.106754 -63.746662
-6.1221657 -0.37415588 -39.090088 -64.422279 -38.676918 119.30477
20489250 -39.243382 114.20332 -5.9577208 -2.970979 -6.1207924 -0.37307185
-5.9520259 -2.9854171 -39.116508 112.4249 -39.155815 -63.394421
-6.122026 -0.40875202 -39.16613 -64.026993 -38.821331 119.94933
20738500 -39.336212 113.97954 -5.9582634 -2.9796302 -6.1217699 -0.40280727
-5.9520774 -2.9864936 -39.291027 112.4255 -39.232731 -63.415016
-6.1213303 -0.43157315 -39.25322 -64.155151 -38.888702 120.89872
20987750 -39.402592 114.1982 -5.959384 -2.9855483 -6.121829 -0.42979524
-5.9531746 -3.0031798 -39.421146 111.97407 -39.32473 -62.971313
-6.1206269 -0.44787738 -39.328522 -63.644428 -38.968876 120.70953
21237000 -39.502663 114.07169 -5.9605994 -2.9896865 -6.1210828 -0.45832321
-5.9544163 -2.9970422 -39.624939 112.25069 -39.391201 -62.887383
-6.1214609 -0.4775323 -39.420013 -63.522419 -38.979744 120.51764
21486250 -39.531357 113.67862 -5.9611888 -2.9947412 -6.1221833 -0.48666197
-5.9568706 -2.9979908 -39.777615 112.3278 -39.424839 -62.718136
-6.121953 -0.50897306 -39.487324 -63.213352 -39.156494 120.67891
21735500 -39.691212 113.93401 -5.9619231 -3.0027895 -6.1219158 -0.52569348
-5.9569407 -2.9929788 -39.77618 112.34908 -39.514889 -63.128716
-6.1219234 -0.54076666 -39.591824 -63.510513 -39.193542 121.43002
21984750 -39.7757 114.89304 -5.9641199 -3.0223458 -6.1236749 -0.5598343
-5.959651 -2.9912195 -39.876503 112.57115 -39.61647 -62.617664
-6.1231084 -0.57168704 -39.658833 -62.795517 -39.270027 121.19071
22234000 -39.909206 115.59882 -5.9635382 -3.0264447 -6.1226501 -0.5939399
-5.9604206 -3.0032318 -39.93335 112.5535 -39.781517 -62.824928
-6.1224599 -0.5948348 -39.810261 -63.073635 -39.332188 121.50229
22483250 -40.123466 116.59323 -5.9663692 -3.0427334 -6.1242161 -0.6316458
-5.9625082 -3.0168169 -39.938007 112.43713 -39.950699 -62.373535
-6.1235733 -0.62608206 -39.96117 -62.630451 -39.372383 120.849
22732500 -40.215343 117.54581 -5.9676142 -3.0531795 -6.1248102 -0.65959257
-5.9650683 -3.0291858 -39.988792 112.28043 -40.021442 -61.855362
-6.1252012 -0.66031903 -40.053856 -61.978279 -39.388447 120.43497
22981750 -40.490253 117.23143 -5.970974 -3.0652986 -6.1258998 -0.69176692
-5.9663095 -3.0268295 -39.888081 113.15629 -40.124367 -61.290882
-6.1245213 -0.68925476 -40.145344 -61.554218 -39.523346 119.95005
23231000 -40.565018 116.71365 -5.971981 -3.0695231 -6.1253667 -0.72348809
-5.9660344 -3.0398035 -40.001915 113.46629 -40.273994 -61.45927
-6.1236291 -0.71705908 -40.249943 -61.722309 -39.526684 120.75717
23480250 -40.66227 117.25001 -5.9733524 -3.0798707 -6.1254129 -0.7541306
-5.968142 -3.0596561 -40.147282 112.66023 -40.410797 -60.736603
-6.1247578 -0.75230706 -40.398186 -60.968987 -39.540188 120.81522
23729500 -40.677525 116.56442 -5.9736133 -3.0935218 -6.1237803 -0.77918392
-5.9691 -3.0771737 -40.321732 112.95947 -40.495667 -60.751671
-6.123836 -0.77400297 -40.513176 -61.019806 -39.767193 120.55906
23978750 -40.691437 116.66571 -5.975862 -3.0907559 -6.1250615 -0.81068623
-5.9698725 -3.0884147 -40.374062 112.466 -40.480053 -60.467453
-6.1238108 -0.80013335 -40.533131 -60.499275 -39.779266 120.04533
24228000 -40.694958 116.89914 -5.9755459 -3.0857785 -6.1224246 -0.83314508
