! MARKI MICROWAVE INC.
! Email:             	info@markimicrowave.com   				Phone:   408-778-4200
! Model Number:      	PBR0006SMG						Date:    02/14
! Filename:		PBR-0006SMG.S3P						Version: 1.0
! Description:       	3-port S-parameter data for Power Divider PBR0006SMG
! Frequency Range: 	10 MHz to 6 GHz		
! Port Configuration:	PORT 1: COMMON, PORT 2 and Port 3: Output


! S3P File: Measurements: Mag<S11> Ang<S11> Mag<S12> Ang<S12> Mag<S13> Ang<S13>! row 1 
!			  Mag<S21> Ang<S21> Mag<S22> Ang<S22> Mag<S23> Ang<S23>! row 2 
!			  Mag<S31> Ang<S31> Mag<S32> Ang<S32> Mag<S33> Ang<S33>! row 3 
# Hz S  dB   R 50
10000000 -13.950579 167.67609 -6.861485 -2.3592808 -8.1561346 1.0424
-6.8617935 -2.6278424 -20.166355 160.8773 -36.078384 -31.148296
-8.1503086 2.3487566 -35.948769 -29.709803 -21.224447 164.57892
22487500 -14.098054 168.88057 -6.8609929 -2.9187334 -8.1327124 0.17299519
-6.8610039 -3.1393211 -20.377617 162.77728 -36.390034 -27.518124
-8.1264839 1.1500632 -36.286655 -26.511866 -21.41877 165.95267
34975000 -14.237995 170.0531 -6.861105 -3.5993984 -8.1110802 -0.81361336
-6.8603654 -3.7690499 -20.580679 164.6012 -36.706863 -23.763893
-8.1047735 -0.15949643 -36.629444 -23.101278 -21.603167 167.21954
47462500 -14.37323 171.14479 -6.8621287 -4.4029737 -8.0916214 -1.9161223
-6.8604035 -4.5209961 -20.785719 166.31291 -36.972427 -19.889645
-8.085144 -1.57365 -36.919956 -19.555275 -21.785851 168.36964
59950000 -14.508212 172.15228 -6.863337 -5.3277082 -8.0737028 -3.1254036
-6.8603668 -5.3947587 -20.990656 167.95834 -37.200764 -16.194399
-8.0665979 -3.0913129 -37.1763 -16.183012 -21.96607 169.43137
72437500 -14.641953 173.10538 -6.8643565 -6.3705192 -8.0562143 -4.4378777
-6.860774 -6.3867416 -21.189238 169.5206 -37.444702 -12.747082
-8.0490732 -4.7086892 -37.446934 -13.091463 -22.140089 170.41783
84925000 -14.637166 173.1909 -6.8661509 -7.4597483 -8.06394 -5.6591263
-6.8632379 -7.4687657 -21.209936 169.70901 -37.493755 -10.573217
-8.0580778 -5.8695803 -37.482384 -10.830703 -22.150677 170.29135
97412500 -14.622067 172.90109 -6.8705773 -8.5490913 -8.0783834 -6.7438984
-6.8671584 -8.5499182 -21.21262 169.36331 -37.29068 -9.7102804
-8.0712786 -6.9002495 -37.268414 -9.887579 -22.144737 169.77405
109900000 -14.604115 172.46883 -6.8744946 -9.6243505 -8.0914707 -7.7357726
-6.8709478 -9.6247311 -21.200607 168.8306 -37.100079 -10.377291
-8.0834961 -7.8695607 -37.084816 -10.552693 -22.134596 169.125
122387500 -14.583713 171.91457 -6.8774848 -10.695651 -8.1027699 -8.6877222
-6.8745255 -10.694047 -21.182045 168.10066 -36.993176 -11.316675
-8.0949287 -8.7891464 -36.982239 -11.427798 -22.122353 168.32397
134875000 -14.56818 171.25374 -6.8806839 -11.772547 -8.1123924 -9.6173162
-6.8778305 -11.766104 -21.175163 167.17258 -36.878929 -12.217923
-8.1048956 -9.688446 -36.868069 -12.249847 -22.120947 167.38232
147362500 -14.559683 170.52719 -6.8839464 -12.846714 -8.1203403 -10.524217
-6.881011 -12.837555 -21.181067 166.17674 -36.74934 -13.413627
-8.1127748 -10.573614 -36.731331 -13.415147 -22.135958 166.39386
159850000 -14.556977 169.78914 -6.8862462 -13.916287 -8.1259937 -11.407416
-6.8835235 -13.907109 -21.186829 165.18335 -36.666325 -15.009644
-8.1183262 -11.44803 -36.640045 -14.995238 -22.158186 165.37753
172337500 -14.556023 169.04465 -6.8886318 -14.982283 -8.1297674 -12.282754
-6.8868008 -14.973725 -21.196169 164.13918 -36.632679 -16.624815
-8.1231499 -12.318438 -36.602253 -16.593731 -22.184319 164.31169
184825000 -14.557573 168.27605 -6.8921156 -16.05014 -8.1336031 -13.154008
-6.8896241 -16.037432 -21.218843 163.02849 -36.570412 -18.071148
-8.1268969 -13.180745 -36.534756 -18.006838 -22.219645 163.1767
197312500 -14.563296 167.48262 -6.8952727 -17.119513 -8.1358137 -14.020193
-6.8924332 -17.103292 -21.24745 161.91655 -36.518757 -19.589506
-8.128932 -14.043164 -36.480278 -19.565805 -22.257952 162.02141
209800000 -14.571323 166.68655 -6.8978839 -18.185152 -8.1367493 -14.884291
-6.8952389 -18.174982 -21.278614 160.80461 -36.485546 -21.205038
-8.1298456 -14.914826 -36.457367 -21.20063 -22.293825 160.83176
222287500 -14.581002 165.89429 -6.9003897 -19.250685 -8.1364965 -15.751236
-6.8977909 -19.238913 -21.310106 159.66826 -36.486057 -22.720827
-8.1304455 -15.785798 -36.460094 -22.79541 -22.32798 159.61902
234775000 -14.590698 165.1024 -6.9026537 -20.320063 -8.1359425 -16.622644
-6.9005647 -20.304777 -21.348133 158.47519 -36.481007 -24.112997
-8.1305561 -16.655367 -36.453274 -24.21843 -22.362597 158.40918
247262500 -14.601291 164.30145 -6.9051232 -21.384577 -8.1342382 -17.494249
-6.9025812 -21.371727 -21.392979 157.29477 -36.482166 -25.650942
-8.1291628 -17.523903 -36.444176 -25.708633 -22.401789 157.22215
259750000 -14.614941 163.50087 -6.907608 -22.447453 -8.1322365 -18.369486
-6.9044352 -22.442503 -21.439119 156.14755 -36.487438 -27.246548
-8.1267891 -18.393343 -36.457081 -27.309233 -22.445089 156.05476
272237500 -14.631824 162.70702 -6.9099078 -23.511208 -8.1292725 -19.249004
-6.9066248 -23.507715 -21.48737 154.98499 -36.509407 -28.749199
-8.1243572 -19.266836 -36.49118 -28.856293 -22.487993 154.89388
284725000 -14.650365 161.9193 -6.9125571 -24.576336 -8.1268711 -20.124119
-6.908649 -24.57085 -21.540247 153.77608 -36.518291 -30.152014
-8.1214476 -20.141539 -36.50034 -30.338047 -22.536087 153.70891
297212500 -14.668277 161.13371 -6.9143562 -25.636242 -8.1234884 -20.995127
-6.9110713 -25.635252 -21.593925 152.61888 -36.534866 -31.665779
-8.1183186 -21.018501 -36.516273 -31.894556 -22.588764 152.53477
309700000 -14.687431 160.35608 -6.9170222 -26.691824 -8.1202888 -21.867165
-6.9133763 -26.695595 -21.647858 151.45769 -36.548885 -33.232979
-8.1155291 -21.894058 -36.541538 -33.494621 -22.643314 151.33719
322187500 -14.708639 159.58673 -6.9197216 -27.752108 -8.1166277 -22.741983
-6.9156508 -27.752243 -21.700932 150.27643 -36.579193 -34.79707
-8.1122808 -22.767424 -36.568699 -35.019234 -22.695627 150.1494
334675000 -14.730565 158.8174 -6.9221787 -28.809288 -8.1134729 -23.617556
-6.9182653 -28.813393 -21.757477 149.08968 -36.598213 -36.28355
-8.108695 -23.647272 -36.58707 -36.505116 -22.742884 148.94887
347162500 -14.750091 158.05635 -6.924418 -29.86517 -8.109828 -24.492619
-6.9205093 -29.870729 -21.813112 147.94669 -36.610126 -37.851429
-8.1046019 -24.52667 -36.599552 -38.067436 -22.794048 147.75734
359650000 -14.770011 157.30003 -6.9267745 -30.920696 -8.1063385 -25.365572
-6.9233723 -30.927933 -21.866339 146.82347 -36.619781 -39.451702
-8.1009045 -25.405903 -36.620941 -39.681686 -22.833841 146.59311
372137500 -14.790385 156.55962 -6.9287529 -31.977764 -8.1025591 -26.239418
-6.9263735 -31.977465 -21.919281 145.68015 -36.650425 -40.986259
-8.0977268 -26.286978 -36.653049 -41.285561 -22.870705 145.47523
384625000 -14.808771 155.82536 -6.9312096 -33.033451 -8.0992203 -27.117521
-6.9291964 -33.03569 -21.973892 144.53796 -36.671734 -42.464653
-8.0939808 -27.172728 -36.672466 -42.714085 -22.910496 144.37575
397112500 -14.827128 155.10399 -6.9336085 -34.086803 -8.0946722 -28.001518
-6.9312305 -34.090687 -22.027716 143.47697 -36.699631 -44.059345
-8.089983 -28.052576 -36.692661 -44.226295 -22.954073 143.31245
409600000 -14.846757 154.37846 -6.9358325 -35.144058 -8.0904207 -28.890648
-6.933569 -35.143753 -22.080179 142.40057 -36.734066 -45.631031
-8.0857248 -28.937914 -36.728069 -45.821217 -22.994467 142.25105
422087500 -14.867377 153.6467 -6.9377427 -36.204571 -8.0861492 -29.78108
-6.9360738 -36.201141 -22.13249 141.34958 -36.773354 -47.152157
-8.0811138 -29.828621 -36.758911 -47.293564 -23.034626 141.22066
434575000 -14.887789 152.93105 -6.9398055 -37.258877 -8.0819874 -30.670235
-6.9386525 -37.25827 -22.188454 140.31592 -36.806885 -48.561844
-8.0770378 -30.717905 -36.785633 -48.703018 -23.079933 140.17091
447062500 -14.906469 152.22699 -6.9416437 -38.317677 -8.0775566 -31.560881
-6.9409842 -38.312801 -22.249807 139.31662 -36.833 -50.02393
-8.0731192 -31.601639 -36.805725 -50.140675 -23.126764 139.13333
459550000 -14.926415 151.53305 -6.9436116 -39.370312 -8.072485 -32.448818
-6.9425702 -39.370533 -22.312664 138.36089 -36.869587 -51.616199
-8.0687685 -32.491287 -36.850697 -51.662838 -23.164856 138.1172
472037500 -14.947678 150.84178 -6.9461079 -40.427479 -8.0676432 -33.341408
-6.9445114 -40.426804 -22.377932 137.40002 -36.924076 -53.127415
-8.0642595 -33.3867 -36.89938 -53.123272 -23.204679 137.1158
484525000 -14.967257 150.15422 -6.9481158 -41.482632 -8.0627346 -34.237499
-6.94626 -41.485928 -22.446678 136.47707 -36.961552 -54.555267
-8.059351 -34.277889 -36.936024 -54.517052 -23.239964 136.13367
497012500 -14.986125 149.48434 -6.9501729 -42.536243 -8.0582771 -35.132172
-6.9482727 -42.538063 -22.520943 135.5802 -37.000198 -56.034245
-8.0548792 -35.169285 -36.970467 -56.006844 -23.27565 135.21339
509500000 -15.002806 148.81691 -6.951663 -43.592583 -8.0536804 -36.027042
-6.9508195 -43.594784 -22.598549 134.68073 -37.046173 -57.509434
-8.0503025 -36.063095 -37.019405 -57.502201 -23.306728 134.35574
521987500 -15.019668 148.14822 -6.9533429 -44.646614 -8.0491533 -36.922596
-6.9526625 -44.65406 -22.679817 133.7818 -37.09449 -58.901237
-8.0457716 -36.958389 -37.074722 -58.806168 -23.343468 133.53403
534475000 -15.037477 147.49889 -6.9546266 -45.69849 -8.0442066 -37.81834
-6.9542112 -45.708794 -22.767525 132.8869 -37.142601 -60.267227
-8.0414333 -37.851097 -37.127987 -60.20607 -23.385656 132.73677
546962500 -15.055003 146.85527 -6.9559073 -46.754314 -8.0396948 -38.71706
-6.9554877 -46.762611 -22.857515 132.01608 -37.189995 -61.749725
-8.0367956 -38.746948 -37.17733 -61.717472 -23.434423 131.95828
559450000 -15.072784 146.20668 -6.957375 -47.806671 -8.034749 -39.618538
-6.9566522 -47.815952 -22.946926 131.12914 -37.245281 -63.222874
-8.0312262 -39.644554 -37.24242 -63.149643 -23.491514 131.16963
571937500 -15.092196 145.54462 -6.9588728 -48.864487 -8.0300484 -40.521198
-6.9587569 -48.868877 -23.042368 130.21928 -37.295399 -64.572479
-8.0269365 -40.54216 -37.286209 -64.527596 -23.55722 130.35725
584425000 -15.108631 144.89104 -6.9600029 -49.917423 -8.0258141 -41.425285
-6.9597673 -49.923222 -23.142176 129.31653 -37.330338 -65.896591
-8.0219936 -41.43951 -37.327755 -65.964729 -23.628534 129.52594
596912500 -15.126759 144.23959 -6.9614744 -50.972645 -8.0215321 -42.321503
-6.9613705 -50.980053 -23.241024 128.40863 -37.376228 -67.336807
-8.0173969 -42.344852 -37.37114 -67.405449 -23.701429 128.677
609400000 -15.142182 143.58665 -6.9628983 -52.028385 -8.0165529 -43.22179
-6.9623284 -52.032555 -23.339205 127.49825 -37.429111 -68.769363
-8.0124445 -43.244293 -37.424953 -68.865608 -23.766201 127.82166
621887500 -15.157497 142.92546 -6.9642057 -53.081516 -8.0125227 -44.121719
-6.9632936 -53.085323 -23.435503 126.5766 -37.484913 -70.153915
-8.0076313 -44.145458 -37.479866 -70.294991 -23.831039 126.93521
634375000 -15.171819 142.26782 -6.9660563 -54.136326 -8.0079079 -45.022621
-6.9650764 -54.140106 -23.534967 125.64401 -37.530563 -71.567535
-8.0030451 -45.05024 -37.523651 -71.682449 -23.894772 126.07324
646862500 -15.18479 141.61414 -6.9677815 -55.192757 -8.0031605 -45.925228
-6.9666152 -55.192318 -23.633501 124.72958 -37.581348 -73.039726
-7.9983706 -45.953957 -37.566223 -73.152222 -23.959795 125.24107
659350000 -15.196416 140.9633 -6.9691186 -56.246204 -7.9979186 -46.828541
-6.9681082 -56.243176 -23.728619 123.83326 -37.633896 -74.446388
-7.9933906 -46.859211 -37.613228 -74.592972 -24.024252 124.45129
671837500 -15.209042 140.3154 -6.9705372 -57.298923 -7.9938111 -47.730373
-6.9691429 -57.298267 -23.822874 122.96295 -37.69009 -75.803741
-7.9891152 -47.76973 -37.659241 -76.004089 -24.091562 123.66987
684325000 -15.219485 139.67223 -6.9720416 -58.354561 -7.9890218 -48.63805
-6.9701715 -58.353809 -23.919981 122.11317 -37.743694 -77.181763
-7.9837093 -48.676418 -37.712097 -77.402 -24.162968 122.87296
696812500 -15.233561 139.03246 -6.9734936 -59.411983 -7.9841218 -49.541763
-6.9720054 -59.406738 -24.016895 121.29699 -37.799229 -78.59745
-7.9798059 -49.585133 -37.76326 -78.805008 -24.237375 122.0664
709300000 -15.245273 138.39413 -6.9744921 -60.465717 -7.9793921 -50.454025
-6.9730411 -60.456833 -24.115643 120.48223 -37.855907 -79.985611
-7.9755359 -50.487579 -37.821911 -80.169579 -24.313681 121.22455
721787500 -15.258433 137.74811 -6.9754462 -61.520695 -7.9753056 -51.362209
-6.97437 -61.513374 -24.220755 119.70755 -37.909042 -81.316208
-7.9718885 -51.399143 -37.873402 -81.498383 -24.394541 120.32896
734275000 -15.270835 137.10617 -6.9766712 -62.575325 -7.9707646 -52.270947
-6.9755926 -62.568325 -24.330902 118.96634 -37.943882 -82.628723
-7.9681983 -52.309395 -37.917255 -82.751411 -24.47489 119.43092
746762500 -15.281138 136.47406 -6.977272 -63.62587 -7.9661965 -53.179039
-6.9765792 -63.62077 -24.44224 118.29038 -37.997616 -84.000977
-7.9639878 -53.21431 -37.966122 -84.188942 -24.549971 118.52853
759250000 -15.290461 135.84511 -6.9780359 -64.678062 -7.9621105 -54.087429
-6.9774747 -64.67762 -24.555935 117.61994 -38.061947 -85.415421
-7.9594855 -54.125103 -38.023491 -85.540825 -24.617878 117.63098
771737500 -15.29927 135.21391 -6.9791522 -65.72979 -7.9581108 -54.995373
-6.9786291 -65.735031 -24.68014 116.95173 -38.109623 -86.774734
-7.9559484 -55.034054 -38.088112 -86.91893 -24.679588 116.75987
784225000 -15.304914 134.589 -6.9797111 -66.78672 -7.9532704 -55.906502
-6.980104 -66.790352 -24.810125 116.28854 -38.157169 -88.164612
-7.952342 -55.940922 -38.146011 -88.233643 -24.741005 115.92968
796712500 -15.312602 133.96754 -6.9804354 -67.839455 -7.9497457 -56.814518
-6.9811735 -67.844749 -24.939894 115.64487 -38.210213 -89.590096
-7.9486709 -56.853329 -38.197109 -89.656624 -24.804848 115.15642
809200000 -15.319865 133.34845 -6.9814472 -68.89032 -7.9455123 -57.721519
-6.9822149 -68.898743 -25.072403 114.98183 -38.266453 -90.991211
-7.9446392 -57.762405 -38.261818 -91.036057 -24.871672 114.40974
821687500 -15.327837 132.7431 -6.9828048 -69.942108 -7.9414754 -58.630165
-6.983346 -69.953621 -25.211578 114.32178 -38.320328 -92.310104
-7.9408302 -58.674351 -38.320335 -92.386215 -24.945314 113.64729
834175000 -15.336635 132.14037 -6.9838123 -70.993118 -7.9373989 -59.54229
-6.9846931 -71.005638 -25.344954 113.6441 -38.382462 -93.726517
-7.9364944 -59.582043 -38.382618 -93.786499 -25.023689 112.87886
846662500 -15.345152 131.53568 -6.9846387 -72.045761 -7.9336643 -60.452496
-6.9859848 -72.059288 -25.480839 112.94701 -38.450554 -95.16674
-7.9319038 -60.491741 -38.44286 -95.22036 -25.100153 112.09553
859150000 -15.358053 130.92175 -6.9856262 -73.099831 -7.9299788 -61.362972
-6.9871435 -73.114487 -25.614981 112.23898 -38.515606 -96.598663
-7.9280529 -61.40633 -38.508179 -96.68602 -25.178696 111.26229
871637500 -15.368546 130.30936 -6.9869018 -74.151451 -7.9261098 -62.277126
-6.9880214 -74.168701 -25.753845 111.52811 -38.56739 -97.888245
-7.9242053 -62.317337 -38.577705 -98.055504 -25.25515 110.38928
884125000 -15.37924 129.69778 -6.9877996 -75.206131 -7.9222751 -63.188793
-6.9892941 -75.221107 -25.888657 110.85816 -38.626225 -99.286942
-7.9202218 -63.227364 -38.631775 -99.483978 -25.328386 109.47457
896612500 -15.390938 129.07968 -6.9889841 -76.257828 -7.9189181 -64.100616
-6.9901071 -76.27491 -26.019333 110.19788 -38.690643 -100.83386
-7.9158001 -64.137093 -38.686985 -100.99484 -25.394253 108.58726
909100000 -15.401232 128.46039 -6.9900341 -77.311852 -7.9145303 -65.010475
-6.9911604 -77.328369 -26.152079 109.53497 -38.767242 -102.26399
-7.9122229 -65.045998 -38.766354 -102.42968 -25.452332 107.72573
921587500 -15.409503 127.849 -6.9907465 -78.365051 -7.9102764 -65.924683
-6.9919629 -78.384529 -26.282148 108.89571 -38.844078 -103.66315
-7.9081573 -65.957176 -38.829048 -103.83262 -25.508404 106.86803
934075000 -15.41642 127.22722 -6.9916673 -79.422661 -7.9060721 -66.836197
-6.9930382 -79.436958 -26.411467 108.31266 -38.924789 -105.1326
-7.9043188 -66.867218 -38.898899 -105.27643 -25.561026 106.11007
946562500 -15.422524 126.60407 -6.9923859 -80.478813 -7.9013872 -67.747902
-6.9936728 -80.492874 -26.547016 107.78034 -38.984596 -106.59459
-7.9003158 -67.781319 -38.973061 -106.75948 -25.616346 105.39458
959050000 -15.431258 125.98447 -6.9931817 -81.53241 -7.8973165 -68.662788
-6.994833 -81.547012 -26.683008 107.26608 -39.06419 -107.92934
-7.8969903 -68.694946 -39.05682 -108.20786 -25.682442 104.69402
971537500 -15.436899 125.37251 -6.9940357 -82.589989 -7.8935719 -69.576752
-6.9952278 -82.5989 -26.826607 106.76232 -39.145481 -109.29387
-7.8926954 -69.607079 -39.145748 -109.55865 -25.756407 103.98448
984025000 -15.444739 124.75085 -6.9946833 -83.644974 -7.8896031 -70.487434
-6.9962058 -83.650223 -26.965361 106.30708 -39.23217 -110.77832
-7.8887029 -70.519142 -39.217808 -110.94755 -25.835186 103.26514
996512500 -15.451769 124.11736 -6.9954162 -84.70134 -7.8858008 -71.401772
-6.9964881 -84.7034 -27.104122 105.85769 -39.32209 -112.24038
-7.8844171 -71.433235 -39.29892 -112.43739 -25.916704 102.52885
1009000000 -15.459608 123.48769 -6.9961367 -85.755119 -7.8818989 -72.312538
-6.9973993 -85.755882 -27.246176 105.43449 -39.406902 -113.63872
-7.8808298 -72.348839 -39.384747 -113.89754 -25.996813 101.74136
1021487500 -15.466161 122.85472 -6.9968834 -86.809677 -7.8782306 -73.227425
-6.9979701 -86.810715 -27.394169 105.02309 -39.480446 -114.99956
-7.8765159 -73.263283 -39.458473 -115.15826 -26.075504 100.86972
1033975000 -15.470428 122.22073 -6.9973388 -87.8638 -7.8749356 -74.143929
-6.9984584 -87.861649 -27.545673 104.65146 -39.547958 -116.37219
-7.8724442 -74.177864 -39.532143 -116.51305 -26.14435 100.03493
1046462500 -15.475429 121.58929 -6.9976034 -88.916855 -7.8714933 -75.057518
-6.9991293 -88.915085 -27.69124 104.29493 -39.617935 -117.85171
-7.8682656 -75.094315 -39.600758 -117.98663 -26.206823 99.19368
1058950000 -15.482658 120.96314 -6.9987001 -89.97049 -7.8684444 -75.971344
-7.0001249 -89.969978 -27.834566 103.92908 -39.705742 -119.26534
-7.8647933 -76.006042 -39.678467 -119.40334 -26.267534 98.395638
1071437500 -15.487411 120.33372 -6.9995503 -91.026367 -7.8644156 -76.88562
-7.0003462 -91.023056 -27.97394 103.59016 -39.789745 -120.79937
-7.8603096 -76.923508 -39.759125 -120.85692 -26.326042 97.637932
1083925000 -15.494308 119.71161 -7.0001621 -92.080254 -7.8599529 -77.800163
-7.0011225 -92.078575 -28.109264 103.3187 -39.85252 -122.245
-7.8567338 -77.838097 -39.8218 -122.21911 -26.385492 96.947151
1096412500 -15.501197 119.088 -7.0008874 -93.13488 -7.8564854 -78.7164
-7.001894 -93.133324 -28.241701 103.08439 -39.924088 -123.73518
-7.8532286 -78.755562 -39.896015 -123.79217 -26.45126 96.280884
1108900000 -15.509509 118.47335 -7.0012136 -94.187927 -7.8525519 -79.633095
-7.0025201 -94.188431 -28.372663 102.90505 -40.00732 -125.1692
-7.8494482 -79.671867 -39.985275 -125.03817 -26.523384 95.595726
1121387500 -15.517969 117.8625 -7.0018444 -95.243843 -7.8484759 -80.548897
-7.0032845 -95.244926 -28.505442 102.79119 -40.084423 -126.56507
-7.8458714 -80.587532 -40.066128 -126.42734 -26.604328 94.877213
1133875000 -15.52626 117.25893 -7.0023346 -96.295746 -7.8448339 -81.464249
-7.0041227 -96.301826 -28.62682 102.78235 -40.170086 -128.08574
-7.8422656 -81.505898 -40.147049 -128.04851 -26.68445 94.204132
1146362500 -15.535759 116.64293 -7.0027342 -97.352448 -7.8411703 -82.381859
-7.0052276 -97.358109 -28.743406 102.84608 -40.269852 -129.65085
-7.8384428 -82.422943 -40.249821 -129.58395 -26.764791 93.488037
1158850000 -15.544041 116.02141 -7.0032983 -98.409622 -7.8371115 -83.301788
-7.0059104 -98.41568 -28.869133 102.97484 -40.365303 -130.99879
-7.8350525 -83.340714 -40.360592 -130.97728 -26.843866 92.736717
1171337500 -15.5507 115.39899 -7.0037241 -99.466209 -7.8332024 -84.219093
-7.0061107 -99.470253 -28.992847 103.18735 -40.454697 -132.47656
-7.8313179 -84.260956 -40.456177 -132.40283 -26.913618 91.970299
1183825000 -15.556871 114.7841 -7.0043755 -100.52082 -7.8292871 -85.13681
-7.0068159 -100.52779 -29.114456 103.52418 -40.541126 -134.00917
-7.8279266 -85.176865 -40.544853 -133.92834 -26.975372 91.245361
1196312500 -15.560181 114.16186 -7.005074 -101.57646 -7.8259621 -86.056236
