! MARKI MICROWAVE INC.
! Email:             	info@markimicrowave.com   				Phone:   408-778-4200
! Model Number:      	PBR0006							Date:    10/11
! Filename:		PBR-0006.S3P						Version: 1.0
! Description:       	3-port S-parameter data for Power Divider PBR0006
! Frequency Range: 	10 MHz to 6 GHz		
! Port Configuration:	PORT 1 and 2: Output and Port 3: Common


! S3P File: Measurements: Mag<S11> Ang<S11> Mag<S12> Ang<S12> Mag<S13> Ang<S13>! row 1 
!			  Mag<S21> Ang<S21> Mag<S22> Ang<S22> Mag<S23> Ang<S23>! row 2 
!			  Mag<S31> Ang<S31> Mag<S32> Ang<S32> Mag<S33> Ang<S33>! row 3 



# Hz S  dB   R 50
10000000 -29.651703 169.80585 -41.41843 130.29561 -6.7871881 -2.1810565
-42.042812 123.0201 -29.199894 164.51657 -6.774693 -3.4952366
-6.7867241 -2.2255552 -6.793705 -3.5547633 -20.166878 173.06812
32487500 -29.198509 172.95813 -42.451416 120.07167 -6.8415251 -3.0530889
-43.008896 114.62489 -28.817362 166.65428 -6.7730179 -4.6635103
-6.8376746 -3.1028237 -6.7845674 -4.7251539 -19.899464 174.49525
54975000 -28.748661 175.79857 -43.333771 109.81745 -6.8966441 -4.0587683
-43.755314 105.88448 -28.43042 168.28075 -6.7698054 -6.0789261
-6.8891425 -4.1198621 -6.7744427 -6.1503277 -19.624544 175.77467
77462500 -28.291681 178.66066 -44.232414 97.969475 -6.9520302 -5.2018518
-44.576744 95.567024 -28.049658 169.66096 -6.7668328 -7.7360582
-6.9420052 -5.2723112 -6.7635126 -7.8152323 -19.356689 176.91869
99950000 -27.823872 -178.71486 -45.120148 86.277611 -7.0078588 -6.485549
-45.312077 85.104919 -27.661102 170.51967 -6.7622871 -9.6371145
-6.9945335 -6.5651131 -6.752099 -9.7264042 -19.083702 177.97752
122437500 -27.368343 -176.04997 -45.941013 72.770782 -7.0646715 -7.9134951
-46.02116 73.125259 -27.27421 171.01465 -6.7568889 -11.793293
-7.0487185 -8.000742 -6.7400336 -11.88269 -18.814215 178.93251
144925000 -27.162781 -177.79608 -46.208023 59.03194 -7.0937848 -9.135397
-46.214741 59.287838 -27.039104 166.61601 -6.7495975 -13.992359
-7.0785522 -9.2559109 -6.7331882 -14.109695 -18.683889 177.34381
167412500 -27.037289 -179.00301 -46.288742 50.380474 -7.109406 -10.352718
-46.257687 51.183361 -26.909796 162.86778 -6.7433705 -16.201115
-7.0960765 -10.470292 -6.7262874 -16.312525 -18.639671 175.94374
189900000 -26.994795 179.86208 -45.979851 41.924427 -7.1184778 -11.595708
-45.996975 42.60899 -26.86545 159.07135 -6.7376513 -18.420454
-7.1056948 -11.719367 -6.720943 -18.525776 -18.630096 174.70592
212387500 -26.960091 179.05363 -45.919952 34.39743 -7.1245179 -12.864508
-45.955921 35.644905 -26.844021 155.67294 -6.7328162 -20.644678
-7.1110706 -12.99208 -6.7141728 -20.750414 -18.625139 173.68135
234875000 -26.929403 177.99234 -45.726852 29.230236 -7.1308279 -14.142647
-45.719337 29.436647 -26.80418 152.24585 -6.7275205 -22.878506
-7.1169925 -14.27004 -6.7092557 -22.977911 -18.625248 172.75473
257362500 -26.88644 177.2563 -45.586765 22.889019 -7.1363792 -15.425108
-45.602413 23.042311 -26.772396 148.90565 -6.723362 -25.107361
-7.1232266 -15.549247 -6.7057185 -25.203829 -18.627972 171.87227
279850000 -26.843184 176.37555 -45.427265 17.452896 -7.143292 -16.715931
-45.414207 17.702057 -26.735216 145.37549 -6.7191901 -27.35084
-7.1285887 -16.838982 -6.7025266 -27.441628 -18.618341 171.00491
302337500 -26.806768 175.57845 -45.313572 11.864572 -7.1507521 -18.007788
-45.302452 12.209237 -26.692501 142.02112 -6.7163935 -29.595602
-7.1350527 -18.133318 -6.7014537 -29.685335 -18.617226 170.10786
324825000 -26.751726 174.70207 -45.345402 7.2961936 -7.1570106 -19.296038
-45.304409 7.2899218 -26.64731 138.63351 -6.7140527 -31.827421
-7.1405735 -19.428255 -6.6983776 -31.930506 -18.603821 169.20828
347312500 -26.726995 173.85457 -45.273983 2.237705 -7.1650715 -20.588905
-45.186924 2.3811865 -26.611019 135.2039 -6.7132025 -34.076042
-7.1483684 -20.7174 -6.6976256 -34.174206 -18.58083 168.28377
369800000 -26.693026 172.89526 -45.284645 -1.8234507 -7.1719809 -21.871967
-45.183521 -1.9822623 -26.574135 131.67763 -6.7119288 -36.304592
-7.154027 -22.008263 -6.6954536 -36.41814 -18.549063 167.40324
392287500 -26.6672 171.93497 -45.270828 -6.5620141 -7.1787567 -23.152773
-45.132946 -6.5021944 -26.543198 128.18262 -6.7110839 -38.543056
-7.160913 -23.290728 -6.6940756 -38.66151 -18.513319 166.48767
414775000 -26.626133 170.96669 -45.29488 -10.813783 -7.186708 -24.429811
-45.111969 -11.391373 -26.484959 124.71453 -6.7112241 -40.779461
-7.1687655 -24.563498 -6.6938672 -40.902721 -18.483831 165.50273
437262500 -26.583706 170.00633 -45.200615 -16.018301 -7.1934276 -25.704081
-45.052498 -15.865119 -26.449898 121.25209 -6.7116413 -43.01759
-7.1775165 -25.840046 -6.69561 -43.148022 -18.453741 164.4949
459750000 -26.543486 169.03734 -45.261845 -19.882698 -7.1996312 -26.97966
-45.052704 -20.436687 -26.399847 117.76369 -6.7132406 -45.258381
-7.1850338 -27.120186 -6.6974692 -45.39526 -18.423164 163.498
482237500 -26.508741 168.08215 -45.313446 -23.868977 -7.2068801 -28.247789
-45.146935 -24.264597 -26.340172 114.33313 -6.7154083 -47.491669
-7.1931686 -28.394743 -6.699667 -47.635201 -18.395098 162.50938
504725000 -26.493719 167.16034 -45.273468 -28.027475 -7.2142015 -29.521437
-45.149548 -28.333216 -26.298717 110.77775 -6.7186527 -49.721817
-7.2015419 -29.667862 -6.7010751 -49.876091 -18.358656 161.52896
527212500 -26.47551 166.14734 -45.241035 -31.894846 -7.2209039 -30.789762
-45.154305 -31.934546 -26.236782 107.32144 -6.7224317 -51.962959
-7.2090054 -30.933012 -6.7046771 -52.111492 -18.327465 160.49832
549700000 -26.452028 165.21429 -45.286724 -35.77774 -7.2258987 -32.052841
-45.280926 -36.319294 -26.18762 103.95179 -6.7252984 -54.190838
-7.2137742 -32.194469 -6.7071333 -54.344185 -18.301828 159.49818
572187500 -26.431961 164.20157 -45.271729 -40.440903 -7.2334299 -33.322708
-45.294773 -40.88567 -26.141403 100.51817 -6.7279849 -56.424187
-7.2193332 -33.455524 -6.7114449 -56.564636 -18.278692 158.46327
594675000 -26.39938 163.22543 -45.40979 -44.088509 -7.2402287 -34.597904
-45.332493 -44.524754 -26.093407 97.138329 -6.7326212 -58.660973
-7.226541 -34.716167 -6.7158537 -58.790478 -18.254076 157.3875
617162500 -26.377438 162.35606 -45.477608 -47.518742 -7.2452374 -35.864662
-45.461056 -47.206547 -26.054964 93.703186 -6.7363038 -60.888741
-7.23352 -35.988461 -6.7217188 -61.015495 -18.22784 156.35442
639650000 -26.361502 161.60139 -45.679066 -50.407719 -7.2502117 -37.117947
-45.553017 -50.531284 -26.014444 90.1437 -6.7404118 -63.107193
-7.2384825 -37.259537 -6.7255769 -63.24334 -18.196863 155.32756
662137500 -26.370998 160.73349 -45.794193 -53.670841 -7.2563982 -38.388065
-45.727165 -53.372776 -25.990219 86.68119 -6.7439699 -65.332169
-7.244751 -38.529552 -6.7298369 -65.473763 -18.167074 154.20972
684625000 -26.382721 159.75575 -45.971451 -56.476398 -7.2605395 -39.653137
-45.936543 -56.886299 -25.959063 83.266121 -6.7481165 -67.550682
-7.2501383 -39.795238 -6.73458 -67.697502 -18.138969 153.12679
707112500 -26.366871 158.83943 -46.134018 -60.039932 -7.2636166 -40.911907
-46.175095 -60.234783 -25.912745 79.935112 -6.7520385 -69.773987
-7.2534757 -41.053135 -6.7388506 -69.908279 -18.115231 152.02997
729600000 -26.355278 157.92986 -46.277386 -63.082767 -7.2683148 -42.174755
-46.419231 -63.511814 -25.884615 76.508591 -6.756393 -71.985344
-7.2575159 -42.31522 -6.7453432 -72.130501 -18.093697 150.98082
752087500 -26.325731 157.02135 -46.537823 -66.365974 -7.2738266 -43.441227
-46.552677 -66.362915 -25.85092 73.074974 -6.7603526 -74.206856
-7.2636366 -43.572811 -6.7495213 -74.342056 -18.069286 149.894
774575000 -26.294756 156.31142 -46.834381 -69.087631 -7.2769256 -44.702438
-46.820175 -68.767563 -25.812202 69.703484 -6.765801 -76.428658
-7.2667718 -44.828762 -6.7542295 -76.561424 -18.04866 148.81612
797062500 -26.295826 155.52864 -47.061085 -71.974861 -7.2807984 -45.960327
-47.046669 -71.777077 -25.774057 66.354568 -6.7707567 -78.638199
-7.2701578 -46.082619 -6.7592206 -78.768654 -18.032995 147.74118
819550000 -26.303465 154.62659 -47.312706 -75.241158 -7.2837858 -47.211544
-47.359524 -75.254639 -25.732313 63.012928 -6.7759895 -80.848366
-7.2726073 -47.335648 -6.763391 -80.984032 -18.016544 146.64673
842037500 -26.323668 153.64401 -47.443626 -78.106644 -7.2867851 -48.483643
-47.553841 -78.228806 -25.700804 59.732635 -6.7815027 -83.050621
-7.275331 -48.589489 -6.7694664 -83.197487 -18.001101 145.54713
864525000 -26.302601 152.63815 -47.713074 -80.579544 -7.2896934 -49.748234
-47.78233 -80.908226 -25.656452 56.464855 -6.7874517 -85.265785
-7.278007 -49.846645 -6.7733464 -85.39077 -17.986197 144.50595
887012500 -26.285658 151.79118 -47.910172 -83.534767 -7.2926812 -51.009827
-47.902401 -82.702446 -25.626524 53.164139 -6.7937493 -87.469467
-7.2788253 -51.099274 -6.7772126 -87.595238 -17.975714 143.41246
909500000 -26.277355 150.96471 -48.18763 -85.589058 -7.2948794 -52.270969
-48.13504 -84.584602 -25.604263 49.92057 -6.799108 -89.669243
-7.2817817 -52.371906 -6.7822423 -89.803726 -17.960127 142.35121
931987500 -26.273207 150.17387 -48.550945 -87.198746 -7.2981801 -53.539585
-48.413746 -85.647797 -25.571581 46.717136 -6.8049598 -91.877655
-7.2841535 -53.639141 -6.786479 -92.004539 -17.948713 141.2612
954475000 -26.304405 149.37817 -48.804062 -88.558502 -7.2984004 -54.79467
-48.754425 -87.493828 -25.539032 43.524754 -6.8104744 -94.071693
-7.2852731 -54.911602 -6.7918839 -94.214554 -17.933859 140.21025
976962500 -26.314741 148.43918 -48.958408 -89.341263 -7.3001237 -56.060188
-49.039654 -88.533379 -25.511129 40.370617 -6.8156686 -96.269608
-7.2880321 -56.190269 -6.7972078 -96.418999 -17.917089 139.12581
999450000 -26.313499 147.47528 -49.217979 -89.629288 -7.301496 -57.323654
-49.323891 -89.201195 -25.478933 37.14328 -6.8202281 -98.459724
-7.2885346 -57.475819 -6.8016129 -98.633926 -17.905659 138.07919
1021937500 -26.296724 146.64946 -49.503414 -90.311378 -7.304389 -58.603722
-49.573765 -89.503212 -25.447769 34.000057 -6.8251901 -100.65393
-7.2904854 -58.748165 -6.8066115 -100.82994 -17.896652 137.01257
1044425000 -26.26922 145.88251 -49.739792 -90.765053 -7.3063836 -59.878418
-49.815266 -90.163094 -25.404057 30.923084 -6.8293967 -102.85549
-7.2924438 -60.020672 -6.8101678 -103.01876 -17.886728 135.99715
1066912500 -26.261955 145.19156 -50.082245 -91.903008 -7.3069448 -61.152153
-50.063828 -89.712059 -25.35848 27.814892 -6.8335085 -105.0401
-7.2942219 -61.289131 -6.8148599 -105.21499 -17.875513 134.94649
1089400000 -26.252712 144.44997 -50.308052 -91.800606 -7.3069077 -62.43829
-50.283146 -89.814491 -25.316185 24.744438 -6.8358712 -107.24191
-7.2967043 -62.572285 -6.8198409 -107.40588 -17.858557 133.91635
1111887500 -26.246029 143.70293 -50.606236 -92.278915 -7.3086462 -63.717995
-50.522053 -90.430511 -25.26182 21.7603 -6.8394389 -109.43521
-7.2986803 -63.847412 -6.8238883 -109.60349 -17.846964 132.89142
1134375000 -26.230192 142.84286 -50.686985 -92.468697 -7.309 -65.004723
-50.51199 -90.194214 -25.217579 18.754124 -6.8427706 -111.62909
-7.3002725 -65.124794 -6.8274078 -111.79664 -17.826317 131.89047
1156862500 -26.187187 142.01016 -50.81451 -91.166512 -7.3109293 -66.297226
-50.591747 -89.066849 -25.165831 15.727255 -6.8459439 -113.82416
-7.3019242 -66.406464 -6.8323956 -113.98922 -17.817915 130.86612
1179350000 -26.157051 141.17064 -50.832317 -89.909492 -7.3126402 -67.586891
-50.589005 -88.06675 -25.114466 12.722483 -6.8502989 -116.01187
-7.3037372 -67.69455 -6.8362918 -116.18311 -17.811346 129.87277
1201837500 -26.114695 140.51346 -50.781105 -89.768471 -7.3148007 -68.88353
-50.691597 -87.354668 -25.066715 9.8101282 -6.8552327 -118.20837
-7.3059492 -68.972954 -6.8399272 -118.35889 -17.798286 128.85416
1224325000 -26.08247 139.76697 -50.748882 -88.663086 -7.3162107 -70.171844
-50.603863 -86.377151 -25.013365 6.8560557 -6.8594093 -120.40184
-7.3083081 -70.265503 -6.8442559 -120.55109 -17.778023 127.8343
1246812500 -26.056824 139.05925 -50.716942 -87.954468 -7.3190408 -71.455101
-50.608467 -85.199402 -24.962027 3.8907499 -6.8644519 -122.58638
-7.3101215 -71.566978 -6.8482347 -122.74742 -17.757584 126.80807
1269300000 -26.0263 138.2912 -50.420319 -86.725571 -7.3233881 -72.744438
-50.485249 -84.987961 -24.907846 0.99403 -6.8688731 -124.76871
-7.3117237 -72.871758 -6.8518653 -124.943 -17.736589 125.82612
1291787500 -25.977264 137.50531 -50.280582 -85.894974 -7.3276596 -74.028572
-50.319618 -84.888672 -24.845451 -1.8581624 -6.8732319 -126.94706
-7.3155403 -74.176865 -6.8552618 -127.14124 -17.718025 124.85083
1314275000 -25.919621 136.7084 -50.046997 -84.314903 -7.3321943 -75.317924
-50.13171 -83.894547 -24.787096 -4.7843518 -6.8773842 -129.12291
-7.3186736 -75.468086 -6.8586926 -129.32787 -17.697733 123.88037
1336762500 -25.877447 136.04633 -49.759739 -83.300995 -7.3372374 -76.60199
-49.954838 -84.545769 -24.729822 -7.6268506 -6.8812423 -131.29639
-7.3226094 -76.769356 -6.8620763 -131.5166 -17.680735 122.88419
1359250000 -25.836269 135.37512 -49.339371 -84.100334 -7.3415332 -77.887024
-49.610725 -84.801476 -24.676525 -10.413611 -6.8845391 -133.46899
-7.3278494 -78.066055 -6.866117 -133.71036 -17.653366 121.90754
1381737500 -25.800171 134.70879 -49.081432 -85.113594 -7.3469243 -79.186111
-49.376137 -85.931915 -24.613243 -13.25172 -6.887609 -135.65849
-7.3327603 -79.351784 -6.8690252 -135.9028 -17.623043 120.87553
1404225000 -25.75259 133.93314 -48.787586 -85.300285 -7.3512325 -80.469467
-48.990955 -86.337326 -24.535013 -16.088032 -6.8886127 -137.82857
-7.3399391 -80.652138 -6.872509 -138.10234 -17.589037 119.9046
1426712500 -25.703859 133.13976 -48.375183 -86.104561 -7.3564453 -81.759377
-48.587379 -87.662979 -24.45768 -18.919371 -6.8900452 -140.00874
-7.345551 -81.944061 -6.8742499 -140.29427 -17.557871 118.94437
1449200000 -25.634378 132.32945 -48.032337 -87.380402 -7.3630147 -83.053764
-48.221962 -88.958488 -24.374214 -21.639467 -6.8924909 -142.20354
-7.3516645 -83.237648 -6.8755941 -142.4772 -17.527912 117.93193
1471687500 -25.566925 131.49377 -47.690945 -88.895546 -7.3683152 -84.349304
-47.785927 -90.437019 -24.300125 -24.454588 -6.8935809 -144.3963
-7.3577619 -84.523132 -6.8783293 -144.65881 -17.499411 116.91388
1494175000 -25.508734 130.65988 -47.261112 -90.191757 -7.3747602 -85.650467
-47.420689 -91.863579 -24.219505 -27.258801 -6.8952627 -146.57625
-7.3647223 -85.804138 -6.8820825 -146.84239 -17.462635 115.88614
1516662500 -25.444685 129.72755 -46.852337 -91.812576 -7.381423 -86.948036
-47.055851 -93.36953 -24.131308 -30.044781 -6.8969545 -148.77086
-7.3720131 -87.099518 -6.8845501 -149.02835 -17.423744 114.80541
1539150000 -25.374695 128.85117 -46.49538 -94.490486 -7.387826 -88.233902
-46.711887 -94.61174 -24.039371 -32.833172 -6.8975921 -150.96027
-7.3812084 -88.377594 -6.8868093 -151.21364 -17.386562 113.74807
1561637500 -25.305099 127.86008 -46.273838 -96.400894 -7.3959861 -89.523026
-46.398518 -96.67691 -23.948954 -35.6525 -6.8999209 -153.15216
-7.3881545 -89.66713 -6.8871417 -153.38954 -17.348267 112.68057
1584125000 -25.233624 126.86757 -46.017178 -98.423599 -7.4030752 -90.805595
-45.989056 -98.515129 -23.846924 -38.405151 -6.9008942 -155.33517
-7.397018 -90.953033 -6.8888812 -155.569 -17.308611 111.65321
1606612500 -25.1672 125.87957 -45.663418 -100.96645 -7.4113841 -92.08329
-45.660976 -101.05879 -23.757965 -41.175056 -6.9027205 -157.52985
-7.405107 -92.230156 -6.8903489 -157.75877 -17.272366 110.53875
1629100000 -25.090944 124.83313 -45.433437 -103.39756 -7.4196668 -93.367538
-45.390648 -103.09534 -23.675117 -43.941616 -6.9041896 -159.71941
-7.4138613 -93.505943 -6.8926201 -159.94337 -17.23588 109.42445
1651587500 -25.027754 123.73997 -45.18224 -105.40789 -7.4274817 -94.646126
-45.108143 -105.11534 -23.588974 -46.7439 -6.9038682 -161.89653
-7.4224129 -94.772682 -6.895268 -162.13364 -17.194017 108.34869
1674075000 -24.971733 122.61027 -44.844955 -107.78203 -7.4360304 -95.907669
-44.829048 -107.46903 -23.4991 -49.508366 -6.9052882 -164.0755
-7.4323006 -96.04509 -6.8969369 -164.32697 -17.154039 107.20258
1696562500 -24.914015 121.52173 -44.621964 -111.16062 -7.4446778 -97.161674
-44.628525 -110.68333 -23.410286 -52.314651 -6.9052835 -166.26587
-7.4408836 -97.308975 -6.8972621 -166.50838 -17.116879 106.06355
1719050000 -24.867851 120.43129 -44.337788 -114.10683 -7.4540696 -98.421036
-44.329533 -113.52629 -23.334211 -55.174728 -6.9072351 -168.45465
-7.449996 -98.565392 -6.8968582 -168.69551 -17.082863 104.92297
1741537500 -24.811604 119.18304 -44.138668 -116.69791 -7.4636121 -99.680649
-44.090321 -116.63599 -23.253918 -58.086636 -6.908967 -170.6355
-7.4587188 -99.838943 -6.8971868 -170.89137 -17.042889 103.75101
1764025000 -24.753809 117.94319 -43.902836 -119.85619 -7.4731383 -100.94534
-43.889427 -119.40989 -23.157122 -60.968338 -6.909451 -172.82515
-7.4688768 -101.10235 -6.8970499 -173.08766 -17.005423 102.54379
1786512500 -24.693611 116.77909 -43.727417 -123.23801 -7.4825354 -102.19882
-43.707409 -122.57408 -23.077757 -63.881901 -6.9097795 -175.00891
-7.4772635 -102.36774 -6.8967109 -175.2706 -16.971098 101.34194
1809000000 -24.648558 115.64375 -43.543953 -126.28709 -7.49157 -103.44978
-43.512493 -125.89355 -22.995508 -66.812592 -6.9079194 -177.19142
-7.4859953 -103.62217 -6.8966231 -177.45975 -16.932487 100.14747
1831487500 -24.616959 114.40385 -43.334396 -129.2888 -7.5012231 -104.69466
-43.382645 -129.1895 -22.912802 -69.730751 -6.9085093 -179.38731
-7.4948692 -104.87739 -6.8956966 -179.64775 -16.89464 98.910362
1853975000 -24.577982 113.16053 -43.123684 -132.78993 -7.5106807 -105.93892
-43.198307 -132.66147 -22.836561 -72.70681 -6.9088492 178.42639
-7.5039272 -106.13126 -6.8950896 178.15642 -16.865629 97.646782
1876462500 -24.532293 111.95553 -43.02103 -135.58057 -7.5206633 -107.19482
-43.114086 -136.14876 -22.75518 -75.710678 -6.9092016 176.23166
-7.5120482 -107.37595 -6.8946261 175.95966 -16.831749 96.438545
1898950000 -24.485712 110.72059 -42.897408 -138.31158 -7.5301557 -108.44928
-42.931278 -138.84 -22.68169 -78.680618 -6.9107847 174.03003
-7.5215397 -108.62453 -6.8936434 173.76535 -16.798468 95.185036
1921437500 -24.454033 109.52309 -42.780033 -141.60092 -7.5376081 -109.69596
-42.800171 -141.88951 -22.613129 -81.676811 -6.9093361 171.83147
-7.5306311 -109.87035 -6.8956647 171.57045 -16.772528 93.89106
1943925000 -24.428837 108.24864 -42.694885 -144.78911 -7.5457082 -110.94579
-42.656197 -144.94113 -22.550148 -84.666542 -6.9082236 169.62619
-7.5380573 -111.10156 -6.8951721 169.37393 -16.747881 92.633728
1966412500 -24.406645 106.99474 -42.522766 -147.89499 -7.5540519 -112.17162
-42.522945 -148.3278 -22.505413 -87.680237 -6.9080486 167.43742
-7.5455503 -112.33434 -6.8958983 167.17041 -16.720839 91.388489
1988900000 -24.388315 105.64055 -42.3685 -151.0051 -7.5618076 -113.39731
-42.432285 -151.43547 -22.460041 -90.662262 -6.9080377 165.2397
-7.5529881 -113.56628 -6.8956671 164.95921 -16.695066 90.116043
2011387500 -24.359093 104.19575 -42.329506 -154.04504 -7.5683494 -114.63634
-42.335934 -154.19395 -22.421524 -93.65741 -6.9088902 163.04243
-7.5601768 -114.80676 -6.8956089 162.75978 -16.675009 88.857407
2033875000 -24.33271 102.91277 -42.257046 -157.12907 -7.5754104 -115.86327
-42.203857 -156.91562 -22.386337 -96.687134 -6.9090824 160.84962
-7.5665426 -116.0388 -6.8962007 160.54236 -16.658043 87.601944
2056362500 -24.324453 101.59029 -42.166111 -159.83356 -7.5816278 -117.08969
-42.107037 -159.7317 -22.357607 -99.769913 -6.9095016 158.64574
-7.5730572 -117.27084 -6.895534 158.33652 -16.636974 86.281509
2078850000 -24.30932 100.24748 -42.117836 -163.41068 -7.5859361 -118.30091
-42.010815 -162.80309 -22.335421 -102.77329 -6.9082704 156.45375
-7.5798817 -118.50597 -6.8959708 156.13802 -16.618835 84.980431
2101337500 -24.302465 98.886909 -42.062031 -166.45857 -7.5913267 -119.51508
-41.949532 -166.05118 -22.31638 -105.86034 -6.9072533 154.2666
-7.5845804 -119.73655 -6.8964672 153.92863 -16.601095 83.690926
2123825000 -24.290936 97.502502 -42.038811 -169.57327 -7.5957355 -120.7294
-41.890221 -169.53496 -22.298761 -108.90403 -6.9061527 152.07024
-7.5897875 -120.96091 -6.8951416 151.72478 -16.5798 82.465393
