! MARKI MICROWAVE INC.
! Email:             	info@markimicrowave.com   				Phone:   408-778-4200
! Model Number:      	PBR0003							Date:    10/11
! Filename:		PBR-0003.S3P						Version: 1.0
! Description:       	3-port S-parameter data for Power Divider PBR0003
! Frequency Range: 	10 MHz to 3 GHz		
! Port Configuration:	PORT 1 and 2: Output and Port 3: Common


! S3P File: Measurements: Mag<S11> Ang<S11> Mag<S12> Ang<S12> Mag<S13> Ang<S13>! row 1 
!			  Mag<S21> Ang<S21> Mag<S22> Ang<S22> Mag<S23> Ang<S23>! row 2 
!			  Mag<S31> Ang<S31> Mag<S32> Ang<S32> Mag<S33> Ang<S33>! row 3 



# Hz S  dB   R 50
10000000 -29.489454 169.66533 -43.479267 152.37857 -6.7870493 -2.1778121
-42.880348 150.03951 -29.673832 169.70721 -6.7845578 -3.7504447
-6.7945142 -2.1193392 -6.8026857 -3.6337059 -20.493076 175.68059
32487500 -29.166069 171.83318 -44.703766 153.0175 -6.8358164 -3.0173085
-44.219246 149.64731 -29.301418 170.04611 -6.7922611 -4.9648228
-6.839376 -2.965981 -6.8052473 -4.8722024 -20.163057 176.39438
54975000 -28.851639 173.71764 -45.74419 151.8053 -6.8848934 -3.9903309
-45.375481 148.61983 -28.936647 169.91766 -6.8011436 -6.4270434
-6.8842664 -3.9483659 -6.8083863 -6.3615532 -19.832518 176.9447
77462500 -28.539118 175.50186 -46.941422 151.16377 -6.9337635 -5.1007314
-46.669518 148.19707 -28.587284 169.50072 -6.8105054 -8.1279402
-6.9296327 -5.061377 -6.8118367 -8.0874958 -19.505041 177.32547
99950000 -28.227573 177.10069 -47.971333 149.91322 -6.9834285 -6.3535733
-47.850929 146.60669 -28.238001 168.61095 -6.820056 -10.075453
-6.9750581 -6.3259382 -6.8156099 -10.055346 -19.177015 177.61789
122437500 -27.925522 178.59695 -49.09193 148.10719 -7.0327024 -7.7476563
-49.04842 145.37965 -27.893864 167.39204 -6.8300285 -12.2743
-7.0207353 -7.7283196 -6.8211455 -12.269567 -18.849174 177.78362
144925000 -27.798182 176.57524 -49.570507 143.69214 -7.0573635 -8.9681234
-49.521885 140.96541 -27.754341 163.01083 -6.8373547 -14.475334
-7.0446715 -8.9604931 -6.8290763 -14.486075 -18.733196 176.07037
167412500 -27.738722 174.96715 -49.552082 143.83321 -7.0673466 -10.187471
-49.631107 140.3159 -27.711519 159.28316 -6.8430352 -16.674809
-7.0559711 -10.16918 -6.8362908 -16.667187 -18.694098 174.52341
189900000 -27.750847 173.49579 -49.356785 139.8228 -7.0705457 -11.42421
-49.475838 137.50305 -27.738708 155.58821 -6.8470097 -18.865871
-7.062623 -11.409272 -6.8418379 -18.853952 -18.691727 173.15746
212387500 -27.77927 172.4496 -49.301086 138.00114 -7.0736494 -12.69161
-49.389256 136.29617 -27.761559 152.32684 -6.8520293 -21.068932
-7.0652037 -12.675391 -6.8439827 -21.042814 -18.687696 171.96953
234875000 -27.787935 171.24358 -49.017986 133.53719 -7.077548 -13.969298
-49.009182 132.62239 -27.775562 149.04991 -6.8558359 -23.262104
-7.0683188 -13.951937 -6.8486943 -23.231182 -18.692982 170.8909
257362500 -27.781183 170.27818 -48.934212 130.16402 -7.0808678 -15.257755
-48.839134 129.29449 -27.79479 145.87991 -6.8587112 -25.452759
-7.0727525 -15.242095 -6.851583 -25.42301 -18.695744 169.82512
279850000 -27.768911 169.29692 -48.592022 125.56667 -7.0852714 -16.552816
-48.525204 125.31721 -27.79381 142.62349 -6.8612928 -27.65019
-7.0775456 -16.542759 -6.855556 -27.611601 -18.688128 168.80621
302337500 -27.748034 168.32462 -48.420933 120.83891 -7.0898409 -17.839087
-48.269432 121.32645 -27.784594 139.43767 -6.8637729 -29.839964
-7.0828886 -17.823902 -6.8602939 -29.803312 -18.685087 167.77211
324825000 -27.708452 167.4025 -48.20079 115.88341 -7.0953703 -19.127975
-48.039082 116.83745 -27.764933 136.34026 -6.86625 -32.015789
-7.0875039 -19.112843 -6.8613605 -31.984205 -18.67337 166.71844
347312500 -27.696051 166.35437 -48.063137 110.21716 -7.1012979 -20.415689
-47.991253 111.14169 -27.740845 133.1275 -6.8684449 -34.21101
-7.0933766 -20.398211 -6.8636341 -34.175114 -18.654259 165.62691
369800000 -27.681725 165.30072 -47.911602 105.52622 -7.1081882 -21.691832
-47.7784 106.82899 -27.702908 129.83937 -6.87114 -36.388191
-7.0985322 -21.679119 -6.8647151 -36.368782 -18.625036 164.54811
392287500 -27.662491 164.12817 -47.94931 100.33691 -7.116015 -22.966633
-47.656544 101.39848 -27.654457 126.56667 -6.8738132 -38.56295
-7.104157 -22.963623 -6.86483 -38.564884 -18.592077 163.41043
414775000 -27.610039 162.94241 -47.901184 95.674438 -7.1235433 -24.242111
-47.632786 95.913124 -27.621508 123.35452 -6.8732677 -40.728512
-7.1106796 -24.240442 -6.8661966 -40.757729 -18.564125 162.27344
437262500 -27.564995 161.76285 -47.937172 90.079918 -7.1303778 -25.509108
-47.706741 91.012329 -27.58382 120.12698 -6.8757057 -42.908367
-7.1196966 -25.510281 -6.8675733 -42.952271 -18.537237 161.08983
459750000 -27.513067 160.57225 -47.878841 85.193413 -7.137382 -26.776024
-47.73201 86.329735 -27.519306 116.86693 -6.8767552 -45.088562
-7.1269693 -26.776625 -6.8703742 -45.12981 -18.506521 159.9225
482237500 -27.458475 159.41751 -47.911098 80.195435 -7.1458783 -28.034113
-47.6987 81.275772 -27.445633 113.63046 -6.879086 -47.269585
-7.1338615 -28.036951 -6.8702469 -47.322166 -18.483929 158.75351
504725000 -27.432621 158.25587 -47.951969 74.353806 -7.1532807 -29.296526
-47.716591 75.842354 -27.381937 110.37621 -6.8804603 -49.446758
-7.1410985 -29.300285 -6.8710551 -49.51561 -18.451298 157.54295
527212500 -27.398701 156.96957 -47.930153 69.780457 -7.1590009 -30.560585
-47.683937 70.966782 -27.313984 107.08118 -6.8804216 -51.637722
-7.1482363 -30.559647 -6.8724489 -51.707855 -18.426012 156.33206
549700000 -27.354528 155.77051 -48.009075 65.456367 -7.1657667 -31.814342
-47.740734 66.21051 -27.251503 103.88139 -6.8828931 -53.821342
-7.1537943 -31.816387 -6.8706393 -53.889671 -18.407675 155.14197
572187500 -27.305616 154.52521 -48.186127 59.69759 -7.1724372 -33.064091
-47.896717 60.865456 -27.19767 100.60737 -6.8821416 -55.999928
-7.1604905 -33.06588 -6.8717709 -56.07346 -18.392054 153.91075
594675000 -27.257357 153.25945 -48.106289 54.95026 -7.1782255 -34.319038
-47.864708 56.094772 -27.148745 97.385063 -6.8820462 -58.195766
-7.1672912 -34.315868 -6.87286 -58.255627 -18.376282 152.70227
617162500 -27.216885 152.06416 -48.052113 50.44725 -7.1832471 -35.569023
-47.832428 51.016727 -27.098417 94.082527 -6.8830853 -60.394787
-7.1740637 -35.565651 -6.8744159 -60.448254 -18.365398 151.46346
639650000 -27.183775 150.91248 -48.024708 45.928688 -7.1863689 -36.816639
-47.755638 46.264053 -27.060436 90.731079 -6.8808126 -62.582031
-7.1773372 -36.817677 -6.8742709 -62.633327 -18.34721 150.2366
662137500 -27.178988 149.63326 -48.001446 40.958172 -7.1909256 -38.064476
-47.682423 40.93676 -27.038431 87.380714 -6.8801203 -64.779686
-7.1823692 -38.062935 -6.8740273 -64.828568 -18.331087 148.97447
684625000 -27.170603 148.18059 -48.027653 36.776066 -7.1931396 -39.309513
-47.722378 36.050167 -27.019283 84.094261 -6.8787684 -66.965569
-7.1868963 -39.311401 -6.8735447 -67.021049 -18.318399 147.71753
707112500 -27.129484 146.86365 -48.128738 32.908741 -7.1952147 -40.552357
-47.928391 32.293541 -26.993652 80.878716 -6.8770843 -69.162773
-7.1896811 -40.552647 -6.8716316 -69.203209 -18.309156 146.49059
729600000 -27.097063 145.60585 -48.214169 28.577089 -7.1984696 -41.786659
-48.018784 27.302378 -26.973082 77.564964 -6.8764701 -71.349007
-7.1930742 -41.789768 -6.8717756 -71.394035 -18.305817 145.25728
752087500 -27.048056 144.28456 -48.248554 24.079172 -7.2008872 -43.037403
-47.971481 23.393776 -26.960144 74.252373 -6.8743095 -73.553391
-7.195694 -43.02932 -6.8704123 -73.58651 -18.300983 144.01961
774575000 -27.010351 143.14317 -48.275848 20.122046 -7.201333 -44.278202
-48.004963 19.408682 -26.943464 71.033096 -6.8735318 -75.75631
-7.1964245 -44.264328 -6.868269 -75.776115 -18.298834 142.79337
797062500 -26.992254 141.98912 -48.431362 16.006754 -7.2014427 -45.514114
-48.231522 14.909738 -26.933805 67.750023 -6.8728123 -77.942932
-7.197361 -45.497353 -6.8677683 -77.972946 -18.299631 141.55589
819550000 -26.984425 140.67369 -48.530083 11.802356 -7.2020698 -46.739624
-48.399963 11.492183 -26.92267 64.484962 -6.8725247 -80.130905
-7.1962361 -46.731995 -6.8661265 -80.162315 -18.303862 140.34125
842037500 -26.976522 139.33295 -48.589413 7.5033998 -7.2034836 -47.976376
-48.495712 7.0267415 -26.916805 61.345879 -6.8735867 -82.327995
-7.1956525 -47.964195 -6.8647003 -82.368332 -18.311787 139.13536
864525000 -26.938503 138.04263 -48.799202 3.0633368 -7.2027078 -49.217793
-48.699356 3.6530366 -26.905437 58.20063 -6.8732677 -84.528549
-7.1943035 -49.202415 -6.8633614 -84.561554 -18.323603 137.96394
887012500 -26.918846 136.87701 -48.887806 -2.0308876 -7.2026124 -50.462097
-48.878155 -0.32504791 -26.908171 54.973373 -6.8729787 -86.733391
-7.1927795 -50.427971 -6.8627024 -86.755463 -18.334047 136.76065
909500000 -26.900038 135.7085 -48.94725 -5.9986653 -7.2009859 -51.704865
-48.890854 -4.3068504 -26.923624 51.793842 -6.8724837 -88.927696
-7.1913943 -51.674774 -6.861074 -88.952332 -18.347235 135.55226
931987500 -26.896015 134.54031 -48.987408 -10.026515 -7.2000861 -52.94392
-49.081417 -7.5857124 -26.946613 48.599636 -6.8718624 -91.127289
-7.1896539 -52.923595 -6.8597803 -91.161003 -18.359692 134.3784
954475000 -26.927101 133.41713 -49.152481 -13.442691 -7.1967082 -54.177593
-49.297585 -11.662664 -26.974779 45.463223 -6.8716583 -93.317215
-7.1873126 -54.169964 -6.8603482 -93.370323 -18.371397 133.23105
976962500 -26.93107 132.05954 -49.201038 -16.545385 -7.1937146 -55.423279
-49.336464 -14.993772 -27.006531 42.282345 -6.8708649 -95.520134
-7.1848187 -55.423008 -6.8597398 -95.586876 -18.387032 132.08969
999450000 -26.928394 130.73228 -49.264721 -20.341543 -7.1917925 -56.669495
-49.414543 -18.743816 -27.037447 39.152775 -6.8698878 -97.721222
-7.1816535 -56.681335 -6.8576627 -97.799988 -18.408667 130.95515
1021937500 -26.923805 129.54128 -49.388683 -25.070986 -7.1875935 -57.922012
-49.439003 -22.8978 -27.078575 36.103058 -6.8679986 -99.918709
-7.1788826 -57.933865 -6.857738 -100.00466 -18.429146 129.8308
1044425000 -26.920694 128.45023 -49.563728 -28.685152 -7.1832862 -59.173393
-49.688347 -26.56424 -27.116423 33.03442 -6.8662071 -102.12775
-7.1760235 -59.179302 -6.8561492 -102.19363 -18.452343 128.74312
1066912500 -26.939253 127.38463 -49.638138 -32.284359 -7.1786966 -60.425728
-49.776527 -30.400919 -27.165691 30.033926 -6.864255 -104.32371
-7.1720896 -60.424252 -6.8547478 -104.39505 -18.47327 127.63972
1089400000 -26.958879 126.34024 -49.758453 -35.081303 -7.1732583 -61.677914
-49.800076 -34.133335 -27.217333 27.042416 -6.8620071 -106.52345
-7.1669259 -61.690147 -6.8542624 -106.59683 -18.493719 126.59186
1111887500 -26.985472 125.24713 -49.934433 -37.871113 -7.1703568 -62.932812
-50.003395 -38.083851 -27.269779 24.160507 -6.8618913 -108.72794
-7.1622281 -62.95578 -6.8539248 -108.80936 -18.523077 125.604
1134375000 -27.002842 124.11821 -50.163582 -41.368111 -7.1648836 -64.207314
-50.099007 -42.070782 -27.323952 21.28421 -6.8609109 -110.93868
-7.1583543 -64.211182 -6.852212 -111.01096 -18.544508 124.59769
1156862500 -26.984764 123.02984 -50.290394 -44.209103 -7.1594515 -65.476807
-50.215748 -45.16972 -27.376385 18.323862 -6.8585587 -113.14604
-7.1532826 -65.475006 -6.852057 -113.2174 -18.574823 123.60088
1179350000 -26.984751 122.02521 -50.397594 -47.549343 -7.1541042 -66.757111
-50.34066 -48.334415 -27.443653 15.420472 -6.857883 -115.35161
-7.148427 -66.745651 -6.8512268 -115.41959 -18.60878 122.60411
1201837500 -26.982357 121.22856 -50.63327 -51.195419 -7.1475668 -68.033699
-50.501106 -51.474335 -27.522106 12.594405 -6.8571768 -117.56467
-7.1416979 -68.010765 -6.8499141 -117.62549 -18.637709 121.65373
1224325000 -26.985128 120.37938 -50.580864 -53.918381 -7.1433096 -69.317429
-50.710262 -54.614933 -27.603584 9.7685499 -6.8568602 -119.78069
-7.1370139 -69.290573 -6.8483186 -119.8417 -18.665163 120.70797
1246812500 -27.001366 119.54775 -50.601677 -56.511562 -7.1381803 -70.600868
-50.71711 -57.315739 -27.687029 6.9719815 -6.8564544 -121.98296
-7.1316595 -70.589661 -6.8476205 -122.07039 -18.690842 119.78963
1269300000 -26.999557 118.75374 -50.680058 -58.921432 -7.1340756 -71.883583
-50.864513 -60.226162 -27.759798 4.2015624 -6.8576193 -124.18944
-7.1247878 -71.882996 -6.8461123 -124.29188 -18.715729 118.94868
1291787500 -26.982588 117.94225 -50.852329 -61.650223 -7.1285439 -73.168686
-51.064484 -62.773495 -27.847574 1.6202325 -6.8572574 -126.39794
-7.1202817 -73.177956 -6.8457761 -126.51625 -18.743557 118.12093
1314275000 -26.956659 117.19755 -50.85997 -64.236069 -7.1222868 -74.464653
-51.156113 -64.855759 -27.928213 -1.1031712 -6.8570132 -128.61362
-7.11414 -74.464592 -6.8455443 -128.7339 -18.766924 117.29051
1336762500 -26.944094 116.59991 -50.908768 -66.603004 -7.1169925 -75.752808
-51.28698 -67.274239 -28.020376 -3.6862955 -6.8581619 -130.82094
-7.1079249 -75.764534 -6.8445354 -130.95702 -18.797207 116.50721
1359250000 -26.963202 116.08276 -50.984119 -70.729111 -7.1116309 -77.044769
-51.446709 -70.47242 -28.119349 -6.1430683 -6.857408 -133.03159
-7.1034608 -77.056664 -6.8442082 -133.17897 -18.816422 115.76496
1381737500 -26.971298 115.60976 -51.240147 -73.963135 -7.1065612 -78.34198
-51.634716 -73.684418 -28.210629 -8.658988 -6.8570805 -135.24847
-7.0976691 -78.34726 -6.8427501 -135.39899 -18.828026 115.02304
1404225000 -26.962948 115.03367 -51.472065 -75.87957 -7.1011462 -79.641075
-51.795643 -76.151634 -28.290064 -11.171252 -6.8549223 -137.46057
-7.0943174 -79.661224 -6.8437262 -137.61993 -18.838634 114.33702
1426712500 -26.947386 114.43661 -51.778156 -78.334366 -7.0942707 -80.949142
-51.840649 -78.178551 -28.364424 -13.680283 -6.8539739 -139.67914
-7.0883064 -80.968674 -6.8427792 -139.84117 -18.849888 113.69318
1449200000 -26.912918 113.94267 -51.958061 -81.618195 -7.0894175 -82.268631
-52.174583 -80.521683 -28.436728 -16.051846 -6.8544459 -141.91463
-7.0838027 -82.273361 -6.8422456 -142.04855 -18.856445 113.02227
1471687500 -26.878128 113.41753 -52.046204 -83.918114 -7.0841494 -83.590004
-52.19429 -82.261703 -28.537504 -18.461882 -6.8542123 -144.14223
-7.0797296 -83.585983 -6.8427558 -144.26729 -18.865911 112.37804
1494175000 -26.844242 113.00571 -52.04882 -86.198502 -7.0808463 -84.917374
-52.363033 -85.184608 -28.620007 -21.044718 -6.8545976 -146.37096
-7.0745044 -84.898453 -6.8433495 -146.49176 -18.86529 111.76707
1516662500 -26.814541 112.57281 -52.184914 -88.869743 -7.0763769 -86.242165
-52.432236 -87.354401 -28.692965 -23.547253 -6.8538613 -148.59998
-7.0697122 -86.219742 -6.8437333 -148.72031 -18.854021 111.15136
1539150000 -26.775093 112.18852 -52.313431 -91.866295 -7.0728803 -87.565987
-52.452568 -90.102753 -28.774212 -25.97266 -6.8531485 -150.82982
-7.0655837 -87.547272 -6.844851 -150.94547 -18.837837 110.56805
1561637500 -26.705412 111.67713 -52.579075 -94.076469 -7.0707865 -88.900513
-52.438229 -92.707863 -28.852629 -28.379862 -6.8552418 -153.06279
-7.0602131 -88.879616 -6.8450494 -153.17186 -18.825729 109.98141
1584125000 -26.638889 111.23116 -52.576595 -95.291023 -7.0677586 -90.232231
-52.485413 -94.562439 -28.918764 -30.679983 -6.8569603 -155.29037
-7.0573587 -90.218628 -6.8474689 -155.40704 -18.809086 109.45787
1606612500 -26.575188 110.82067 -52.459461 -97.11203 -7.0653715 -91.57177
-52.564625 -95.739983 -28.988466 -32.859901 -6.8596663 -157.52603
-7.0535364 -91.549339 -6.8496704 -157.63106 -18.788586 108.86192
1629100000 -26.493933 110.4882 -52.608158 -98.082298 -7.0627027 -92.905876
-52.741756 -98.061134 -29.065514 -35.001019 -6.862731 -159.75804
-7.0523319 -92.883652 -6.8525105 -159.86284 -18.762545 108.30161
1651587500 -26.407898 110.08988 -52.722649 -98.593407 -7.0614686 -94.240623
-52.68507 -99.355789 -29.131588 -37.285713 -6.8640633 -161.97464
-7.0500698 -94.223427 -6.8555536 -162.09427 -18.728691 107.80355
1674075000 -26.341625 109.66064 -52.82291 -101.27117 -7.0600467 -95.575394
-52.793499 -102.0183 -29.195183 -39.452354 -6.8651066 -164.20424
-7.0497389 -95.571167 -6.858705 -164.32767 -18.693031 107.2505
1696562500 -26.263741 109.20325 -53.246414 -103.88414 -7.0570021 -96.9105
-52.952377 -104.17219 -29.251865 -41.47826 -6.8670259 -166.42584
-7.0498152 -96.91143 -6.8616738 -166.55106 -18.654007 106.70329
1719050000 -26.182571 108.74112 -53.240604 -105.73003 -7.0563045 -98.256989
-52.92918 -107.07224 -29.322779 -43.577488 -6.8707986 -168.6515
-7.0502906 -98.260078 -6.8633475 -168.77455 -18.617899 106.14944
1741537500 -26.080978 108.13343 -53.213135 -107.04393 -7.0559835 -99.601532
-53.151897 -108.70909 -29.362377 -45.824612 -6.8748798 -170.86592
-7.0516639 -99.615685 -6.8668652 -170.99942 -18.574694 105.61742
1764025000 -25.977549 107.61871 -53.288265 -107.04903 -7.0553608 -100.95422
-53.36919 -109.01465 -29.372513 -48.00174 -6.8780026 -173.0883
-7.0534425 -100.96024 -6.8701868 -173.23711 -18.522202 105.04952
1786512500 -25.870016 107.11607 -53.424091 -108.96543 -7.0573764 -102.30466
-53.58403 -109.99503 -29.386456 -50.229431 -6.8801737 -175.31927
-7.054009 -102.3136 -6.8722935 -175.46576 -18.466713 104.48344
1809000000 -25.772177 106.62881 -53.581436 -110.2401 -7.0592628 -103.65426
-53.740559 -113.16378 -29.402563 -52.422401 -6.8828101 -177.53751
-7.0571823 -103.67667 -6.8747983 -177.70699 -18.403997 103.93124
1831487500 -25.672668 106.00214 -53.513447 -111.969 -7.0619607 -105.0198
-53.674477 -114.92542 -29.40579 -54.681709 -6.885107 -179.77193
-7.0600681 -105.03051 -6.8769321 -179.93448 -18.330605 103.34014
1853975000 -25.569769 105.34483 -53.606491 -113.95566 -7.0625296 -106.37357
-53.700615 -116.84655 -29.393566 -56.929729 -6.8882041 178.00237
-7.062582 -106.38349 -6.8805447 177.82555 -18.262783 102.72802
1876462500 -25.442913 104.75951 -53.725037 -114.63391 -7.0661454 -107.73066
-53.80402 -116.98945 -29.364082 -59.263046 -6.8940468 175.7809
-7.0657244 -107.73885 -6.8840761 175.58864 -18.18508 102.14817
1898950000 -25.308834 104.16853 -53.89481 -115.426 -7.0726547 -109.09397
-53.874306 -117.73112 -29.330631 -61.617283 -6.8995228 173.54665
-7.0685987 -109.09447 -6.886641 173.3604 -18.102919 101.49586
1921437500 -25.185631 103.51831 -54.061028 -116.21774 -7.0778561 -110.45222
-53.9897 -117.64031 -29.29336 -64.049927 -6.9030418 171.31067
-7.0753675 -110.44939 -6.8929052 171.12654 -18.02055 100.83063
1943925000 -25.062508 102.86524 -54.230904 -116.24392 -7.0854101 -111.82548
-53.963276 -116.60177 -29.238863 -66.469475 -6.9079566 169.06381
-7.0801759 -111.80179 -6.8976569 168.89249 -17.934004 100.13113
1966412500 -24.946079 102.1031 -54.100838 -117.40725 -7.092926 -113.17891
-53.867767 -117.81512 -29.217487 -68.934998 -6.9130301 166.83717
-7.0873199 -113.17429 -6.9029632 166.66272 -17.835119 99.428825
1988900000 -24.814779 101.31449 -54.005013 -117.52872 -7.0987997 -114.53696
-53.841808 -119.98137 -29.175161 -71.378494 -6.9179912 164.6237
-7.0952101 -114.54136 -6.9086022 164.42554 -17.737566 98.682007
2011387500 -24.665337 100.39805 -54.086216 -119.44042 -7.1071472 -115.90342
-53.741753 -119.11653 -29.128414 -74.026894 -6.9252262 162.39375
-7.10185 -115.89008 -6.9133577 162.2005 -17.639938 97.923355
2033875000 -24.528349 99.594307 -54.139439 -120.60725 -7.1162415 -117.24921
-53.69598 -119.01208 -29.077869 -76.717178 -6.9318252 160.18552
-7.1090407 -117.24781 -6.9205656 159.9707 -17.543516 97.159798
2056362500 -24.396055 98.785545 -54.029392 -120.85763 -7.1273775 -118.60565
-53.443836 -119.40719 -29.034477 -79.485764 -6.9393072 157.96068
-7.1191969 -118.60465 -6.9267831 157.74348 -17.441586 96.320587
2078850000 -24.2582 97.8638 -53.954975 -121.36304 -7.1380706 -119.95769
-53.377628 -121.02061 -28.974686 -82.315613 -6.9447641 155.73746
-7.1301112 -119.95935 -6.9349251 155.52066 -17.337385 95.430305
2101337500 -24.130348 96.844223 -53.470642 -121.58128 -7.1485891 -121.30446
-53.261738 -121.45879 -28.923176 -85.282959 -6.9504423 153.5209
-7.1416578 -121.31845 -6.9419703 153.28995 -17.229109 94.52636
2123825000 -23.990616 95.860382 -53.451279 -123.08448 -7.1598392 -122.64726
-53.28894 -122.93976 -28.845257 -88.246681 -6.9584599 151.31047
-7.1521339 -122.66973 -6.9497375 151.06944 -17.115351 93.645569
2146312500 -23.85091 94.81398 -53.2029 -123.57573 -7.1720915 -123.9875
