! MARKI MICROWAVE INC.
! Email:             	info@markimicrowave.com   				Phone:   408-778-4200
! Model Number:      	PBR0003SMG						Date:    02/14
! Filename:		PBR-0003SMG.S3P						Version: 1.0
! Description:       	3-port S-parameter data for Power Divider PBR0003SMG
! Frequency Range: 	10 MHz to 3 GHz		
! Port Configuration:	PORT 1: COMMON, PORT 2 and Port 3: Output


! S3P File: Measurements: Mag<S11> Ang<S11> Mag<S12> Ang<S12> Mag<S13> Ang<S13>! row 1 
!			  Mag<S21> Ang<S21> Mag<S22> Ang<S22> Mag<S23> Ang<S23>! row 2 
!			  Mag<S31> Ang<S31> Mag<S32> Ang<S32> Mag<S33> Ang<S33>! row 3 
# Hz S  dB   R 50
10000000 -13.889648 166.74852 -6.883153 -2.6165183 -8.1676035 1.5849757
-6.8791661 -2.7857585 -20.059063 158.82663 -35.947708 -38.766209
-8.159523 2.7882071 -36.055119 -38.508484 -21.233793 162.88089
22487500 -14.061312 168.04103 -6.884799 -3.1456954 -8.135581 0.63806498
-6.8812509 -3.2873425 -20.332563 160.99541 -36.597923 -34.635612
-8.1281643 1.5327446 -36.700138 -34.568096 -21.455837 164.43533
34975000 -14.225438 169.30054 -6.8868628 -3.7990758 -8.1054487 -0.42883214
-6.883872 -3.906563 -20.596157 163.11644 -37.267357 -30.235991
-8.0989704 0.16333224 -37.347202 -30.350761 -21.668388 165.8885
47462500 -14.385068 170.48679 -6.8895297 -4.574645 -8.0777206 -1.6129646
-6.8870497 -4.6511955 -20.860971 165.14999 -37.876911 -25.613985
-8.071763 -1.312906 -37.935413 -25.859171 -21.88035 167.22711
59950000 -14.544641 171.59642 -6.8922186 -5.4733663 -8.0513201 -2.9064963
-6.889884 -5.5169282 -21.125732 167.12579 -38.440681 -21.067314
-8.0455647 -2.8936169 -38.488956 -21.453892 -22.088335 168.48547
72437500 -14.702437 172.65286 -6.8949986 -6.4897246 -8.0255804 -4.305028
-6.8930407 -6.5019979 -21.382353 169.03151 -39.012363 -16.734571
-8.0206795 -4.5752273 -39.048965 -17.26572 -22.289713 169.664
84925000 -14.7079 172.83481 -6.8967366 -7.5795183 -8.0327063 -5.5671163
-6.8950629 -7.5888577 -21.415117 169.50821 -39.190052 -13.434603
-8.028491 -5.7795687 -39.195564 -13.763158 -22.313963 169.71838
97412500 -14.695672 172.61209 -6.9005971 -8.6704273 -8.0469742 -6.6796107
-6.8986797 -8.6719284 -21.418015 169.38481 -39.03178 -11.360813
-8.0410347 -6.8391681 -39.018414 -11.654655 -22.310257 169.30873
109900000 -14.677975 172.22539 -6.903347 -9.7514324 -8.0600414 -7.6939416
-6.901803 -9.7544155 -21.403074 168.99327 -38.812378 -11.280192
-8.0539494 -7.8306336 -38.802528 -11.497958 -22.296932 168.72354
122387500 -14.658381 171.70602 -6.9058447 -10.834635 -8.071784 -8.6649981
-6.9043398 -10.833186 -21.380392 168.3779 -38.67099 -11.753995
-8.0654736 -8.763402 -38.656586 -11.855926 -22.28244 167.95746
134875000 -14.641602 171.07098 -6.9082227 -11.921784 -8.0818501 -9.6054926
-6.9072237 -11.913452 -21.368919 167.56815 -38.530087 -12.220914
-8.0756454 -9.6745958 -38.499096 -12.300813 -22.27906 167.03061
147362500 -14.632773 170.37202 -6.9105792 -13.004922 -8.0902004 -10.522728
-6.9093647 -12.997937 -21.37047 166.67651 -38.357395 -13.105016
-8.0839701 -10.570342 -38.332993 -13.12711 -22.291288 166.05341
159850000 -14.629126 169.65633 -6.9125013 -14.087223 -8.0959616 -11.417137
-6.9113355 -14.077327 -21.373152 165.75905 -38.238998 -14.45037
-8.0900116 -11.456847 -38.229523 -14.483408 -22.309164 165.04433
172337500 -14.627274 168.93065 -6.9145555 -15.165757 -8.100256 -12.304941
-6.9141898 -15.154658 -21.375952 164.78253 -38.175762 -15.876269
-8.09548 -12.336214 -38.150131 -15.961198 -22.332785 163.97435
184825000 -14.627946 168.17583 -6.9167914 -16.244864 -8.1041288 -13.182346
-6.9167261 -16.23189 -21.395657 163.75824 -38.092537 -17.218119
-8.0996876 -13.208862 -38.061195 -17.319414 -22.367041 162.84763
197312500 -14.632676 167.39832 -6.9193573 -17.326283 -8.1065388 -14.056354
-6.9194374 -17.30978 -21.419508 162.72264 -38.018333 -18.665554
-8.1026239 -14.080537 -37.984154 -18.78104 -22.403351 161.69061
209800000 -14.63941 166.62091 -6.9211316 -18.405134 -8.1078014 -14.92485
-6.9214559 -18.3883 -21.447067 161.67754 -37.973904 -20.229156
-8.1039438 -14.953151 -37.942947 -20.385271 -22.439939 160.49899
222287500 -14.64783 165.8434 -6.9233093 -19.484055 -8.1081543 -15.797603
-6.9230909 -19.464514 -21.475294 160.62433 -37.95491 -21.74378
-8.104866 -15.82542 -37.928543 -21.882809 -22.473391 159.29988
234775000 -14.656643 165.05809 -6.9252348 -20.563736 -8.1073198 -16.669994
-6.9250813 -20.5445 -21.510881 159.53008 -37.937473 -23.105097
-8.1043711 -16.701208 -37.918396 -23.286251 -22.508947 158.08113
247262500 -14.666222 164.26445 -6.9271588 -21.640272 -8.1061182 -17.545929
-6.9263086 -21.628351 -21.552641 158.42944 -37.917259 -24.567398
-8.1032038 -17.577278 -37.902813 -24.789572 -22.549294 156.89839
259750000 -14.678122 163.47961 -6.9295497 -22.716543 -8.1045494 -18.425419
-6.9282565 -22.709602 -21.597101 157.33725 -37.909081 -26.136818
-8.1017694 -18.450056 -37.894905 -26.325825 -22.590891 155.72585
272237500 -14.693603 162.69371 -6.9317193 -23.791063 -8.1022396 -19.304296
-6.9301839 -23.789494 -21.641909 156.23978 -37.930038 -27.616245
-8.0997133 -19.325663 -37.898312 -27.804535 -22.635271 154.57117
284725000 -14.71106 161.91739 -6.9338517 -24.867996 -8.1000566 -20.180567
-6.9319401 -24.868551 -21.695217 155.11995 -37.923248 -29.155718
-8.097086 -20.202721 -37.912315 -29.235014 -22.685707 153.3882
297212500 -14.728138 161.14343 -6.9361448 -25.943403 -8.0977211 -21.05604
-6.9338388 -25.944374 -21.748116 154.00551 -37.931561 -30.692787
-8.0944405 -21.080141 -37.921413 -30.803808 -22.737772 152.20531
309700000 -14.746809 160.37473 -6.9388032 -27.014225 -8.09513 -21.93001
-6.9354177 -27.017988 -21.803286 152.90388 -37.945461 -32.261784
-8.0914268 -21.955412 -37.926117 -32.413589 -22.789684 151.0128
322187500 -14.767722 159.61214 -6.9413419 -28.086763 -8.091794 -22.809395
-6.9378347 -28.092422 -21.854824 151.78539 -37.961823 -33.825752
-8.0885735 -22.835241 -37.947685 -33.920227 -22.837095 149.81656
334675000 -14.790015 158.85138 -6.943676 -29.157558 -8.088974 -23.685043
-6.9404049 -29.167646 -21.91054 150.65692 -37.976414 -35.355698
-8.0849714 -23.717558 -37.954224 -35.443119 -22.883202 148.59332
347162500 -14.809752 158.10405 -6.9456577 -30.229588 -8.0859213 -24.566889
-6.9426455 -30.236933 -21.96373 149.54897 -37.980034 -36.896275
-8.0822439 -24.595377 -37.952496 -36.974922 -22.928364 147.39035
359650000 -14.830248 157.35748 -6.9478765 -31.300688 -8.0827351 -25.446442
-6.9453101 -31.305828 -22.011927 148.47351 -37.996433 -38.583614
-8.0788937 -25.476137 -37.979321 -38.543678 -22.965229 146.21924
372137500 -14.850602 156.61942 -6.9496007 -32.370049 -8.0790443 -26.324629
-6.9479947 -32.371925 -22.061357 147.39833 -38.024628 -40.157734
-8.0753527 -26.358707 -38.007458 -40.147831 -23.000769 145.08739
384625000 -14.869171 155.89369 -6.9514656 -33.440933 -8.0759659 -27.21081
-6.9501214 -33.440441 -22.11231 146.33981 -38.029549 -41.658077
-8.0724049 -27.240566 -38.025364 -41.673828 -23.036131 143.95779
397112500 -14.887213 155.17136 -6.9537315 -34.510353 -8.0721979 -28.09576
-6.9524097 -34.505825 -22.162886 145.32477 -38.056625 -43.128498
-8.0691662 -28.122972 -38.045681 -43.240292 -23.072922 142.88176
409600000 -14.906558 154.44582 -6.9559731 -35.580299 -8.068327 -28.983755
-6.9547663 -35.577019 -22.211273 144.3286 -38.083981 -44.724812
-8.0650702 -29.008972 -38.074638 -44.765877 -23.107954 141.81119
422087500 -14.926437 153.71581 -6.9575138 -36.653576 -8.0641346 -29.876396
-6.9571433 -36.650974 -22.259077 143.3376 -38.109581 -46.193478
-8.0614786 -29.899057 -38.104473 -46.157131 -23.145298 140.75778
434575000 -14.947632 152.99773 -6.9589987 -37.725048 -8.060215 -30.764521
-6.9594626 -37.72533 -22.311066 142.362 -38.125568 -47.643429
-8.0575905 -30.792576 -38.117611 -47.559788 -23.187008 139.69608
447062500 -14.965142 152.2888 -6.9602146 -38.798042 -8.0559893 -31.655287
-6.961647 -38.794907 -22.367352 141.43591 -38.145386 -49.051941
-8.0542545 -31.679873 -38.138031 -49.021271 -23.228666 138.66548
459550000 -14.984096 151.58496 -6.961937 -39.867607 -8.0513296 -32.545967
-6.96313 -39.867996 -22.427406 140.54752 -38.180046 -50.592571
-8.0499611 -32.573997 -38.181751 -50.5732 -23.265257 137.64851
472037500 -15.003489 150.89 -6.9636321 -40.942768 -8.0467634 -33.438931
-6.965209 -40.941719 -22.491802 139.65321 -38.222836 -52.029976
-8.0461092 -33.468369 -38.218582 -51.968346 -23.301033 136.62468
484525000 -15.021904 150.19838 -6.9652753 -42.016624 -8.0422659 -34.335331
-6.9665351 -42.013306 -22.558847 138.8015 -38.257065 -53.489769
-8.041708 -34.363598 -38.258362 -53.461304 -23.334827 135.638
497012500 -15.038994 149.52383 -6.967154 -43.085686 -8.0379667 -35.230114
-6.9683466 -43.083908 -22.632385 137.95583 -38.29187 -54.968952
-8.0370731 -35.258602 -38.294228 -54.89793 -23.367678 134.70561
509500000 -15.053755 148.84955 -6.968504 -44.152508 -8.0339193 -36.125137
-6.9698825 -44.159637 -22.706739 137.13072 -38.324116 -56.519032
-8.0324984 -36.153988 -38.325874 -56.377102 -23.398674 133.83441
521987500 -15.068541 148.18016 -6.969399 -45.223057 -8.0292664 -37.023525
-6.9714046 -45.230766 -22.787067 136.29652 -38.363415 -57.858227
-8.0288239 -37.052513 -38.371784 -57.720924 -23.43556 132.99223
534475000 -15.083872 147.52499 -6.9706302 -46.291336 -8.0246439 -37.917995
-6.9730344 -46.299721 -22.871578 135.4733 -38.404881 -59.292873
-8.0246744 -37.949539 -38.420071 -59.205338 -23.477869 132.17056
546962500 -15.097409 146.87831 -6.9719396 -47.362064 -8.0202656 -38.818993
-6.9739013 -47.365761 -22.95949 134.68051 -38.460606 -60.742416
-8.0202417 -38.846085 -38.480671 -60.690029 -23.526913 131.39059
559450000 -15.112512 146.23024 -6.9733453 -48.431442 -8.0155945 -39.722149
-6.9751287 -48.435856 -23.04734 133.86165 -38.511784 -62.225311
-8.0153732 -39.7463 -38.538166 -62.108856 -23.581579 130.58195
571937500 -15.128177 145.57056 -6.9748783 -49.502163 -8.011529 -40.625298
-6.9770856 -49.506832 -23.14045 133.04169 -38.566261 -63.645317
-8.0112391 -40.647381 -38.581268 -63.504135 -23.6446 129.76395
584425000 -15.143078 144.90944 -6.9763389 -50.568207 -8.0076036 -41.524551
-6.9785767 -50.57489 -23.236671 132.23918 -38.600517 -65.009445
-8.0066414 -41.549404 -38.606323 -65.021133 -23.71438 128.927
596912500 -15.157636 144.25479 -6.9774542 -51.636967 -8.00354 -42.420376
-6.9798894 -51.648125 -23.332232 131.41461 -38.646206 -66.418571
-8.0023155 -42.453583 -38.646511 -66.41201 -23.784859 128.08315
609400000 -15.170697 143.60121 -6.9784722 -52.706554 -7.9989462 -43.320995
-6.9806151 -52.716591 -23.426434 130.60333 -38.696629 -67.925095
-7.997961 -43.356602 -38.688412 -67.907082 -23.848921 127.22378
621887500 -15.184073 142.94606 -6.9799333 -53.77972 -7.9943905 -44.221863
-6.9819665 -53.785507 -23.522278 129.77658 -38.755646 -69.306801
-7.9936395 -44.261574 -38.745396 -69.283836 -23.912964 126.32633
634375000 -15.196311 142.28949 -6.9816837 -54.848942 -7.9900584 -45.123974
-6.983027 -54.857689 -23.61721 128.9474 -38.805748 -70.789299
-7.9889174 -45.166645 -38.793652 -70.718636 -23.976088 125.45395
646862500 -15.206323 141.64204 -6.9830751 -55.918583 -7.9861016 -46.030762
-6.984199 -55.92601 -23.711481 128.1465 -38.850574 -72.224846
-7.9841256 -46.07193 -38.836098 -72.181541 -24.03969 124.62331
659350000 -15.215718 140.98863 -6.9844561 -56.986687 -7.9813662 -46.934433
-6.98595 -56.998291 -23.80563 127.35675 -38.89883 -73.690796
-7.9796443 -46.978901 -38.890228 -73.693932 -24.103001 123.80651
671837500 -15.225179 140.34827 -6.9858813 -58.057892 -7.9772816 -47.839565
-6.9868917 -58.06953 -23.895458 126.58456 -38.955502 -75.042351
-7.9757023 -47.885185 -38.948215 -75.143013 -24.17137 122.9986
684325000 -15.234735 139.70274 -6.9872379 -59.130123 -7.9732265 -48.747856
-6.98806 -59.137405 -23.987823 125.83084 -38.995399 -76.384552
-7.9712925 -48.789474 -38.986645 -76.474319 -24.244156 122.17465
696812500 -15.244766 139.07103 -6.9887452 -60.201286 -7.9686255 -49.655815
-6.9888134 -60.205906 -24.081619 125.11332 -39.049652 -77.792824
-7.9675879 -49.695427 -39.042385 -77.856277 -24.320364 121.33095
709300000 -15.255105 138.4355 -6.9902716 -61.270676 -7.9645905 -50.567009
-6.9901733 -61.274578 -24.176048 124.42622 -39.100315 -79.182541
-7.9637513 -50.600502 -39.098484 -79.259514 -24.396393 120.45267
721787500 -15.265511 137.79375 -6.9917011 -62.343693 -7.9607773 -51.474262
-6.9922338 -62.342846 -24.274981 123.75479 -39.151234 -80.468277
-7.9601588 -51.508766 -39.156841 -80.605888 -24.477831 119.54423
734275000 -15.274583 137.1537 -6.9927649 -63.411728 -7.9571295 -52.382278
-6.993196 -63.414078 -24.378014 123.12791 -39.189411 -81.813446
-7.9562201 -52.415009 -39.198807 -81.934242 -24.557583 118.62625
746762500 -15.282308 136.52946 -6.9938846 -64.480072 -7.9532166 -53.291084
-6.9946465 -64.483612 -24.483219 122.55987 -39.238609 -83.217827
-7.9525447 -53.321575 -39.243439 -83.351448 -24.631447 117.70342
759250000 -15.29039 135.90048 -6.9950962 -65.550949 -7.9490161 -54.197964
-6.9956822 -65.554504 -24.590649 122.00082 -39.294601 -84.675751
-7.9485707 -54.230331 -39.309929 -84.784416 -24.699825 116.78031
771737500 -15.29781 135.27364 -6.9958887 -66.619835 -7.9453115 -55.108482
-6.9967189 -66.622864 -24.703718 121.45573 -39.352829 -86.058464
-7.945365 -55.135704 -39.359215 -86.055481 -24.764488 115.86385
784225000 -15.303118 134.63951 -6.9965849 -67.68985 -7.9410992 -56.017876
-6.9978809 -67.693085 -24.825453 120.92556 -39.405682 -87.5159
-7.9414325 -56.046516 -39.40934 -87.455231 -24.827639 114.99429
796712500 -15.309555 134.0152 -6.9973874 -68.755257 -7.9373322 -56.923653
-6.9988208 -68.763321 -24.946522 120.41942 -39.461182 -88.978256
-7.937386 -56.953342 -39.472935 -88.989227 -24.892145 114.18822
809200000 -15.316703 133.38828 -6.9981971 -69.823967 -7.9335165 -57.83186
-7.0001373 -69.830185 -25.069088 119.87965 -39.521011 -90.356903
-7.9335508 -57.861073 -39.547081 -90.394096 -24.957848 113.38888
821687500 -15.323495 132.77484 -6.9989343 -70.89238 -7.929636 -58.74255
-7.0014448 -70.898209 -25.196701 119.33364 -39.581352 -91.69091
-7.9297347 -58.770977 -39.603901 -91.736816 -25.03021 112.57125
834175000 -15.331233 132.15561 -6.9999161 -71.959923 -7.926013 -59.654106
-7.0022745 -71.969963 -25.323257 118.79269 -39.647236 -93.17025
-7.9257402 -59.680439 -39.6731 -93.16523 -25.1064 111.74119
846662500 -15.339454 131.53453 -7.0008264 -73.028412 -7.9217629 -60.565639
-7.0035768 -73.037971 -25.44714 118.24063 -39.719349 -94.599297
-7.9217229 -60.589359 -39.743835 -94.611908 -25.181732 110.90781
859150000 -15.350193 130.89603 -7.00137 -74.099548 -7.9179955 -61.474846
-7.0045466 -74.107925 -25.569479 117.66322 -39.790676 -96.027863
-7.917479 -61.502625 -39.817554 -96.069168 -25.257542 110.007
871637500 -15.358842 130.26425 -7.0021076 -75.167702 -7.9141212 -62.38583
-7.0056224 -75.178864 -25.694489 117.09607 -39.870602 -97.349434
-7.9142861 -62.412849 -39.878082 -97.440987 -25.329967 109.07469
884125000 -15.367682 129.63939 -7.0033331 -76.236946 -7.9101496 -63.296204
-7.006566 -76.245338 -25.816952 116.56521 -39.926956 -98.809227
-7.910593 -63.322212 -39.934116 -98.905586 -25.400616 108.12934
896612500 -15.377323 129.00563 -7.0048804 -77.303497 -7.9067607 -64.207626
-7.0081921 -77.312569 -25.934528 116.05404 -40.002296 -100.3054
-7.9069924 -64.227493 -40.000095 -100.36035 -25.462116 107.20095
909100000 -15.384469 128.37094 -7.0059576 -78.375298 -7.9024611 -65.120827
-7.009686 -78.38475 -26.051788 115.53563 -40.089184 -101.77481
-7.9038486 -65.143997 -40.086048 -101.74637 -25.515404 106.27788
921587500 -15.39119 127.74664 -7.007082 -79.442596 -7.8987665 -66.032333
-7.0104923 -79.459534 -26.167299 115.05652 -40.160946 -103.25764
-7.900075 -66.055107 -40.150555 -103.15364 -25.569435 105.39836
934075000 -15.395744 127.11299 -7.0084333 -80.51403 -7.8952999 -66.944649
-7.0113406 -80.529198 -26.282427 114.63025 -40.241547 -104.75546
-7.8964887 -66.967941 -40.228714 -104.62667 -25.622087 104.5892
946562500 -15.399525 126.47631 -7.008925 -81.582855 -7.890852 -67.855499
-7.0123878 -81.5989 -26.39826 114.24936 -40.313053 -106.28648
-7.8928895 -67.881218 -40.297997 -106.14277 -25.676371 103.83435
959050000 -15.404903 125.84393 -7.0097246 -82.651169 -7.8871946 -68.765923
-7.0133462 -82.666359 -26.518929 113.88773 -40.401234 -107.72072
-7.8897457 -68.79406 -40.37553 -107.59853 -25.738518 103.07483
971537500 -15.409339 125.22104 -7.0110145 -83.721588 -7.8836055 -69.681252
-7.0142875 -83.732491 -26.643623 113.55663 -40.483593 -109.07671
-7.8861074 -69.704247 -40.46822 -108.96095 -25.808714 102.33557
984025000 -15.415222 124.58787 -7.0120959 -84.789413 -7.8803291 -70.593834
-7.0151734 -84.79924 -26.764519 113.26296 -40.567066 -110.56234
-7.8819699 -70.616096 -40.549366 -110.34095 -25.885448 101.56983
996512500 -15.420326 123.93876 -7.0128222 -85.858643 -7.8769922 -71.505432
-7.0158677 -85.870117 -26.882153 112.97842 -40.660454 -111.98978
-7.8779869 -71.530502 -40.63892 -111.89547 -25.961145 100.78856
1009000000 -15.425654 123.2998 -7.0137181 -86.92733 -7.8734179 -72.414619
-7.0164185 -86.938683 -27.002741 112.71569 -40.740303 -113.42403
-7.8741055 -72.446259 -40.72533 -113.37449 -26.038712 99.973793
1021487500 -15.430559 122.65784 -7.0144973 -87.994308 -7.870235 -73.326378
-7.0169358 -88.004395 -27.124773 112.48201 -40.819054 -114.72825
-7.8701406 -73.354797 -40.811398 -114.74749 -26.116737 99.082115
1033975000 -15.432643 122.0101 -7.0149016 -89.065575 -7.8669581 -74.241722
-7.0177503 -89.072296 -27.248348 112.28023 -40.908844 -116.11932
-7.8662372 -74.26889 -40.899548 -116.12353 -26.184723 98.204948
1046462500 -15.437045 121.36326 -7.0151553 -90.134865 -7.8630471 -75.150063
-7.0185752 -90.139816 -27.364103 112.09583 -40.97303 -117.53888
-7.8622813 -75.17878 -40.971817 -117.54772 -26.247967 97.353539
1058950000 -15.443466 120.72195 -7.0163975 -91.203766 -7.8598561 -76.060913
-7.0192881 -91.208611 -27.475529 111.90297 -41.057339 -118.91522
-7.8585691 -76.090424 -41.058628 -118.91211 -26.309427 96.513397
1071437500 -15.448515 120.07861 -7.0172825 -92.274475 -7.8564057 -76.973862
-7.0201793 -92.279305 -27.580866 111.72054 -41.147121 -120.3996
-7.854876 -77.006126 -41.153576 -120.40323 -26.36809 95.731171
1083925000 -15.454679 119.44015 -7.0177426 -93.343727 -7.8524766 -77.886497
-7.0210981 -93.347961 -27.682301 111.59651 -41.226864 -121.82787
-7.8514109 -77.918823 -41.228111 -121.85993 -26.430883 94.987747
1096412500 -15.461321 118.80587 -7.0185084 -94.414703 -7.8485899 -78.799866
-7.0224462 -94.415909 -27.777269 111.50121 -41.311649 -123.28587
-7.8481078 -78.830704 -41.31126 -123.44244 -26.498592 94.276443
1108900000 -15.468296 118.17596 -7.0192552 -95.483635 -7.8445535 -79.71505
-7.0233173 -95.486214 -27.871111 111.46384 -41.407055 -124.66974
-7.8444819 -79.744469 -41.409245 -124.78474 -26.57419 93.54261
1121387500 -15.475018 117.54781 -7.0197334 -96.554001 -7.8403392 -80.630371
-7.0240331 -96.558449 -27.96085 111.47856 -41.499969 -126.03059
-7.8410625 -80.657455 -41.503281 -126.18777 -26.657541 92.765961
1133875000 -15.482739 116.93031 -7.0199966 -97.622902 -7.8364677 -81.544319
-7.0253568 -97.629532 -28.040131 111.56661 -41.59605 -127.61379
-7.8374124 -81.574722 -41.58881 -127.85301 -26.740889 92.031715
1146362500 -15.49102 116.30228 -7.0206399 -98.693298 -7.8324847 -82.46048
-7.0262842 -98.695412 -28.111832 111.71497 -41.697548 -129.20958
-7.833581 -82.488037 -41.698112 -129.4593 -26.822447 91.267334
1158850000 -15.497232 115.66437 -7.0217586 -99.76371 -7.8286352 -83.378441
-7.0269647 -99.768959 -28.187243 111.92003 -41.839554 -130.77751
-7.8299084 -83.407898 -41.822033 -130.95058 -26.900427 90.438148
1171337500 -15.502492 115.0266 -7.0223336 -100.83498 -7.8248744 -84.296417
-7.0277324 -100.84142 -28.260492 112.2077 -41.959652 -132.13249
-7.826345 -84.326347 -41.933983 -132.42412 -26.974918 89.614922
1183825000 -15.507274 114.39535 -7.0229969 -101.90594 -7.8209949 -85.214363
-7.0283108 -101.91313 -28.328846 112.5975 -42.060043 -133.69142
-7.822557 -85.240807 -42.03754 -134.01671 -27.043804 88.820518
1196312500 -15.509748 113.75935 -7.0235548 -102.97636 -7.8173318 -86.131508
