! MARKI MICROWAVE INC.
! Email:             	info@markimicrowave.com   				Phone:   408-778-4200
! Model Number:      	PBR0012							Date:    09/15
! Filename:		PBR-0012.S3P						Version: 2.0
! Description:       	3-port S-parameter data for Power Divider PBR0012
! Frequency Range: 	10 MHz to 12 GHz		
! Port Configuration:	PORT 1: COMMON, PORT 2 and Port 3: Output


! S3P File: Measurements: Mag<S11> Ang<S11> Mag<S12> Ang<S12> Mag<S13> Ang<S13>! row 1 
!			  Mag<S21> Ang<S21> Mag<S22> Ang<S22> Mag<S23> Ang<S23>! row 2 
!			  Mag<S31> Ang<S31> Mag<S32> Ang<S32> Mag<S33> Ang<S33>! row 3 



# Hz S  dB   R 50
10000000 -20.313046 174.2019 -6.8173475 -2.5429161 -6.7893419 -1.5130807
-6.8710947 -2.5167801 -29.94622 172.61452 -46.215092 -151.84941
-6.8714628 -0.83455092 -43.578777 -179.35962 -30.106794 170.8782
24987500 -20.078564 175.48303 -6.8164554 -3.3902576 -6.8353887 -2.1652629
-6.8587823 -3.3643315 -29.605194 173.21233 -46.518078 -168.35025
-6.8978062 -1.630694 -44.452255 170.24521 -29.705715 173.19958
39975000 -19.842367 176.59808 -6.8162599 -4.39533 -6.8814564 -2.9068742
-6.8473806 -4.3692851 -29.263048 173.42368 -46.971504 174.94913
-6.9262676 -2.5108495 -45.463238 158.99356 -29.3141 175.42813
54962500 -19.612926 177.57114 -6.8158612 -5.5684085 -6.9291234 -3.7349682
-6.8370643 -5.539278 -28.920261 173.35913 -47.263783 157.96242
-6.9554682 -3.4794853 -46.355827 147.3074 -28.939169 177.59924
69950000 -19.387743 178.42233 -6.8152027 -6.8994555 -6.9758701 -4.6520925
-6.8259659 -6.8707876 -28.586216 172.94061 -47.761093 140.09955
-6.9840279 -4.5365148 -47.335072 134.58458 -28.574032 179.65497
84937500 -19.16173 179.18044 -6.8144741 -8.3859119 -7.02321 -5.668201
-6.8134789 -8.3619032 -28.250345 172.29753 -48.083481 122.26062
-7.0122666 -5.6803341 -48.294582 122.29691 -28.217745 -178.52615
99925000 -19.001314 178.21231 -6.817812 -9.8319454 -7.0578504 -6.4619565
-6.8171053 -9.8168879 -27.927885 169.68138 -48.695137 117.68912
-7.0408597 -6.5234241 -48.82729 117.46636 -27.998556 -179.42599
114912500 -18.939598 176.96027 -6.8218012 -11.285377 -7.0715165 -7.2294874
-6.8198237 -11.261432 -27.79826 166.28285 -48.852081 112.07275
-7.0547433 -7.3097763 -48.926266 111.18381 -27.919533 179.28586
129900000 -18.928703 175.85547 -6.8222227 -12.737658 -7.080092 -8.0294924
-6.8208294 -12.693625 -27.782427 163.49867 -48.906563 104.45383
-7.0622888 -8.1055717 -49.025311 104.9366 -27.947184 178.17842
144887500 -18.940273 174.96851 -6.8230391 -14.16805 -7.0817699 -8.8435717
-6.821311 -14.138944 -27.798075 160.95598 -48.93837 99.26152
-7.065187 -8.9057217 -49.015877 99.843483 -27.994228 177.30688
159875000 -18.963083 174.14468 -6.8224659 -15.622581 -7.0830965 -9.6934967
-6.8222389 -15.586849 -27.797668 158.61249 -48.861893 95.356865
-7.0676155 -9.7322893 -48.965023 95.015038 -28.024994 176.67531
174862500 -18.990837 173.39362 -6.8222246 -17.085196 -7.0822711 -10.557451
-6.8213329 -17.038696 -27.811996 156.46458 -48.738476 90.822357
-7.0687246 -10.57668 -48.81638 90.749428 -28.056196 176.16499
189850000 -19.011786 172.7307 -6.8206272 -18.538713 -7.0824375 -11.43738
-6.820446 -18.493612 -27.823225 154.34927 -48.585415 86.251793
-7.068018 -11.438016 -48.610512 85.943947 -28.072245 175.6214
204837500 -19.02643 172.16708 -6.8184237 -19.97921 -7.0824933 -12.299334
-6.8197799 -19.936649 -27.825371 152.47641 -48.091953 82.392899
-7.0682259 -12.290154 -48.320473 82.336983 -28.086628 175.10455
219825000 -19.047262 171.63133 -6.8176141 -21.444681 -7.0827942 -13.181311
-6.8215747 -21.390602 -27.828602 150.55949 -47.750683 78.303452
-7.0712762 -13.162381 -48.059334 77.522781 -28.101458 174.8157
234812500 -19.058662 171.11517 -6.815021 -22.901974 -7.0847473 -14.05417
-6.8207569 -22.847477 -27.849247 148.81975 -47.451813 73.595016
-7.0734568 -14.027303 -47.735371 73.006508 -28.096258 174.59293
249800000 -19.067635 170.66422 -6.8127785 -24.355148 -7.0877938 -14.929841
-6.8200159 -24.313906 -27.831436 147.0415 -47.174114 69.855751
-7.0749316 -14.908329 -47.294365 69.688278 -28.076347 174.27364
264787500 -19.078186 170.21619 -6.8121848 -25.820076 -7.0897808 -15.810329
-6.8189454 -25.776926 -27.831184 145.16222 -46.851818 66.704247
-7.0762863 -15.800827 -46.871304 66.211777 -28.050091 174.06784
279775000 -19.089376 169.73535 -6.812336 -27.286438 -7.0925875 -16.706289
-6.8185787 -27.242893 -27.818279 143.38083 -46.441021 62.402584
-7.0774794 -16.684626 -46.581356 62.284706 -28.022451 173.98564
294762500 -19.085325 169.31812 -6.8104854 -28.740234 -7.0961242 -17.587831
-6.8174772 -28.700653 -27.790169 141.64276 -46.143044 58.582737
-7.0800753 -17.560635 -46.321152 58.559078 -27.981199 173.88988
309750000 -19.080379 168.96008 -6.8091159 -30.188437 -7.1022363 -18.45644
-6.8176723 -30.155548 -27.748322 139.79195 -45.658669 55.746361
-7.0835309 -18.432611 -45.865536 55.600365 -27.940445 173.72934
324737500 -19.071726 168.55409 -6.8083229 -31.645134 -7.1055126 -19.317743
-6.8153906 -31.6131 -27.686129 138.03685 -45.50655 52.476982
-7.0869288 -19.304899 -45.703117 52.64603 -27.894739 173.64328
339725000 -19.065466 168.09961 -6.8076406 -33.111 -7.1091895 -20.212418
-6.8134036 -33.076756 -27.641338 136.1535 -45.358967 49.647099
-7.0917983 -20.186239 -45.410725 49.461704 -27.854256 173.70433
354712500 -19.047029 167.68822 -6.8048167 -34.556717 -7.112978 -21.086706
-6.8111663 -34.532654 -27.575258 134.44466 -45.241638 46.164108
-7.0956469 -21.063467 -45.149231 46.972977 -27.801327 173.56412
369700000 -19.032225 167.2991 -6.8040724 -36.002361 -7.115046 -21.965256
-6.8085437 -35.990246 -27.491011 132.6133 -45.147812 43.139065
-7.0987568 -21.936502 -44.820667 44.117989 -27.772375 173.36774
384687500 -19.014145 166.78847 -6.8016095 -37.46629 -7.118485 -22.838856
-6.8069773 -37.449951 -27.427208 130.94841 -44.977093 40.840263
-7.1038003 -22.822752 -44.802177 41.216587 -27.767607 173.30501
399675000 -18.999899 166.243 -6.799387 -38.925484 -7.1213574 -23.717632
-6.8054905 -38.905071 -27.360168 129.23779 -44.718685 37.94397
-7.1091614 -23.677729 -44.62529 38.03738 -27.75522 172.9751
414662500 -18.98064 165.7431 -6.7969689 -40.385189 -7.1257792 -24.569626
-6.8042364 -40.35947 -27.293438 127.45039 -44.578117 35.739998
-7.1165686 -24.554838 -44.522297 35.652557 -27.714205 172.46974
429650000 -18.968433 165.20815 -6.7967091 -41.851486 -7.1297507 -25.433268
-6.8017812 -41.813744 -27.255785 125.5474 -44.403606 32.878654
-7.1218367 -25.418869 -44.281811 32.838039 -27.683029 171.9073
444637500 -18.954079 164.63158 -6.7931714 -43.318985 -7.1324449 -26.29884
-6.7977147 -43.284996 -27.211403 123.67451 -44.265488 29.811638
-7.1265121 -26.282019 -44.209335 29.297022 -27.638502 171.32707
459625000 -18.929779 164.07079 -6.7909188 -44.776737 -7.1344986 -27.171179
-6.7975545 -44.74947 -27.179531 121.74274 -43.907669 27.317099
-7.1336541 -27.137278 -43.979523 26.886103 -27.580256 170.76491
474612500 -18.913 163.54207 -6.7901525 -46.232567 -7.1401286 -28.038263
-6.796288 -46.224373 -27.108423 119.80312 -43.773972 23.762678
-7.1394477 -28.009157 -43.859402 23.965883 -27.491705 169.99747
489600000 -18.898176 162.96779 -6.7899957 -47.712944 -7.1471915 -28.896492
-6.7952399 -47.692993 -27.07732 117.66651 -43.544102 20.497473
-7.1443858 -28.869328 -43.707352 20.175714 -27.424614 169.4707
504587500 -18.876764 162.4343 -6.7893367 -49.190369 -7.1518855 -29.755522
-6.7946091 -49.151287 -27.028522 115.47205 -43.261192 17.397787
-7.1515813 -29.720152 -43.592712 17.221663 -27.362041 169.04706
519575000 -18.857252 161.94075 -6.788949 -50.652199 -7.1572132 -30.62887
-6.7937393 -50.600552 -26.964148 113.30022 -43.130615 14.005651
-7.1572328 -30.561466 -43.370121 14.564115 -27.264662 168.53578
534562500 -18.8321 161.40141 -6.7874279 -52.103146 -7.1611371 -31.489002
-6.793376 -52.068512 -26.884445 111.18757 -43.060677 11.873569
-7.1638956 -31.418249 -43.275051 12.16753 -27.183949 168.12526
549550000 -18.808847 160.87044 -6.7861495 -53.571457 -7.1667733 -32.35775
-6.7913456 -53.517166 -26.807465 109.08833 -42.879929 8.9056025
-7.1669827 -32.260651 -42.989742 9.3902016 -27.126129 167.72723
564537500 -18.787184 160.25381 -6.7860332 -55.029438 -7.1711001 -33.212978
-6.7892981 -54.989159 -26.727348 107.23191 -42.722183 6.0400476
-7.1718879 -33.11919 -42.834164 6.4763603 -27.08934 167.36572
579525000 -18.756737 159.70003 -6.7858553 -56.487335 -7.1773586 -34.068184
-6.7885213 -56.446133 -26.641575 105.40628 -42.595139 3.3194964
-7.1744699 -33.976139 -42.644894 3.8913062 -27.041014 166.82259
594512500 -18.736662 159.16951 -6.7856374 -57.950497 -7.1841474 -34.920639
-6.7864456 -57.908756 -26.554321 103.54359 -42.554134 0.37187833
-7.1773729 -34.827827 -42.521648 1.0775594 -26.998516 166.36841
609500000 -18.709621 158.60092 -6.7858014 -59.432392 -7.1870956 -35.760632
-6.7878675 -59.36702 -26.51335 101.60134 -42.382298 -1.8351357
-7.1817856 -35.666225 -42.364166 -1.4493707 -26.982885 165.95964
624487500 -18.692997 158.0423 -6.7844849 -60.883419 -7.1887164 -36.60564
-6.7855043 -60.828403 -26.435436 99.804039 -42.313148 -4.4184275
-7.1860662 -36.512676 -42.286465 -3.7266858 -26.947401 165.56973
639475000 -18.677132 157.48138 -6.7833681 -62.340408 -7.1932077 -37.459827
-6.7842889 -62.296799 -26.392273 97.913498 -42.257488 -6.4081368
-7.1885362 -37.368683 -42.205101 -6.6109061 -26.921537 165.04425
654462500 -18.661446 156.8849 -6.7818589 -63.809235 -7.1965089 -38.299225
-6.7826805 -63.768616 -26.353956 96.017326 -42.155624 -8.8199816
-7.1921573 -38.210243 -42.17543 -9.421752 -26.900557 164.5265
669450000 -18.646318 156.30022 -6.7814436 -65.28492 -7.201786 -39.141785
-6.7815537 -65.228172 -26.316479 94.108513 -42.079521 -11.804039
-7.1964493 -39.055294 -42.158455 -12.189043 -26.861103 163.93584
684437500 -18.631872 155.7084 -6.7800608 -66.751236 -7.2046914 -39.982994
-6.7799816 -66.711395 -26.269178 92.049904 -42.051506 -14.295002
-7.2015986 -39.901142 -42.122108 -14.757486 -26.846392 163.25336
699425000 -18.611673 155.17429 -6.7767096 -68.21209 -7.2054429 -40.830502
-6.7803597 -68.184494 -26.214283 89.895775 -42.031719 -16.314655
-7.2058096 -40.746643 -42.118992 -16.525352 -26.793922 162.4832
714412500 -18.600142 154.56 -6.776197 -69.689606 -7.2071295 -41.681042
-6.7813959 -69.659782 -26.168215 87.666862 -41.899265 -18.641527
-7.2106957 -41.59388 -42.06221 -18.893539 -26.750612 161.8643
729400000 -18.590265 153.93575 -6.7758918 -71.159279 -7.2090168 -42.524361
-6.7796602 -71.131477 -26.136837 85.562622 -41.78772 -21.091522
-7.2144365 -42.448692 -42.012848 -21.550537 -26.719049 161.21039
744387500 -18.577383 153.36285 -6.7732091 -72.617767 -7.2135053 -43.366833
-6.776083 -72.594948 -26.050507 83.704605 -41.786831 -23.6591
-7.2154155 -43.299519 -42.024708 -23.947966 -26.670179 160.56596
759375000 -18.557867 152.75928 -6.7734847 -74.087265 -7.2157602 -44.218159
-6.7755432 -74.069183 -25.990349 81.694695 -41.727074 -25.510389
-7.2173491 -44.150085 -41.956871 -25.74715 -26.619532 159.80389
774362500 -18.545189 152.1577 -6.77245 -75.572327 -7.2175164 -45.050972
-6.7733603 -75.532356 -25.924406 79.75872 -41.720455 -28.158958
-7.2195368 -44.996162 -41.879845 -27.453583 -26.574015 159.13268
789350000 -18.532112 151.57954 -6.7722955 -77.03434 -7.2201533 -45.897221
-6.7722549 -77.008621 -25.860725 77.843674 -41.683338 -30.361916
-7.2222915 -45.85693 -41.813747 -29.718597 -26.536074 158.52234
804337500 -18.522676 151.01379 -6.7704244 -78.497955 -7.2234812 -46.747402
-6.7705379 -78.487778 -25.805342 75.98954 -41.681908 -32.563877
-7.2226806 -46.706936 -41.731953 -32.009712 -26.495829 157.89816
819325000 -18.508991 150.41991 -6.7698159 -79.97258 -7.2243757 -47.602715
-6.7683454 -79.953072 -25.76269 74.248024 -41.670757 -34.562679
-7.2235484 -47.560978 -41.728092 -34.563965 -26.441643 157.40498
834312500 -18.492798 149.81969 -6.7690301 -81.456596 -7.2289748 -48.448055
-6.7677836 -81.420982 -25.735897 72.297935 -41.552719 -36.789677
-7.2242198 -48.404118 -41.66291 -37.145203 -26.402624 156.88197
849300000 -18.476002 149.19304 -6.7677021 -82.924362 -7.2311764 -49.298321
-6.7665792 -82.891716 -25.721815 70.454857 -41.609131 -39.347691
-7.22609 -49.247124 -41.626381 -39.175739 -26.369553 156.42159
864287500 -18.46195 148.65236 -6.7655916 -84.393707 -7.2341771 -50.143787
-6.7681413 -84.360107 -25.6938 68.480667 -41.570751 -41.344456
-7.2285228 -50.090687 -41.57037 -41.503712 -26.339157 155.90271
879275000 -18.449265 148.07828 -6.765244 -85.880028 -7.2333055 -51.003593
-6.7683296 -85.832985 -25.689625 66.424141 -41.482883 -43.784233
-7.2318344 -50.940479 -41.552731 -44.101643 -26.317875 155.45125
894262500 -18.437757 147.54314 -6.7627559 -87.362274 -7.2348351 -51.853367
-6.7673726 -87.298805 -25.65674 64.519753 -41.462818 -46.45192
-7.2322812 -51.781147 -41.487808 -46.911736 -26.303593 155.06462
909250000 -18.419428 146.99324 -6.7606826 -88.826744 -7.2375441 -52.704037
-6.7676315 -88.772232 -25.628893 62.580326 -41.413532 -48.609516
-7.2349105 -52.632946 -41.484943 -49.374886 -26.286507 154.62112
924237500 -18.407183 146.41411 -6.759594 -90.307823 -7.2395411 -53.555866
-6.7665768 -90.248421 -25.6056 60.654282 -41.38512 -50.707661
-7.2356315 -53.478756 -41.448025 -51.425297 -26.27364 154.1106
939225000 -18.395378 145.86073 -6.7595382 -91.789894 -7.2386518 -54.417305
-6.7686858 -91.720856 -25.575294 58.698933 -41.28368 -52.682198
-7.2396126 -54.325218 -41.339218 -53.20433 -26.2647 153.62874
954212500 -18.384859 145.27589 -6.7588696 -93.266388 -7.2413321 -55.257885
-6.7698479 -93.190071 -25.539074 56.822716 -41.254166 -55.078682
-7.240293 -55.181396 -41.274773 -55.375553 -26.258244 153.07819
969200000 -18.375078 144.74292 -6.7589741 -94.731331 -7.2416396 -56.109982
-6.7683678 -94.670677 -25.489687 55.04689 -41.27055 -57.398289
-7.240757 -56.042912 -41.282509 -57.687096 -26.248348 152.48473
984187500 -18.366983 144.3121 -6.758173 -96.195824 -7.2408447 -56.943195
-6.7659259 -96.148842 -25.429218 53.290485 -41.235313 -59.114243
-7.2413106 -56.910873 -41.309742 -59.955818 -26.233189 151.91026
999175000 -18.354269 143.77725 -6.7566199 -97.680351 -7.2405362 -57.802868
-6.7643471 -97.620964 -25.387442 51.568886 -41.306473 -61.118015
-7.2426724 -57.762131 -41.34726 -61.774593 -26.195278 151.29185
1014162500 -18.341362 143.24138 -6.7549086 -99.153587 -7.2428164 -58.662678
-6.7631478 -99.097343 -25.358841 49.777164 -41.316463 -62.860924
-7.2432294 -58.618462 -41.30447 -63.474491 -26.15424 150.69583
1029150000 -18.327188 142.71315 -6.7542658 -100.62789 -7.2438526 -59.524971
-6.7642641 -100.57453 -25.346973 47.988743 -41.260551 -64.448433
-7.2453346 -59.481632 -41.274448 -64.90593 -26.111835 150.14534
1044137500 -18.323463 142.17986 -6.7540627 -102.09305 -7.2426496 -60.382465
-6.7644114 -102.06028 -25.325541 46.273476 -41.231083 -66.483871
-7.2472439 -60.342659 -41.313335 -66.938972 -26.062849 149.54401
1059125000 -18.310909 141.69533 -6.7529211 -103.56957 -7.2417655 -61.237434
-6.7644615 -103.52547 -25.299999 44.463547 -41.276474 -68.743668
-7.2473526 -61.197453 -41.314762 -68.676544 -26.021568 148.91948
1074112500 -18.295788 141.12984 -6.7513962 -105.05407 -7.2416139 -62.087009
-6.7594104 -104.99298 -25.266794 42.642578 -41.325768 -70.62291
-7.2455025 -62.055481 -41.394608 -70.793114 -25.967693 148.31999
1089100000 -18.27841 140.62943 -6.7507391 -106.531 -7.2423801 -62.965908
-6.7592783 -106.47195 -25.257421 40.762547 -41.27879 -72.399834
-7.248095 -62.902401 -41.38871 -72.631897 -25.92824 147.74908
1104087500 -18.261066 140.1188 -6.7494402 -108.01178 -7.243804 -63.827114
-6.7591686 -107.94424 -25.238546 38.951702 -41.307369 -74.445305
-7.2494373 -63.768955 -41.4165 -74.460709 -25.881227 147.27713
1119075000 -18.245125 139.54041 -6.7501731 -109.49924 -7.245997 -64.700424
-6.7605462 -109.41895 -25.211897 37.157246 -41.350323 -76.42247
-7.2515025 -64.629242 -41.455517 -76.356033 -25.83046 146.73538
1134062500 -18.225794 139.05724 -6.7517629 -110.97654 -7.2478905 -65.570778
-6.7593937 -110.88955 -25.175497 35.418079 -41.348976 -78.140396
-7.2511926 -65.488205 -41.44371 -78.263306 -25.80353 146.25349
1149050000 -18.20252 138.52998 -6.7523384 -112.4576 -7.2491765 -66.426788
-6.7585301 -112.36364 -25.139832 33.726391 -41.340164 -80.276871
-7.2516603 -66.346375 -41.406261 -80.461143 -25.770346 145.79185
1164037500 -18.183126 137.99342 -6.753099 -113.93606 -7.2524295 -67.287804
-6.7577462 -113.84285 -25.118597 32.011299 -41.313293 -82.358978
-7.2524567 -67.209732 -41.366119 -82.652596 -25.743196 145.17921
1179025000 -18.158421 137.48599 -6.7529778 -115.43289 -7.2543569 -68.151062
-6.7577119 -115.31677 -25.081448 30.286709 -41.349472 -84.085854
-7.2529292 -68.071083 -41.32584 -84.795929 -25.709436 144.705
1194012500 -18.136183 136.96815 -6.754612 -116.91124 -7.256165 -69.002052
-6.7596507 -116.79182 -25.054443 28.679977 -41.272785 -86.067726
-7.2547574 -68.938103 -41.344681 -87.374855 -25.668829 144.35274
1209000000 -18.106745 136.51036 -6.7563119 -118.37684 -7.2585826 -69.860054
-6.7612095 -118.26816 -25.03829 27.106218 -41.274666 -88.29364
-7.2568531 -69.812126 -41.322525 -89.609947 -25.646177 143.90662
1223987500 -18.073267 136.00108 -6.7558627 -119.85677 -7.2574244 -70.717148
-6.7613444 -119.74946 -25.004524 25.529753 -41.287117 -90.542511
-7.2566295 -70.694458 -41.376328 -91.402214 -25.60763 143.43918
1238975000 -18.051147 135.4819 -6.7579923 -121.33994 -7.2584276 -71.583313
-6.7623563 -121.22498 -24.984993 23.883865 -41.256626 -92.093094
-7.25876 -71.55616 -41.30825 -93.269058 -25.581335 142.92415
1253962500 -18.018 135.02625 -6.7558966 -122.81941 -7.2592931 -72.46476
-6.763041 -122.69509 -24.976915 22.274666 -41.236443 -94.558716
-7.2592797 -72.417839 -41.278244 -95.441994 -25.536602 142.43443
1268950000 -17.987659 134.49611 -6.758059 -124.29517 -7.2618446 -73.326385
-6.7635751 -124.18332 -24.966688 20.536678 -41.240627 -97.001534
-7.2612896 -73.297638 -41.258629 -97.303001 -25.487518 141.87752
1283937500 -17.954266 134.01996 -6.7594066 -125.77122 -7.2632289 -74.203217
-6.7648506 -125.66148 -24.947205 18.773912 -41.269367 -98.868919
-7.2625704 -74.175346 -41.296597 -99.044456 -25.441111 141.25688
1298925000 -17.920317 133.54153 -6.7604342 -127.2501 -7.2646346 -75.069122
-6.7661858 -127.13891 -24.916725 17.050516 -41.301117 -100.41422
-7.264329 -75.041946 -41.332047 -100.98958 -25.386234 140.83116
1313912500 -17.883167 133.00064 -6.7617688 -128.72316 -7.2651963 -75.948158
-6.7671852 -128.61586 -24.893267 15.335281 -41.29681 -102.61893
-7.2659006 -75.915932 -41.348362 -102.70411 -25.336721 140.26744
1328900000 -17.848354 132.48726 -6.7625318 -130.20296 -7.2670565 -76.831612
-6.768292 -130.09718 -24.865326 13.673641 -41.296047 -104.52771
-7.2691064 -76.786514 -41.349136 -104.24293 -25.28215 139.71751
1343887500 -17.813982 132.00558 -6.762579 -131.68352 -7.2698841 -77.716599
-6.771174 -131.57747 -24.829954 11.938925 -41.261723 -106.13828
-7.2710419 -77.653046 -41.329033 -105.79877 -25.228382 139.23773
1358875000 -17.773726 131.50809 -6.7641954 -133.16061 -7.2737608 -78.590401
-6.7719831 -133.06412 -24.798931 10.203891 -41.311306 -107.78449
-7.2734332 -78.520432 -41.285942 -107.35571 -25.182327 138.77322
1373862500 -17.733025 131.00763 -6.7648129 -134.63808 -7.2769279 -79.473602
-6.7732468 -134.55357 -24.771826 8.5071974 -41.310627 -109.56909
-7.2760515 -79.39666 -41.338085 -108.87784 -25.130556 138.26784
1388850000 -17.695017 130.47404 -6.76824 -136.12871 -7.2812057 -80.34597
-6.7751513 -136.03876 -24.739449 6.7817826 -41.273838 -110.70856
-7.2796006 -80.277847 -41.310287 -110.5499 -25.089655 137.72932
1403837500 -17.663502 129.97813 -6.7659636 -137.60916 -7.2818232 -81.208481
-6.779747 -137.51498 -24.712599 5.1524644 -41.261131 -112.56053
-7.2835593 -81.146156 -41.277145 -112.60318 -25.037081 137.24271
1418825000 -17.631084 129.49525 -6.7661614 -139.08684 -7.2835846 -82.07679
-6.7818079 -139.00165 -24.677734 3.5351424 -41.252213 -114.24936
-7.2868695 -82.015411 -41.258244 -114.45545 -24.982546 136.7896
1433812500 -17.587269 128.97894 -6.7678051 -140.5715 -7.2843633 -82.941589
-6.782248 -140.47682 -24.636835 1.8652239 -41.371197 -116.27168
