! MARKI MICROWAVE INC.
! Email:             	info@markimicrowave.com   				Phone:   408-778-4200
! Model Number:      	PD0140							Date:    07/11
! Filename:		PD-0140.S3P						Version: 1.0
! Description:       	3-port S-parameter data for Power Divider PD0165
! Frequency Range: 	1 GHz to 40 GHz		
! Port Configuration:	PORT 1: COMMON, PORT 2 and Port 3: Output


! S3P File: Measurements: Mag<S11> Ang<S11> Mag<S12> Ang<S12> Mag<S13> Ang<S13>! row 1 
!			  Mag<S21> Ang<S21> Mag<S22> Ang<S22> Mag<S23> Ang<S23>! row 2 
!			  Mag<S31> Ang<S31> Mag<S32> Ang<S32> Mag<S33> Ang<S33>! row 3 


# GHz S DB R 50




1	-12.8209	81.3536		-3.30578	-101.007	-3.32644	-100.971
	-3.30963	-100.978	-24.9241	1.15098		-12.7783	174.202
	-3.33085	-100.946	-12.7818	174.23		-24.5178	2.20529
1.15	-14.0135	65.5096		-3.252		-116.462	-3.27117	-116.406
	-3.25569	-116.435	-28.9193	-7.94215	-14.4558	152.165
	-3.27525	-116.383	-14.4592	152.191		-28.1371	-6.55471
1.3	-15.6022	48.8101		-3.2049		-132.006	-3.22151	-131.937	
	-3.20824	-131.981	-33.3		-5.44271	-16.3362	131.158
	-3.2253		-131.913	-16.3397	131.183		-31.9044	-5.81556
1.45	-17.74		30.5518		-3.16907	-147.617	-3.18261	-147.545
	-3.17284	-147.596	-36.6161	9.04594		-18.4915	111.8
	-3.1866		-147.524	-18.4953	111.819		-34.7645	3.66448
1.6	-20.648		8.76344		-3.14493	-163.262	-3.15641	-163.199
	-3.14926	-163.244	-38.07		26.1458		-20.9803	95.386	
	-3.1607		-163.178	-20.9847	95.4062		-36.1673	14.0059
1.75	-24.3678	-22.7298	-3.13304	-178.918	-3.14405	-178.865
	-3.13799	-178.9		-38.2354	35.4124		-23.7185	84.4112
	-3.14855	-178.844	-23.7226	84.4346		-36.6259	17.0196
1.9	-27.2297	-69.7327	-3.13099	165.443		-3.14276	165.489	
	-3.13589	165.461		-39.0251	32.3725		-26.1329	81.4336
	-3.14726	165.51		-26.137		81.465		-37.3777	7.69059
2.05	-27.7217	-122.488	-3.13786	149.829		-3.15017	149.878	
	-3.14264	149.847		-41.3755	22.2831		-27.3073	84.3298
	-3.15505	149.898		-27.3114	84.3631		-38.8477	-11.001
2.2	-25.8645	-168.365	-3.15004	134.257		-3.16286	134.311
	-3.15504	134.277		-46.5885	-4.39059	-26.9053	86.4542
	-3.16769	134.331		-26.9085	86.4855		-40.4258	-40.501
2.35	-23.4502	160.953		-3.16493	118.725		-3.17769	118.783	
	-3.17012	118.747		-49.226		-62.7275	-25.461		81.7491
	-3.18266	118.803		-25.464		81.7735		-40.8119	-76.8733
2.5	-21.8019	138.621		-3.18005	103.234		-3.19288	103.293
	-3.18538	103.26		-48.0148	-125.57		-23.9117	69.4429	
	-3.19792	103.317		-23.9147	69.4686		-39.6522	-114.051
2.65	-20.8532	119.193		-3.19362	87.7724		-3.20635	87.8331
	-3.19846	87.7986		-42.5601	-174.346	-22.7151	52.4428	
	-3.21132	87.8569		-22.7187	52.4694		-37.4733	-143.987
2.8	-20.4123	100.897		-3.20509	72.3304		-3.2183		72.3931
	-3.20936	72.3582		-38.2795	168.133		-21.9289	32.9998	
	-3.22278	72.4186		-21.9318	33.0297		-35.3769	-165.042
2.95	-20.3635	82.7005		-3.21359	56.8965		-3.22756	56.9642	
	-3.21776	56.9305		-36.043		156.483		-21.5208	12.3376	
	-3.2314		56.9938		-21.5219	12.3733		-33.886		179.558
3.1	-20.602		64.0043		-3.21974	41.4637		-3.23416	41.5367	
	-3.22377	41.5046		-34.8314	146.329		-21.4593	-8.80613
	-3.23781	41.5731		-21.4601	-8.76442	-32.9942	167.212
3.25	-21.0665	44.3966		-3.2237		26.0234		-3.23842	26.1029	
	-3.22781	26.0692		-34.4416	136.92		-21.7236	-29.8684
	-3.24202	26.1456		-21.7249	-29.8222	-32.7307	156.885
3.4	-21.6927	23.5235		-3.22695	10.5725		-3.24144	10.6581
	-3.23095	10.6167		-34.7651	128.459		-22.3015	-50.3039	
	-3.24501	10.7015		-22.3031	-50.2556	-33.0497	148.629
3.55	-22.418		1.17305		-3.23004	-4.88926	-3.24371	-4.79895	
	-3.23444	-4.84373	-35.8279	121.541		-23.1752	-69.4493
	-3.24759	-4.75412	-23.1771	-69.3944	-33.9385	143.344
3.7	-23.1795	-22.8152	-3.23259	-20.358		-3.24543	-20.2671	
	-3.23722	-20.313		-37.7053	117.335		-24.2943	-86.3802
	-3.24953	-20.2233	-24.2971	-86.3261	-35.2602	142.491
3.85	-23.9321	-48.6993	-3.23483	-35.8338	-3.24751	-35.7445
	-3.23935	-35.7932	-40.4781	120.481		-25.5097	-100.096
	-3.25139	-35.7056	-25.5128	-100.048	-36.5958	147.933
4	-24.621		-76.73		-3.23793	-51.3203	-3.25124	-51.2308	
	-3.24202	-51.2879	-42.8647	136.85		-26.5343	-110.167
	-3.2543		-51.2005	-26.5369	-110.131	-37.2299	158.424
4.15	-25.152		-107.268	-3.24328	-66.8225	-3.25718	-66.73	
	-3.2471		-66.7952	-43.2915	159.15		-27.0432	-117.701
	-3.25995	-66.7053	-27.0459	-117.668	-36.7673	169.211
4.3	-25.3503	-139.855	-3.25128	-82.3362	-3.26573	-82.2388	
	-3.25453	-82.3096	-41.5027	175.817		-26.9016	-125.125
	-3.26794	-82.214		-26.9044	-125.087	-35.4348	174.774
4.45	-25.056		-173.36		-3.26195	-97.8538	-3.27658	-97.7504
	-3.26467	-97.8366	-38.8531	177.607		-26.2601	-134.741
	-3.27854	-97.7347	-26.2619	-134.712	-33.8894	173.346
4.6	-24.2408	154.222		-3.27465	-113.36		-3.28974	-113.249
	-3.27759	-113.356	-36.7432	168.924		-25.4208	-147.443	
	-3.29189	-113.246	-25.421		-147.425	-32.5436	166.266
4.75	-23.0602	124.528		-3.28893	-128.85		-3.30415	-128.73
	-3.29267	-128.859	-35.1608	154.63		-24.6238	-162.752
	-3.30713	-128.742	-24.6232	-162.753	-31.4875	155.079
4.9	-21.7799	98.2876		-3.30329	-144.326	-3.31878	-144.195
	-3.3078		-144.33		-33.866		137.092		-23.9748	-179.809
	-3.32255	-144.204	-23.9751	-179.807	-30.6614	140.877
5.05	-20.6127	75.2368		-3.31749	-159.789	-3.33266	-159.646
	-3.32183	-159.788	-32.6449	117.948		-23.494		162.103
	-3.33616	-159.653	-23.4958	162.106		-29.9741	124.513
5.2	-19.6865	54.7549		-3.32978	-175.24		-3.34434	-175.086
	-3.33422	-175.236	-31.43		98.4425		-23.1725	143.414	
	-3.34802	-175.089	-23.1759	143.419		-29.3411	106.683
5.35	-19.0629	36.2874		-3.3397		169.32		-3.35333	169.484
	-3.34436	169.323		-30.1863	79.2212		-22.9976	124.369
	-3.35705	169.481		-23.0021	124.369		-28.6931	87.9353
5.5	-18.7657	19.3101		-3.34657	153.881		-3.35881	154.052
	-3.3511		153.885		-29.0084	60.7734		-22.9727	105.092	
	-3.36272	154.051		-22.9765	105.094		-28.046		68.9466
5.65	-18.8192	3.36989		-3.35106	138.436		-3.36169	138.611
	-3.35498	138.441		-27.9472	43.42		-23.1071	85.7466	
	-3.36511	138.612		-23.1103	85.7461		-27.4126	50.3553
5.8	-19.2299	-11.9366	-3.35328	122.977		-3.36214	123.155		
	-3.35653	122.982		-27.0807	27.2969		-23.4253	66.5742	
	-3.36542	123.153		-23.4269	66.5803		-26.8643	32.5706
5.95	-20.0449	-26.9847	-3.35376	107.496		-3.3612		107.675	
	-3.35711	107.501		-26.4577	12.3512		-23.9451	48.0264	
	-3.3648		107.672		-23.9464	48.0347		-26.4619	15.7441
6.1	-21.3379	-42.2673	-3.35349	91.992		-3.35985	92.1704
	-3.35684	91.996		-26.1292	-1.48774	-24.6617	30.7639	
	-3.36369	92.1652		-24.6628	30.7742		-26.2785	-0.0921337
6.25	-23.2562	-58.7471	-3.35334	76.4648		-3.35901	76.6414		
	-3.35774	76.4649		-26.1248	-14.1798	-25.502		15.6464	
	-3.36348	76.635		-25.5055	15.6493		-26.3707	-14.9014
6.4	-26.0793	-79.2377	-3.3547		60.9177		-3.35963	61.092
	-3.3599		60.9186		-26.4611	-25.4505	-26.2873	3.40287
	-3.36495	61.0881		-26.2929	3.4012		-26.7849	-28.584
6.55	-29.6259	-112.671	-3.35814	45.3549		-3.36244	45.528
	-3.36412	45.3571		-27.1559	-34.6867	-26.7293	-6.16757
	-3.36849	45.5255		-26.7365	-6.17117	-27.5805	-40.7275
6.7	-31.4488	-162.252	-3.36371	29.7787		-3.36751	29.9495
	-3.36956	29.7858		-28.2067	-40.5362	-26.5963	-14.7716
	-3.37355	29.951		-26.6028	-14.77		-28.8428	-50.2454
6.85	-30.3422	145.785		-3.37212	14.1879		-3.37557	14.3564	
	-3.37779	14.1944		-29.4116	-41.0192	-25.8896	-24.8947
	-3.38139	14.3582		-25.8941	-24.8935	-30.5896	-54.6278
7	-26.7937	105.354		-3.38391	-1.41226	-3.38705	-1.24542
	-3.3891		-1.40445	-30.1753	-35.1596	-24.8634	-38.3026
	-3.39236	-1.24191	-24.8668	-38.3007	-32.2973	-50.2468
7.15	-23.3306	81.2374		-3.39983	-17.0155	-3.40261	-16.8479
	-3.40438	-17.0073	-29.8189	-26.1554	-23.8334	-55.1767
	-3.40737	-16.8461	-23.8359	-55.176		-32.8089	-38.1238
7.3	-20.8735	63.0224		-3.41986	-32.6016	-3.42241	-32.4334
	-3.42326	-32.5989	-28.2933	-19.2764	-23.0089	-74.6955
	-3.42575	-32.4392	-23.0116	-74.6936	-31.5645	-25.4078
7.45	-19.1117	46.4756		-3.44288	-48.1617	-3.44515	-47.9957
	-3.44633	-48.1617	-26.1067	-18.3519	-22.4801	-95.875
	-3.44801	-48.0036	-22.4817	-95.8743	-29.0101	-19.5789
7.6	-17.8658	30.4828		-3.4674		-63.6841	-3.46934	-63.5206
	-3.47012	-63.6887	-23.9558	-22.8316	-22.2774	-117.905
	-3.47165	-63.5323	-22.2776	-117.912	-26.3093	-22.1927
7.75	-17.0447	14.505		-3.49017	-79.1684	-3.49177	-79.0089
	-3.49269	-79.1753	-22.1207	-30.4566	-22.4079	-140.149
	-3.49395	-79.0218	-22.4078	-140.16		-24.0604	-29.5299
7.9	-16.6052	-1.74342	-3.50863	-94.6186	-3.50991	-94.4636	
	-3.51087	-94.6318	-20.716		-39.5819	-22.881		-161.977
	-3.512		-94.4833	-22.8809	-161.999	-22.3731	-38.7607
8.05	-16.5392	-18.6503	-3.51981	-110.051	-3.52088	-109.903
	-3.5222		-110.074	-19.7194	-49.2404	-23.6995	177.329
	-3.52294	-109.934	-23.6997	177.301		-21.1838	-48.6241
8.2	-16.8678	-36.5624	-3.52187	-125.489	-3.52312	-125.351
	-3.5249		-125.521	-19.1183	-58.8072	-24.8436	158.827
	-3.52562	-125.389	-24.8452	158.793		-20.4472	-58.2735
8.35	-17.647		-56.0513	-3.51487	-140.966	-3.51686	-140.838
	-3.51848	-141.004	-18.9077	-67.6246	-26.1968	143.955
	-3.52028	-140.883	-26.197		143.926		-20.1442	-67.0243
8.5	-18.9342	-78.3035	-3.50156	-156.511	-3.50518	-156.395	
	-3.50612	-156.557	-19.0975	-75.0743	-27.4154	133.948
	-3.50956	-156.446	-27.4149	133.916		-20.2663	-74.0753
8.65	-20.6848	-105.96		-3.48841	-172.161	-3.49463	-172.052
	-3.49368	-172.208	-19.6681	-80.1648	-27.9905	127.904	
	-3.49941	-172.107	-27.9892	127.859		-20.7725	-78.3285
8.8	-22.3649	-142.844	-3.48738	172.085		-3.49687	172.186
	-3.49305	172.03		-20.5323	-81.4914	-27.6353	122.327	
	-3.50145	172.127		-27.6373	122.273		-21.5022	-78.344
8.95	-22.945		172.797		-3.51134	156.299		-3.52531	156.397	
	-3.51745	156.243		-21.3799	-77.8858	-26.5438	113.423
	-3.52995	156.335		-26.5475	113.356		-22.0722	-73.4808
9.1	-21.9104	128.884		-3.55591	140.636		-3.57526	140.743
	-3.56201	140.573		-21.7345	-70.2141	-25.2091	99.6641
	-3.58011	140.674		-25.2131	99.605		-22.0321	-65.5715
9.25	-19.748		92.4447		-3.59645	125.126		-3.62075	125.264
	-3.60274	125.062		-21.3059	-61.7301	-24.0178	82.0427	
	-3.6261		125.189		-24.0225	81.9796		-21.2357	-58.2129
9.4	-17.554		64.7472		-3.62243	109.676		-3.64943	109.858
	-3.62887	109.613		-20.2732	-56.056		-23.1036	62.0385	
	-3.65487	109.782		-23.1092	61.979		-19.9921	-54.5332
9.55	-15.908		41.8711		-3.63901	94.2028		-3.66595	94.4275	
	-3.64524	94.1397		-19.1246	-54.6825	-22.486		40.6927	
	-3.6713		94.3529		-22.4918	40.6277		-18.7872	-55.1253
9.7	-14.8767	21.7658		-3.65898	78.7295		-3.68453	78.9889
	-3.66557	78.6613		-18.2649	-56.7549	-22.1482	18.6037
	-3.69029	78.911		-22.1531	18.5355		-17.9444	-58.8454
9.85	-14.3779	3.03915		-3.67557	63.3163		-3.69908	63.6061
	-3.68217	63.2395		-17.8717	-60.7502	-22.0826	-3.84991
	-3.70505	63.5202		-22.0869	-3.92661	-17.5866	-64.3099
10	-14.4139	-15.061		-3.6795		47.9356		-3.70036	48.2542
	-3.68683	47.8556		-18.0056	-65.3023	-22.2916	-26.3578
	-3.7071		48.164		-22.2963	-26.4425	-17.7687	-70.4372
10.15	-15.0262	-33.0142	-3.66852	32.5315		-3.68581	32.8722
	-3.67568	32.4513		-18.7134	-69.0696	-22.7928	-48.5927
	-3.69206	32.7822		-22.7969	-48.6769	-18.5667	-76.2489
10.3	-16.3304	-51.4776	-3.6466		17.048		-3.65936	17.4064
	-3.65344	16.9672		-20.0059	-70.2119	-23.6162	-70.0621
	-3.66552	17.3125		-23.6206	-70.1457	-20.0918	-80.2429
10.45	-18.5957	-71.9917	-3.62069	1.45853		-3.62861	1.82214	
	-3.62631	1.37855		-21.6859	-66.1088	-24.797		-89.9334
	-3.6337		1.73128		-24.7995	-90.0108	-22.3975	-79.3234
10.6	-22.2433	-100.434	-3.60009	-14.2356	-3.603		-13.8743
	-3.60383	-14.3195	-23.1039	-55.111		-26.3208	-106.673
	-3.60663	-13.9709	-26.3213	-106.758	-24.9402	-68.3018
10.75	-25.7027	-149.351	-3.59083	-29.9924	-3.59028	-29.6451
	-3.59428	-30.0801	-23.4965	-40.2712	-27.9529	-118.108	
	-3.593		-29.7419	-27.9523	-118.184	-26.267		-48.0783
10.9	-26.3265	152.349		-3.59593	-45.7651	-3.593		-45.4367	
	-3.59933	-45.8613	-22.7794	-27.6616	-29.0721	-123.499
	-3.59522	-45.5418	-29.0711	-123.579	-25.7743	-27.6157
11.05	-23.9859	99.7724		-3.61276	-61.5001	-3.60936	-61.1912	
	-3.61719	-61.5978	-21.5825	-21.7403	-29.0794	-126.243
	-3.61192	-61.2968	-29.0791	-126.32		-24.0772	-15.9421
11.2	-20.5656	68.2813		-3.6356		-77.1672	-3.63252	-76.8771
	-3.63967	-77.269		-20.742		-22.0111	-27.9708	-131.785	
	-3.63459	-76.9884	-27.9702	-131.872	-22.6869	-14.4303
11.35	-18.5379	48.6974		-3.65767	-92.7631	-3.65578	-92.4859
	-3.66199	-92.8706	-20.6225	-25.4511	-26.3405	-143.644
	-3.65829	-92.6038	-26.3407	-143.746	-22.2604	-17.4469
11.5	-17.6271	32.8911		-3.67316	-108.31		-3.67305	-108.04
	-3.677		-108.419	-21.3378	-29.5007	-24.8391	-161.213
	-3.67527	-108.162	-24.8398	-161.318	-22.833		-21.0527
11.65	-17.5242	18.9774		-3.68011	-123.846	-3.68193	-123.576
	-3.68437	-123.957	-22.9732	-31.4971	-23.7289	177.729	
	-3.68515	-123.702	-23.7319	177.614		-24.4064	-21.9413
11.8	-18.1093	6.65544		-3.67889	-139.398	-3.68302	-139.123
	-3.68345	-139.507	-25.438		-26.3442	-23.053		154.796
	-3.68636	-139.248	-23.0576	154.683		-26.7056	-14.7169
11.95	-19.3785	-3.79639	-3.67284	-154.99		-3.67872	-154.703
	-3.67788	-155.101	-27.5011	-9.02308	-22.8017	130.973	
	-3.68284	-154.83		-22.8075	130.856		-28.3494	3.76898
12.1	-21.4003	-10.9799	-3.6653		-170.628	-3.67226	-170.325
	-3.67024	-170.731	-27.7281	13.8704		-22.9707	106.943
	-3.67593	-170.441	-22.975		106.832		-28.204		25.8257
12.25	-24.0771	-11.7179	-3.65997	173.695		-3.66678	174.014
	-3.66438	173.587		-26.0253	31.619		-23.5702	83.3447	
	-3.66994	173.895		-23.5723	83.2359		-26.3925	41.3175
12.4	-26.6219	-2.54913	-3.65899	157.992		-3.66489	158.326
	-3.66275	157.884		-23.6943	36.5187		-24.6273	61.0237
	-3.66737	158.206		-24.6286	60.9142		-24.3145	44.7296
12.55	-27.9237	12.843		-3.66224	142.289		-3.66687	142.634	
	-3.6648		142.16		-22.0752	32.6648		-26.1606	41.3935	
	-3.66791	142.492		-26.1609	41.2669		-23.0206	40.8851
12.7	-27.764		26.4531		-3.66769	126.599		-3.67092	126.951
	-3.66955	126.456		-21.2828	25.2978		-28.0531	26.8556
	-3.67123	126.791		-28.052		26.7148		-22.5641	34.2115
12.85	-26.9592	32.3383		-3.67219	110.922		-3.67421	111.275
	-3.67205	110.757		-21.1559	16.4056		-29.7508	19.7488	
	-3.6724		111.093		-29.7466	19.5693		-22.8312	26.4905
13	-26.611		31.9227		-3.67382	95.2456		-3.67512	95.5985
	-3.67373	95.0594		-21.5737	6.94379		-30.4022	18.1287
	-3.67363	95.3942		-30.3991	17.9271		-23.7359	18.8265
13.15	-26.9605	30.0501		-3.67308	79.5498		-3.67459	79.902
	-3.67212	79.3319		-22.4364	-2.42814	-29.6783	15.9649
	-3.67183	79.6679		-29.6766	15.7321		-25.2011	12.3751
13.3	-27.8666	29.273		-3.67208	63.8267		-3.67393	64.1806
	-3.67199	63.5689		-23.5904	-10.825		-28.0504	7.62824
	-3.67219	63.9078		-28.0499	7.37224		-27.0057	8.67055
13.45	-29.1205	31.7137		-3.67324	48.0766		-3.67539	48.4364
	-3.67313	47.7947		-24.8171	-17.3038	-26.3746	-7.71933
	-3.67355	48.1392		-26.3724	-7.99878	-28.6783	8.82738
13.6	-30.3207	39.0427		-3.6779		32.3105		-3.67992	32.6798
	-3.67902	32.0156		-25.7877	-21.3696	-25.0964	-27.4488
	-3.67964	32.367		-25.0943	-27.7446	-29.5779	11.37
13.75	-30.8473	50.8257		-3.6867		16.5369		-3.68844	16.9155
	-3.68859	16.2381		-26.185		-23.6363	-24.2839	-49.3101
	-3.68884	16.5991		-24.2829	-49.6129	-29.3825	12.7262
13.9	-30.1822	62.7232		-3.69916	0.765637	-3.70051	1.15469		
	-3.70086	0.456061	-25.8435	-25.5589	-23.902		-72.0267
	-3.7006		0.825494	-23.9016	-72.3397	-28.2326	9.65899
14.05	-28.543		69.3495		-3.71551	-14.9965	-3.71572	-14.5993
	-3.71746	-15.3114	-24.9026	-28.5334	-23.917		-94.8188
	-3.71657	-14.9323	-23.9168	-95.1317	-26.6099	1.9835
14.2	-26.5424	68.1435		-3.73477	-30.7378	-3.73365	-30.3308
	-3.73727	-31.0565	-23.6474	-33.0237	-24.3031	-117.028
	-3.73555	-30.6704	-24.3027	-117.347	-24.878		-8.32488
14.35	-24.7637	60.288		-3.75635	-46.4504	-3.75378	-46.0385
	-3.76061	-46.7638	-22.3661	-38.627		-25.0398	-137.96	
	-3.75784	-46.3712	-25.0408	-138.274	-23.2481	-19.1961
14.5	-23.4004	47.8048		-3.77686	-62.1236	-3.77314	-61.7081
	-3.78187	-62.4296	-21.2071	-44.5676	-26.0808	-156.669	
	-3.77757	-62.0346	-26.0832	-156.984	-21.8085	-29.4451
14.65	-22.4831	32.1741		-3.79205	-77.758		-3.78713	-77.3431
	-3.79658	-78.0547	-20.2322	-50.1195	-27.3067	-172.032
	-3.79099	-77.66		-27.3091	-172.333	-20.5766	-38.4623
14.8	-22.0077	14.8607		-3.79761	-93.3829	-3.79146	-92.9718
	-3.80133	-93.6802	-19.4161	-54.909		-28.4452	176.975
	-3.7948		-93.2901	-28.447		176.671		-19.5291	-46.2244
14.95	-21.8827	-3.25661	-3.79454	-109.043	-3.78777	-108.639	
	-3.79813	-109.358	-18.7179	-58.9703	-29.0582	169.957
	-3.79149	-108.974	-29.0617	169.634		-18.6359	-52.9161
15.1	-22.0289	-22.0147	-3.78841	-124.774	-3.78234	-124.376
	-3.79322	-125.116	-18.1142	-62.4478	-28.8108	164.124	
	-3.78753	-124.736	-28.8161	163.763		-17.8979	-58.8286
15.25	-22.4499	-42.4083	-3.78592	-140.566	-3.78119	-140.169
	-3.79202	-140.942	-17.6231	-65.4812	-27.7677	155.683	
	-3.78789	-140.561	-27.7743	155.29		-17.331		-64.0971
15.4	-23.204		-66.0913	-3.78986	-156.396	-3.78682	-155.99
	-3.79729	-156.795	-17.2452	-68.0267	-26.3632	142.339
	-3.79486	-156.408	-26.3695	141.925		-16.9426	-68.6467
15.55	-24.2501	-95.6233	-3.80007	-172.24		-3.79771	-171.821	
	-3.80871	-172.66		-16.96		-70.0801	-25.0617	124.425	
	-3.80703	-172.259	-25.0694	123.996		-16.7089	-72.4399
15.7	-25.0109	-133.118	-3.81714	171.912		-3.81471	172.348	
	-3.826		171.477		-16.7103	-71.5743	-24.1026	103.506
	-3.82423	171.895		-24.1101	103.063		-16.5757	-75.2955
15.85	-24.6924	-175.664	-3.84142	156.066		-3.83748	156.515	
	-3.84905	155.617		-16.4399	-72.5886	-23.5511	80.9942
	-3.84586	156.051		-23.5555	80.533		-16.4743	-77.2005
16	-23.0698	143.183		-3.8735		140.237		-3.86796	140.698	
	-3.8798		139.78		-16.1186	-73.4049	-23.4128	57.8717
	-3.87467	140.222		-23.4163	57.4045		-16.3441	-78.3605
16.15	-20.7415	109.026		-3.91327	124.451		-3.90597	124.92
	-3.91912	123.988		-15.7247	-74.5323	-23.6798	35.0148
	-3.91176	124.435		-23.6854	34.5329		-16.1286	-79.2819
16.3	-18.5918	81.8584		-3.95858	108.751		-3.94932	109.222	
	-3.96465	108.282		-15.2919	-76.3811	-24.3319	13.2095
	-3.95569	108.73		-24.3401	12.722		-15.8289	-80.5326
16.45	-17.0247	58.9359		-4.00285	93.1616		-3.99185	93.6277
	-4.00968	92.7026		-14.8608	-79.1552	-25.3307	-6.65135
	-3.99911	93.1453		-25.3391	-7.13541	-15.4763	-82.5209
16.6	-16.0955	38.0906		-4.03605	77.67		-4.02331	78.1268	
	-4.04236	77.2291		-14.4967	-82.92		-26.6004	-23.4101
	-4.03065	77.6677		-26.6066	-23.8724	-15.1393	-85.4732
16.75	-15.7873	18.1963		-4.04995	62.2211		-4.03702	62.6663	
	-4.05635	61.8027		-14.2442	-87.5045	-27.9245	-35.6417
	-4.04408	62.2279		-27.9301	-36.0811	-14.8775	-89.319
16.9	-16.0955	-1.68411	-4.04447	46.7414		-4.03164	47.1712
	-4.05075	46.3355		-14.1386	-92.6984	-28.8356	-42.8339
	-4.03818	46.7478		-28.8411	-43.2623	-14.7437	-93.8489
17.05	-17.0629	-22.705		-4.02569	31.1736		-4.01409	31.59
	-4.03291	30.7841		-14.2129	-98.0271	-28.8302	-47.5265
	-4.02085	31.1778		-28.8378	-47.933		-14.7813	-98.599
17.2	-18.7473	-47.0827	-4.00298	15.4927		-3.99304	15.8976
	-4.01067	15.117		-14.4762	-102.996	-27.8556	-54.1996
	-3.99995	15.4974		-27.8626	-54.5845	-15.0055	-102.976
17.35	-20.9713	-79.3742	-3.984		-0.292564	-3.97702	0.106783
	-3.99196	-0.658453	-14.8975	-106.877	-26.3654	-66.1538
	-3.98395	-0.285728	-26.3703	-66.5297	-15.3785	-106.228
17.5	-22.5894	-122.464	-3.97556	-16.1565	-3.97184	-15.7584
	-3.98345	-16.521		-15.3682	-109.175	-24.9518	-83.3453	
	-3.97917	-16.1479	-24.9556	-83.7153	-15.7819	-107.839
17.65	-22.4765	-170.253	-3.98173	-32.0496	-3.98131	-31.6455
	-3.98947	-32.4303	-15.7385	-109.824	-23.9116	-103.752
	-3.98906	-32.0522	-23.9163	-104.134	-16.0526	-107.854
17.8	-20.675		146.853		-4.00325	-47.9212	-4.00613	-47.5045
	-4.01087	-48.3315	-15.8911	-109.549	-23.2964	-125.594
	-4.01449	-47.9405	-23.3018	-125.991	-16.0759	-107.093
17.95	-18.3512	114.616		-4.03554	-63.717		-4.04203	-63.2813	
	-4.04377	-64.1621	-15.805		-109.427	-23.073		-147.716
	-4.0506		-63.7508	-23.078		-148.147	-15.848		-106.713
18.1	-16.6127	90.0205		-4.07185	-79.4111	-4.08122	-78.947	
	-4.08069	-79.8948	-15.573		-110.428	-23.1867	-169.313
	-4.09031	-79.4556	-23.1943	-169.792	-15.4835	-107.628
18.25	-15.5815	68.7887		-4.10268	-94.9948	-4.11367	-94.4962	
	-4.11084	-95.4996	-15.3391	-112.882	-23.5766	170.231
