! MARKI MICROWAVE INC.
! Email:             	info@markimicrowave.com   				Phone:   408-778-4200
! Model Number:      	PD0220							Date:    07/11
! Filename:		PD-0220.S3P						Version: 1.0
! Description:       	3-port S-parameter data for Power Divider PD0220
! Frequency Range: 	10 MHz to 20 GHz		
! Port Configuration:	PORT 1: COMMON, PORT 2 and Port 3: Output


! S3P File: Measurements: Mag<S11> Ang<S11> Mag<S12> Ang<S12> Mag<S13> Ang<S13>! row 1 
!			  Mag<S21> Ang<S21> Mag<S22> Ang<S22> Mag<S23> Ang<S23>! row 2 
!			  Mag<S31> Ang<S31> Mag<S32> Ang<S32> Mag<S33> Ang<S33>! row 3 


# GHz S DB R 50


0.01	-9.5444		169.426		-3.59323	-1.99565	-3.6027		-2.08907	
	-3.52547	-2.7593		-9.34429	166.15		-3.68154	-8.22209
	-3.51712	-2.85385	-3.61813	-9.07703	-9.34527	165.976
0.11	-9.72358	169.931		-3.5827		-8.99042	-3.58218	-8.95221	
	-3.60686	-9.2254		-10.0451	151.374		-3.95056	-27.1799	
	-3.60405	-9.18381	-3.9774		-27.4153	-10.0334	151.447
0.21	-9.86105	164.805		-3.58728	-16.5823	-3.58331	-16.4941
	-3.63083	-16.616		-10.686		131.199		-4.42945	-48.7022
	-3.62645	-16.5289	-4.47531	-48.7299	-10.6555	131.408
0.31	-9.98571	158.568		-3.58596	-24.3292	-3.5787		-24.2119	
	-3.62956	-24.2766	-11.4501	110.838		-5.07165	-69.7801
	-3.62199	-24.1631	-5.11726	-69.7262	-11.3902	111.221
0.41	-10.1091	152.247		-3.57905	-32.0995	-3.56847	-31.964	
	-3.617		-32.0163	-12.3233	91.6225		-5.8072		-89.7455
	-3.60662	-31.8807	-5.84696	-89.6562	-12.2241	92.2338
0.51	-10.2395	146.037		-3.56881	-39.8801	-3.55609	-39.7298
	-3.60345	-39.8135	-13.2925	73.5907		-6.58567	-108.68
	-3.59084	-39.6612	-6.62199	-108.607	-13.1441	74.511
0.61	-10.3774	139.966		-3.55355	-47.6743	-3.53936	-47.5095
	-3.58983	-47.6305	-14.3197	56.6405		-7.3728		-126.795
	-3.57519	-47.4637	-7.41094	-126.744	-14.1143	57.9727
0.71	-10.5508	134.078		-3.53583	-55.4938	-3.52015	-55.3127
	-3.5746		-55.4436	-15.398		40.4175		-8.15439	-144.285
	-3.55867	-55.2634	-8.1953		-144.229	-15.135		42.301
0.81	-10.7582	128.241		-3.51743	-63.3431	-3.50043	-63.1469
	-3.55735	-63.2785	-16.5298	24.7148		-8.92795	-161.291
	-3.54032	-63.0822	-8.96995	-161.219	-16.2057	27.3211
0.91	-10.9927	122.373		-3.49972	-71.2118	-3.48118	-71.0027
	-3.53889	-71.1437	-17.732		9.02033		-9.69411	-177.918
	-3.52029	-70.931		-9.73534	-177.841	-17.3451	12.5908
1.01	-11.232		116.554		-3.48128	-79.0983	-3.46127	-78.8742
	-3.51964	-79.024		-19.0419	-6.85208	-10.4523	165.736
	-3.49964	-78.7969	-10.4924	165.815		-18.5985	-1.99975
1.11	-11.4954	110.891		-3.4616		-86.9961	-3.4409		-86.7561	
	-3.49849	-86.917		-20.4106	-23.3419	-11.2073	149.569	
	-3.47741	-86.6779	-11.246		149.652		-19.9367	-16.8353
1.21	-11.7986	105.364		-3.4424		-94.9118	-3.42111	-94.6572
	-3.47755	-94.8413	-21.8343	-41.1971	-11.967		133.534	
	-3.45538	-94.5864	-12.0044	133.607		-21.3908	-32.5859
1.31	-12.1363	99.8808		-3.42374	-102.845	-3.40121	-102.573
	-3.45858	-102.787	-23.2001	-60.7276	-12.7376	117.586	
	-3.43536	-102.514	-12.7753	117.65		-22.9111	-49.5465
1.41	-12.5171	94.5726		-3.40572	-110.795	-3.38157	-110.508
	-3.44036	-110.744	-24.3745	-82.3815	-13.5253	101.675	
	-3.41608	-110.456	-13.5633	101.734		-24.4287	-68.4505
1.51	-12.9429	89.3786		-3.38758	-118.759	-3.36216	-118.458
	-3.42271	-118.711	-25.1521	-105.419	-14.3398	85.757
	-3.39745	-118.409	-14.3777	85.8111		-25.7666	-89.535
1.61	-13.4212	84.2879		-3.37129	-126.735	-3.34435	-126.421
	-3.40759	-126.688	-25.4014	-128.68		-15.1916	69.8125	
	-3.38087	-126.373	-15.2301	69.8663		-26.7003	-112.618
1.71	-13.9403	79.363		-3.35587	-134.728	-3.32747	-134.402
	-3.39284	-134.678	-25.1952	-150.43		-16.0913	53.81	
	-3.36437	-134.35		-16.1302	53.87		-27.0987	-136.062
1.81	-14.5051	74.6176		-3.3417		-142.727	-3.31195	-142.39
	-3.37904	-142.675	-24.7009	-169.714	-17.0498	37.7211	
	-3.34926	-142.337	-17.0899	37.7802		-26.9824	-158.149
1.91	-15.1305	70.187		-3.32926	-150.738	-3.29832	-150.391
	-3.36764	-150.694	-24.1059	173.672		-18.0811	21.505
	-3.33662	-150.347	-18.1214	21.5449		-26.5448	-177.608
2.01	-15.8186	65.9338		-3.31826	-158.76		-3.28616	-158.402	
	-3.35815	-158.728	-23.5515	159.07		-19.2053	5.08944	
	-3.32616	-158.37		-19.2472	5.11272		-26.023		165.479
2.11	-16.5243	62.0125		-3.31044	-166.792	-3.27726	-166.423
	-3.35088	-166.756	-23.048		145.47		-20.4521	-11.6085
	-3.31781	-166.388	-20.4956	-11.5704	-25.4814	149.968
2.21	-17.2108	58.4434		-3.3052		-174.831	-3.27105	-174.451
	-3.34561	-174.78		-22.5843	132.254		-21.8594	-28.6678
	-3.31146	-174.401	-21.9025	-28.6091	-24.9421	135.079
2.31	-17.8949	55.1647		-3.30126	177.135		-3.26622	177.526	
	-3.3426		177.192		-22.2066	119.821		-23.4712	-46.2409
	-3.30728	177.582		-23.5123	-46.1842	-24.4676	121.342
2.41	-18.5508	52.1925		-3.29924	169.107		-3.26264	169.51	
	-3.34163	169.168		-21.8732	107.816		-25.3602	-64.6885	
	-3.30536	169.568		-25.4039	-64.6329	-24.0258	108.275
2.51	-19.1878	49.3138		-3.29909	161.08		-3.26116	161.492	
	-3.34135	161.148		-21.6171	96.1331		-27.6439	-84.7499
	-3.30423	161.56		-27.6869	-84.6814	-23.6561	95.7274
2.61	-19.7622	46.5337		-3.29919	153.054		-3.2604		153.477	
	-3.3408		153.133		-21.3749	84.6938		-30.4893	-108.201
	-3.30282	153.557		-30.5271	-108.1		-23.2887	83.5572
2.71	-20.2778	43.5617		-3.30121	145.035		-3.26122	145.468
	-3.34247	145.113		-21.1947	73.3583		-33.9328	-139.91	
	-3.30335	145.548		-33.9701	-139.793	-22.9879	71.6108
2.81	-20.7383	40.5481		-3.30432	137.022		-3.26371	137.467
	-3.34598	137.093		-21.0218	62.3978		-36.711		173.11
	-3.3053		137.535		-36.7516	173.176		-22.6887	60.2199
2.91	-21.1395	37.1444		-3.30797	129.017		-3.26613	129.469
	-3.35066	129.099		-20.8903	51.5062		-36.6532	118.75	
	-3.30887	129.55		-36.693		118.77		-22.4279	48.9773
3.01	-21.5071	33.5287		-3.31245	121.016		-3.26947	121.475	
	-3.35501	121.128		-20.7908	40.9855		-34.0407	74.5448	
	-3.31216	121.589		-34.081		74.6533		-22.2021	38.2724
3.11	-21.821		29.5172		-3.31722	113.02		-3.27363	113.485
	-3.35797	113.142		-20.7142	30.7021		-31.1708	44.8764	
	-3.3142		113.609		-31.2121	45.0169		-21.9965	27.9468
3.21	-22.1666	25.3702		-3.32207	105.028		-3.27742	105.5	
	-3.36028	105.135		-20.7044	20.8149		-28.9421	22.2204	
	-3.31568	105.609		-28.9814	22.3542		-21.8668	18.1175
3.31	-22.4703	21.0664		-3.32717	97.038		-3.28159	97.5177	
	-3.36519	97.1436		-20.7246	11.3188		-27.2427	2.4379
	-3.31967	97.6275		-27.2824	2.54859		-21.7662	8.81546
3.41	-22.8492	16.8855		-3.33123	89.053		-3.28527	89.5408	
	-3.3699		89.1613		-20.8402	2.22623		-25.9197	-15.9729
	-3.32383	89.6516		-25.9591	-15.86		-21.7672	-0.0131073
3.51	-23.2371	12.9786		-3.33413	81.0756		-3.28806	81.5723	
	-3.3739		81.1785		-21.0136	-6.26704	-24.8703	-33.6104
	-3.32758	81.676		-24.9106	-33.5042	-21.8237	-8.13746
3.61	-23.7341	9.45767		-3.3369		73.0941		-3.29016	73.5992
	-3.37787	73.2032		-21.2922	-14.3287	-24.0311	-50.8224	
	-3.33141	73.7077		-24.073		-50.7062	-21.9873	-15.7859
3.71	-24.2427	6.96462		-3.34104	65.1123		-3.29391	65.6261	
	-3.38244	65.2404		-21.6895	-21.7725	-23.3599	-67.7559
	-3.33563	65.7559		-23.4023	-67.6225	-22.2637	-22.7498
3.81	-24.8122	5.53353		-3.34551	57.1254		-3.29814	57.6491	
	-3.38698	57.243		-22.2124	-28.6952	-22.8302	-84.4618	
	-3.34003	57.7733		-22.8718	-84.3309	-22.6536	-29.1516
3.91	-25.3881	6.02623		-3.34972	49.1407		-3.3023		49.6769
	-3.39171	49.2331		-22.9309	-34.678		-22.4193	-101.014
	-3.34451	49.7771		-22.4608	-100.906	-23.222		-34.5598
4.01	-25.9077	8.0463		-3.35428	41.1481		-3.30672	41.6993
	-3.39593	41.2419		-23.8099	-39.7075	-22.1148	-117.475
	-3.34853	41.7987		-22.1567	-117.37		-23.9193	-39.0086
4.11	-26.236		12.3328		-3.36015	33.1512		-3.31231	33.7176	
	-3.40061	33.2479		-24.9901	-43.2558	-21.9077	-133.862
	-3.35265	33.8198		-21.9483	-133.751	-24.8642	-42.028
4.21	-26.2405	17.5638		-3.36667	25.1538		-3.31835	25.7351	
	-3.40711	25.2342		-26.3999	-44.7246	-21.7912	-150.148
	-3.35851	25.8214		-21.8316	-150.053	-25.9598	-43.2244
4.31	-25.8376	23.1243		-3.3746		17.1539		-3.32546	17.7537	
	-3.41539	17.2305		-28.1881	-42.2966	-21.7628	-166.364
	-3.36605	17.8337		-21.8036	-166.276	-27.3071	-41.319
4.41	-25.0504	27.5142		-3.38383	9.15437		-3.33369	9.7739
	-3.42147	9.24501		-30.0246	-33.7227	-21.8225	177.485	
	-3.37124	9.8645		-21.8608	177.586		-28.6428	-35.2146
4.51	-24.0681	30.2118		-3.39477	1.15764		-3.34354	1.79473	
	-3.42796	1.22784		-31.167		-16.9156	-21.9712	161.47	
	-3.37648	1.86426		-22.0051	161.554		-29.5891	-23.6665
4.61	-22.9986	30.941		-3.40686	-6.83512	-3.35418	-6.1824	
	-3.4405		-6.81625	-30.7775	3.14756		-22.2018	145.627	
	-3.38746	-6.16306	-22.2364	145.662		-29.6204	-8.91007
4.71	-21.9918	30.0609		-3.41963	-14.8165	-3.36526	-14.1511
	-3.45867	-14.8306	-29.0459	18.0926		-22.5134	129.952	
	-3.40402	-14.1604	-22.5525	129.95		-28.6566	4.09329
4.81	-21.0586	27.9463		-3.43238	-22.7861	-3.37626	-22.1061
	-3.47756	-22.7949	-26.8242	25.1669		-22.9104	114.415
	-3.42091	-22.1089	-22.9553	114.426		-27.0454	12.3096
4.91	-20.2483	24.8874		-3.44573	-30.7429	-3.38736	-30.0483
	-3.49367	-30.7252	-24.8368	26.6033		-23.4024	99.0565
	-3.43486	-30.0266	-23.4496	99.0918		-25.376		15.649
5.01	-19.5635	21.2651		-3.45916	-38.6875	-3.39793	-37.9823
	-3.50561	-38.6503	-23.1783	25.0116		-24.0013	83.9861
	-3.44461	-37.9432	-24.0488	84.039		-23.8723	15.7201
5.11	-19.0192	17.0948		-3.47222	-46.6219	-3.40838	-45.9081
	-3.51624	-46.5765	-21.8585	21.5718		-24.7142	69.3449
	-3.45318	-45.862		-24.7591	69.3988		-22.6233	13.5322
5.21	-18.6048	12.8205		-3.48394	-54.5476	-3.41797	-53.8266	
	-3.52851	-54.4935	-20.8025	17.0747		-25.546		55.2392	
	-3.46289	-53.771		-25.5911	55.3052		-21.6074	10.0031
5.31	-18.3175	8.37412		-3.49408	-62.4667	-3.42608	-61.7393
	-3.54005	-62.4111	-19.9716	11.8359		-26.5072	41.8624
	-3.47181	-61.6817	-26.5526	41.9269		-20.7969	5.49382
5.41	-18.1889	4.05617		-3.50227	-70.3799	-3.4324		-69.6492	
	-3.55007	-70.3251	-19.3492	6.04676		-27.6049	29.5302	
	-3.4799		-69.5933	-27.652		29.58		-20.19		0.257036
5.51	-18.1855	-0.271534	-3.50825	-78.2877	-3.43684	-77.5537
	-3.55706	-78.2159	-18.8976	-0.164089	-28.8377	18.6587	
	-3.48552	-77.4791	-28.8896	18.7318		-19.7491	-5.54102
5.61	-18.3301	-4.35456	-3.51217	-86.1939	-3.43891	-85.4576
	-3.55888	-86.0954	-18.6154	-6.80912	-30.1735	9.88608
	-3.4863		-85.3534	-30.2232	9.98866		-19.4793	-11.9018
5.71	-18.5956	-8.18458	-3.51469	-94.1022	-3.44		-93.3644
	-3.55802	-94.0079	-18.4734	-13.7744	-31.5085	4.02453
	-3.48378	-93.2643	-31.5552	4.11685		-19.3521	-18.6847
5.81	-19.0154	-11.61		-3.51511	-102.026	-3.439		-101.285
	-3.55702	-101.948	-18.485		-21.1814	-32.6143	1.55653
	-3.48167	-101.204	-32.6599	1.64948		-19.3866	-26.0433
5.91	-19.5718	-14.4296	-3.51378	-109.962	-3.43694	-109.218
	-3.55519	-109.876	-18.6348	-28.9893	-33.1916	1.80279
	-3.47915	-109.13		-33.2379	1.92666		-19.5635	-33.9138
6.01	-20.2581	-16.5528	-3.51275	-117.91		-3.43538	-117.164	
	-3.55381	-117.811	-18.9133	-37.3386	-33.0474	2.55015
	-3.47693	-117.064	-33.0904	2.69022		-19.8748	-42.441
6.11	-21.065		-17.5364	-3.51094	-125.871	-3.4328		-125.123
	-3.55307	-125.782	-19.342		-46.1487	-32.2794	1.25397	
	-3.47503	-125.034	-32.3213	1.36602		-20.3429	-51.5944
6.21	-21.9541	-17.3279	-3.50979	-133.847	-3.43133	-133.096
	-3.55382	-133.775	-19.878		-55.6016	-31.1849	-3.31264
	-3.47503	-133.022	-31.2288	-3.22589	-20.9192	-61.5513
6.31	-22.8643	-15.3638	-3.50931	-141.835	-3.43059	-141.08	
	-3.55461	-141.757	-20.5536	-65.6717	-30.0279	-10.9502
	-3.47591	-140.999	-30.073		-10.8608	-21.6364	-72.3314
6.41	-23.6945	-11.9152	-3.51035	-149.832	-3.43117	-149.074
	-3.55617	-149.743	-21.3035	-76.4931	-28.9502	-20.8751
	-3.47764	-148.981	-28.9965	-20.7794	-22.4171	-84.0608
6.51	-24.3356	-6.93404	-3.51346	-157.836	-3.43402	-157.073
	-3.55884	-157.747	-22.1577	-88.1646	-28.003		-32.3609
	-3.48024	-156.981	-28.0494	-32.2653	-23.2774	-96.9155
6.61	-24.6791	-1.38201	-3.51783	-165.838	-3.43819	-165.069
	-3.56288	-165.76		-23.0497	-100.478	-27.1934	-44.8739
	-3.48417	-164.987	-27.239		-44.7965	-24.1407	-110.601
6.71	-24.7145	4.12681		-3.52326	-173.841	-3.44371	-173.064
	-3.5698		-173.765	-23.9977	-113.805	-26.513		-58.0918	
	-3.49098	-172.983	-26.559		-58.0185	-24.9955	-125.524
6.81	-24.4869	8.5215		-3.53018	178.158		-3.45058	178.943
	-3.57991	178.24		-24.95		-127.76		-25.9474	-71.7834	
	-3.50119	179.031		-25.9976	-71.6988	-25.7943	-141.069
6.91	-24.102		11.4004		-3.53844	170.153		-3.45859	170.946	
	-3.59063	170.249		-25.8591	-142.421	-25.4877	-85.7737
	-3.51167	171.05		-25.5402	-85.6644	-26.4709	-157.142
7.01	-23.6597	12.7551		-3.54706	162.156		-3.4674		162.959
	-3.59961	162.265		-26.7923	-157.03		-25.1238	-99.9501
	-3.52057	163.075		-25.1762	-99.8231	-27.1408	-173.023
7.11	-23.2617	12.7075		-3.55583	154.165		-3.47642	154.979
	-3.60801	154.283		-27.6757	-171.614	-24.8448	-114.212
	-3.52871	155.104		-24.8966	-114.078	-27.7297	171.453
7.21	-22.8763	11.4487		-3.56517	146.181		-3.4851		147.006
	-3.61719	146.309		-28.6986	173.718		-24.6387	-128.492
	-3.53734	147.142		-24.6922	-128.356	-28.4268	155.81
7.31	-22.5321	9.42699		-3.57419	138.2		-3.49352	139.038	
	-3.62499	138.338		-29.8239	159.011		-24.4996	-142.761
	-3.54508	139.183		-24.5512	-142.616	-29.1827	140.255
7.41	-22.2403	6.84831		-3.58275	130.225		-3.50205	131.076	
	-3.63409	130.362		-31.2831	143.338		-24.4171	-156.967
	-3.55401	131.22		-24.468		-156.825	-30.1459	123.489
7.51	-21.9782	3.82867		-3.59107	122.252		-3.51011	123.115
	-3.64358	122.415		-33.0737	125.52		-24.3842	-171.125
	-3.56337	123.285		-24.4368	-170.948	-31.2243	104.97
7.61	-21.7747	0.367708	-3.59903	114.283		-3.51758	115.157
	-3.64955	114.484		-35.0385	102.353		-24.3986	174.798	
	-3.56907	115.367		-24.4491	175.021		-32.1728	83.2611
7.71	-21.5959	-3.57317	-3.60678	106.313		-3.52472	107.201	
	-3.65182	106.522		-36.5958	71.8067		-24.456		160.85
	-3.57082	107.42		-24.5009	161.077		-32.7443	58.6349
7.81	-21.4526	-7.95133	-3.61397	98.3436		-3.5315		99.2455	
	-3.65583	98.5398		-36.6623	36.9672		-24.5451	147.016	
	-3.57442	99.4507		-24.5877	147.232		-32.5567	33.1216
7.91	-21.298		-12.7967	-3.62087	90.3732		-3.53818	91.2893		
	-3.66056	90.5619		-35.1654	5.86254		-24.6623	133.264
	-3.57875	91.4874		-24.7033	133.488		-31.6392	9.61786
8.01	-21.1793	-18.2082	-3.6273		82.4024		-3.54395	83.3343	
	-3.66479	82.5886		-33.0178	-15.7029	-24.8074	119.612	
	-3.5824		83.5285		-24.8463	119.825		-30.3277	-9.19512
8.11	-21.0602	-23.9143	-3.63328	74.4334		-3.5491		75.38
	-3.66952	74.6049		-31.026		-31.3381	-24.9778	106.034	
	-3.5862		75.5581		-25.0175	106.229		-28.9569	-24.5183
8.21	-20.9881	-30.2541	-3.63873	66.4643		-3.55378	67.425
	-3.67377	66.6299		-29.4067	-42.6201	-25.1762	92.5006
	-3.5898		67.5981		-25.2151	92.7073		-27.7102	-36.4533
8.31	-20.9446	-36.8872	-3.64361	58.4936		-3.558		59.4715	
	-3.67619	58.6581		-28.1728	-51.5768	-25.4034	79.0227	
	-3.59162	59.6417		-25.4403	79.2282		-26.6824	-46.1794
8.41	-20.9597	-44.2386	-3.64768	50.5198		-3.56113	51.5149	
	-3.6782		50.6672		-27.2842	-58.9805	-25.6628	65.6222	
	-3.59284	51.668		-25.6958	65.7909		-25.895		-54.3207
8.51	-21.0311	-51.5902	-3.65028	42.5485		-3.56298	43.5575	
	-3.68101	42.6663		-26.6985	-65.4715	-25.9533	52.2578
	-3.59475	43.6849		-25.9861	52.3849		-25.3381	-61.4077
8.61	-21.1791	-59.7485	-3.65261	34.5714		-3.56459	35.5969		
	-3.6847		34.6713		-26.3499	-71.1173	-26.2863	38.9265	
	-3.59744	35.7059		-26.3215	39.0376		-24.9581	-67.5426
8.71	-21.4139	-67.6		-3.65485	26.5846		-3.56591	27.6299	
	-3.68859	26.6739		-26.309		-76.2948	-26.6684	25.6682	
	-3.60042	27.7277		-26.7052	25.7666		-24.8262	-73.0963
8.81	-21.8129	-76.2671	-3.65653	18.5935		-3.56654	19.6588
	-3.69255	18.6747		-26.5072	-80.985		-27.1073	12.536	
	-3.6031		19.7464		-27.1461	12.6207		-24.883		-78.19
8.91	-22.3208	-84.1909	-3.6579		10.5954		-3.56686	11.6796
	-3.69697	10.6737		-27.063		-85.1821	-27.6178	-0.40338	
	-3.60598	11.7654		-27.6565	-0.337792	-25.2092	-82.8985
9.01	-23.2172	-93.4684	-3.6589		2.59393		-3.56649	3.69353	
	-3.6996		2.67865		-27.9568	-89.2666	-28.2077	-13.056
	-3.60692	3.79296		-28.2471	-12.9799	-25.7633	-87.5552
9.11	-24.0192	-102.193	-3.65983	-5.41903	-3.56605	-4.30032
	-3.69939	-5.32747	-29.3482	-92.5876	-28.8771	-25.1848
	-3.60585	-4.19594	-28.919		-25.1044	-26.6415	-91.8283
9.21	-25.6426	-109.07		-3.65986	-13.4438	-3.5651		-12.2993
	-3.69778	-13.3518	-31.6917	-95.8413	-29.6211	-36.6744
	-3.60372	-12.1976	-29.6671	-36.5979	-28.0439	-96.567
9.31	-27.611		-120.293	-3.66017	-21.4856	-3.5636		-20.3074
	-3.69987	-21.412		-35.5655	-98.5835	-30.4447	-47.3636
	-3.60404	-20.2251	-30.4902	-47.298		-29.9778	-101.824
9.41	-30.5652	-128.714	-3.66214	-29.5386	-3.56231	-28.3296	
	-3.70505	-29.4803	-43.1344	-66.5868	-31.3538	-56.8404
	-3.60597	-28.2622	-31.3952	-56.7925	-33.3427	-106.371
9.51	-36.003		-143.58		-3.6663		-37.6087	-3.56261	-36.3738
	-3.71199	-37.5339	-43.8462	3.74733		-32.2925	-64.4868
	-3.60872	-36.2887	-32.3393	-64.4679	-40.5845	-128.042
9.61	-43.1795	-103.009	-3.67252	-45.6833	-3.56455	-44.4272
	-3.71674	-45.5828	-36.5648	56.4415		-33.1326	-69.8992
	-3.60911	-44.3177	-33.1825	-69.8423	-44.2856	156.272
9.71	-40.8287	-21.885		-3.68133	-53.7574	-3.56889	-52.4849
	-3.72348	-53.6626	-30.577		57.0509		-33.6956	-73.1691	
	-3.61133	-52.3801	-33.7436	-73.0929	-39.8145	83.1638
9.81	-32.6807	18.8487		-3.69246	-61.827		-3.57526	-60.5412
	-3.73516	-61.7547	-27.1293	54.2172		-33.8048	-75.2641
	-3.61868	-60.4575	-33.8524	-75.1721	-32.0743	66.0678
9.91	-28.7731	8.93643		-3.70634	-69.8936	-3.5843		-68.5949
	-3.7506		-69.8108	-24.6804	50.533		-33.4171	-77.7762
	-3.62917	-68.5005	-33.4569	-77.6624	-28.2031	60.0937
10.01	-26.0293	-0.865845	-3.72197	-77.9533	-3.59506	-76.6444
	-3.76382	-77.845		-22.8124	46.9254		-32.6426	-82.1628
	-3.63687	-76.5273	-32.6762	-82.064		-25.5834	55.6521
10.11	-24.3133	-10.6935	-3.73932	-85.9958	-3.60749	-84.6812
	-3.77743	-85.8816	-21.3604	43.1225		-31.6607	-88.9773
	-3.64562	-84.5584	-31.6976	-88.8739	-23.6732	51.4287
10.21	-22.9919	-20.4476	-3.75776	-94.0196	-3.62103	-92.7043
	-3.79398	-93.9198	-20.2094	39.5313		-30.64		-98.0821
	-3.65739	-92.5967	-30.6787	-97.9807	-22.1972	47.7023
10.31	-22.1636	-30.5188	-3.77644	-102.022	-3.63471	-100.71		
	-3.81058	-101.931	-19.333		36.0059		-29.6811	-109.05	
	-3.66997	-100.614	-29.7191	-108.959	-21.0917	44.2183
10.41	-21.5704	-40.8173	-3.79375	-110.012	-3.648		-108.707
	-3.82821	-109.921	-18.6664	32.6539		-28.8282	-121.434
	-3.68307	-108.613	-28.8638	-121.333	-20.2476	41.026
10.51	-21.2941	-51.7321	-3.80892	-117.986	-3.65989	-116.691
	-3.84274	-117.882	-18.1761	29.6159		-28.0959	-134.852
	-3.69324	-116.584	-28.1302	-134.743	-19.6103	38.2587
10.61	-21.2027	-63.0532	-3.82214	-125.948	-3.67005	-124.666
	-3.851		-125.839	-17.8473	26.7978		-27.492		-149.017
	-3.69836	-124.553	-27.5198	-148.918	-19.1551	35.8069
10.71	-21.3448	-75.5029	-3.83266	-133.903	-3.67775	-132.635
	-3.85532	-133.817	-17.6592	24.347		-27.0122	-163.752	
	-3.70011	-132.541	-27.0357	-163.664	-18.8517	33.8128
10.81	-21.6141	-88.6647	-3.84072	-141.863	-3.68365	-140.607
	-3.86049	-141.811	-17.6044	22.1391		-26.6479	-178.913
	-3.7031		-140.548	-26.6692	-178.854	-18.6866	32.1417
10.91	-22.0161	-103.434	-3.846		-149.829	-3.68762	-148.583	
	-3.86473	-149.797	-17.6503	20.4322		-26.4063	165.567	
	-3.70591	-148.547	-26.4234	165.605		-18.6128	31.0618
11.01	-22.4585	-119.344	-3.84931	-157.803	-3.68993	-156.569
	-3.86718	-157.769	-17.7938	19.16		-26.288		149.762
	-3.70808	-156.533	-26.3023	149.806		-18.6233	30.4568
11.11	-22.8671	-137.027	-3.8506		-165.794	-3.6908		-164.57	
	-3.86765	-165.763	-18.0246	18.3679		-26.2922	133.775	
	-3.70828	-164.541	-26.3041	133.816		-18.701		30.3705
11.21	-23.1739	-156.004	-3.85099	-173.801	-3.6913		-172.585	
	-3.86783	-173.796	-18.3065	17.8886		-26.4265	117.653	
	-3.70806	-172.583	-26.4388	117.656		-18.8119	30.5439
11.31	-23.1416	-175.839	-3.85165	178.175		-3.69225	179.388
	-3.86782	178.143		-18.6104	17.8233		-26.7055	101.449	
	-3.70788	179.352		-26.7189	101.405		-18.9204	31.0328
11.41	-22.8833	164.875		-3.85337	170.142		-3.69457	171.355
	-3.87036	170.092		-18.9323	18.0952		-27.1438	85.2066	
	-3.71095	171.298		-27.162		85.1493		-19.0301	31.6989
11.51	-22.4013	147.028		-3.8566		162.102		-3.69832	163.317
