! MARKI MICROWAVE INC.
! Email:             	info@markimicrowave.com   				Phone:   408-778-4200
! Model Number:      	PD0126							Date:    07/14
! Filename:		PD-0126.S3P						Version: 1.0
! Description:       	3-port S-parameter data for Power Divider PD-0126
! Frequency Range: 	10 MHz to 30 GHz		
! Port Configuration:	PORT 1: COMMON, PORT 2 and Port 3: Output


! S3P File: Measurements: Mag<S11> Ang<S11> Mag<S12> Ang<S12> Mag<S13> Ang<S13>! row 1 
!			  Mag<S21> Ang<S21> Mag<S22> Ang<S22> Mag<S23> Ang<S23>! row 2 
!			  Mag<S31> Ang<S31> Mag<S32> Ang<S32> Mag<S33> Ang<S33>! row 3 
# Hz S  dB   R 50
10000000 -9.6709299 170.6714 -3.5182102 -7.2085638 -3.538991 -7.4188519
-3.550988 -7.2552662 -9.764698 161.03793 -3.7281766 -11.185439
-3.5460405 -7.3589482 -3.7332685 -11.177538 -9.8583927 160.63496
47487500 -9.7058582 168.59221 -3.5266976 -9.5727186 -3.5436378 -9.7450705
-3.5529225 -9.6128464 -9.9665213 155.74504 -3.8537784 -15.101673
-3.5516942 -9.6965408 -3.8594878 -15.093551 -10.042747 155.40732
84975000 -9.7497444 166.03011 -3.5345516 -12.440356 -3.5478971 -12.569382
-3.5554903 -12.475673 -10.222204 149.41812 -4.019949 -19.709608
-3.5561306 -12.53429 -4.0254207 -19.702625 -10.281907 149.13052
122462500 -9.7991552 162.98137 -3.542408 -15.806945 -3.552752 -15.893787
-3.5573757 -15.838579 -10.534928 142.0717 -4.2270832 -24.974892
-3.5609548 -15.873225 -4.2318335 -24.968657 -10.580549 141.84378
159950000 -9.8609543 159.44792 -3.5502596 -19.673239 -3.557374 -19.713644
-3.5591164 -19.705538 -10.910583 133.74178 -4.476613 -30.852608
-3.5669863 -19.714046 -4.4813895 -30.851299 -10.943168 133.57527
197437500 -9.930685 155.4433 -3.5565228 -24.040401 -3.5607116 -24.043236
-3.5605335 -24.062885 -11.349549 124.49553 -4.7688107 -37.333996
-3.5719147 -24.050592 -4.7740331 -37.336048 -11.371371 124.38739
234925000 -10.002322 151.09329 -3.5560882 -28.528986 -3.5603886 -28.533789
-3.5619648 -28.560192 -11.805518 115.13184 -5.0906234 -43.596485
-3.5723584 -28.540951 -5.0955105 -43.584728 -11.836069 115.01418
272412500 -10.076598 146.72757 -3.5536213 -33.03075 -3.560473 -33.02298
-3.5611358 -33.06517 -12.30514 106.05147 -5.4372458 -49.566154
-3.5716505 -33.041222 -5.4397163 -49.557007 -12.343831 105.91671
309900000 -10.158561 142.35078 -3.5522845 -37.535046 -3.5572152 -37.529076
-3.5602021 -37.569965 -12.836537 97.312172 -5.7999306 -55.26017
-3.5689981 -37.543495 -5.8009343 -55.250156 -12.887526 97.096832
347387500 -10.245587 137.96236 -3.5500906 -42.047352 -3.5543914 -42.037922
-3.5581963 -42.077831 -13.38985 88.878685 -6.1734767 -60.680714
-3.5661936 -42.05196 -6.1745243 -60.675365 -13.455151 88.559326
384875000 -10.343463 133.58388 -3.5460782 -46.563114 -3.5514293 -46.548824
-3.5536973 -46.591301 -13.964604 80.704407 -6.5523496 -65.859413
-3.562623 -46.559677 -6.5535016 -65.862175 -14.038125 80.296021
422362500 -10.445953 129.19965 -3.5428147 -51.078575 -3.5480411 -51.0625
-3.5486124 -51.104755 -14.560836 72.799904 -6.930337 -70.821854
-3.5589831 -51.071457 -6.9328866 -70.829025 -14.634052 72.282173
459850000 -10.557402 124.81884 -3.537528 -55.597275 -3.5436311 -55.580559
-3.5424423 -55.626495 -15.169195 65.159836 -7.3084922 -75.602943
-3.553947 -55.588882 -7.3111758 -75.61216 -15.246791 64.520805
497337500 -10.672656 120.43886 -3.5314524 -60.128006 -3.537143 -60.105015
-3.5363286 -60.145245 -15.786935 57.78521 -7.6850886 -80.228218
-3.5465434 -60.108929 -7.6883998 -80.238335 -15.867935 56.981377
534825000 -10.797093 116.02345 -3.5264406 -64.65535 -3.5302012 -64.625389
-3.5293612 -64.673599 -16.414942 50.562366 -8.0575695 -84.711739
-3.5395708 -64.632881 -8.0621548 -84.72403 -16.500263 49.596355
572312500 -10.924892 111.59836 -3.5195799 -69.190208 -3.5220706 -69.155991
-3.5212831 -69.201874 -17.047958 43.496181 -8.4265633 -89.090454
-3.5309494 -69.162613 -8.4310341 -89.101402 -17.136044 42.327362
609800000 -11.063281 107.14594 -3.5120616 -73.72686 -3.5135872 -73.690369
-3.5128145 -73.732529 -17.691668 36.578117 -8.7922382 -93.369873
-3.5227222 -73.685844 -8.7975578 -93.381973 -17.770269 35.183258
647287500 -11.207635 102.67648 -3.5026412 -78.273651 -3.5056734 -78.226555
-3.5028331 -78.272705 -18.33242 29.789284 -9.1571951 -97.554306
-3.5138178 -78.222374 -9.16366 -97.570084 -18.401087 28.236162
684775000 -11.362918 98.18074 -3.4931118 -82.817856 -3.4969711 -82.769836
-3.4934971 -82.817551 -18.982662 23.12221 -9.5201197 -101.68282
-3.5043168 -82.759621 -9.5261955 -101.68342 -19.045771 21.381788
722262500 -11.518902 93.66983 -3.4832962 -87.363647 -3.4863183 -87.315361
-3.4842403 -87.368958 -19.630041 16.568127 -9.8805132 -105.74372
-3.4933441 -87.305603 -9.8859291 -105.73886 -19.695047 14.561474
759750000 -11.684651 89.12394 -3.4722686 -91.914413 -3.4745903 -91.863876
-3.4743106 -91.919724 -20.273859 10.108141 -10.242017 -109.7601
-3.4828382 -91.858482 -10.247549 -109.75726 -20.347883 7.8015618
797237500 -11.862557 84.519989 -3.4620218 -96.471443 -3.4623885 -96.415421
-3.4645886 -96.468811 -20.917269 3.7596214 -10.604895 -113.72784
-3.4714067 -96.408081 -10.610971 -113.72909 -20.987755 1.0972857
834725000 -12.05009 79.862762 -3.4516068 -101.02671 -3.451458 -100.96966
-3.4545906 -101.02596 -21.561392 -2.5331478 -10.967274 -117.64493
-3.4605966 -100.96416 -10.973043 -117.65911 -21.618401 -5.552722
872212500 -12.247845 75.178131 -3.4406412 -105.59239 -3.4412374 -105.53242
-3.4441268 -105.59562 -22.197716 -8.6074896 -11.336322 -121.53982
-3.4496074 -105.52744 -11.34199 -121.53652 -22.254059 -12.052197
909700000 -12.455908 70.447174 -3.4308889 -110.16249 -3.4311464 -110.10116
-3.434839 -110.16414 -22.842817 -14.627962 -11.705905 -125.37446
-3.4389572 -110.09331 -11.71281 -125.38095 -22.892572 -18.587509
947187500 -12.673547 65.686356 -3.4200053 -114.74332 -3.4193807 -114.675
-3.4242105 -114.73771 -23.472332 -20.462181 -12.085049 -129.17522
-3.4279876 -114.6709 -12.09412 -129.19067 -23.535322 -24.946875
984675000 -12.904829 60.862545 -3.4099789 -119.31804 -3.4086678 -119.24631
-3.4146707 -119.31676 -24.109846 -26.158415 -12.470825 -132.94299
-3.4169378 -119.2461 -12.478024 -132.96039 -24.175014 -31.383278
1022162500 -13.140725 56.013268 -3.4003236 -123.89858 -3.3965526 -123.82613
-3.4049757 -123.89656 -24.739515 -31.661783 -12.863454 -136.67278
-3.4063044 -123.82697 -12.871984 -136.69688 -24.797482 -37.709023
1059650000 -13.395472 51.083153 -3.389725 -128.48152 -3.3849001 -128.41211
-3.394758 -128.47533 -25.361748 -36.898167 -13.270955 -140.3663
-3.3943462 -128.41751 -13.279119 -140.37904 -25.413877 -43.74733
1097137500 -13.665097 46.081635 -3.3790979 -133.06816 -3.374331 -133.00369
-3.3834937 -133.06435 -25.9911 -41.935272 -13.686736 -144.00821
-3.3827651 -133.00729 -13.695125 -144.02112 -26.031004 -49.663395
1134625000 -13.942745 41.040005 -3.3699052 -137.66148 -3.3632197 -137.6028
-3.3730757 -137.65755 -26.61916 -46.890343 -14.112018 -147.58348
-3.3721876 -137.60553 -14.123444 -147.59959 -26.646021 -55.490929
1172112500 -14.234879 35.895767 -3.3601491 -142.25735 -3.3522778 -142.21199
-3.3624411 -142.25085 -27.246298 -51.704605 -14.553535 -151.14305
-3.3606713 -142.209 -14.564125 -151.14735 -27.267664 -61.337025
1209600000 -14.542031 30.655386 -3.3508348 -146.85948 -3.3411059 -146.81775
-3.3524795 -146.84729 -27.862051 -56.363453 -15.008718 -154.59065
-3.3496466 -146.82182 -15.018187 -154.61954 -27.849007 -66.967331
1247087500 -14.869495 25.286674 -3.3408318 -151.45743 -3.3301208 -151.42381
-3.3420377 -151.44359 -28.47497 -60.768288 -15.482711 -158.00159
-3.338068 -151.42914 -15.489081 -158.04713 -28.408052 -72.275146
1284575000 -15.218771 19.812836 -3.3307967 -156.0551 -3.3203733 -156.03285
-3.3307297 -156.04491 -29.07263 -64.978905 -15.973847 -161.34003
-3.3267832 -156.04425 -15.977885 -161.39346 -28.951763 -77.078766
1322062500 -15.581328 14.231213 -3.3203161 -160.66359 -3.3095772 -160.66064
-3.3197064 -160.64922 -29.633656 -69.077682 -16.47687 -164.58214
-3.3165932 -160.66487 -16.48255 -164.61983 -29.502148 -81.68676
1359550000 -15.974544 8.4512167 -3.3097491 -165.27274 -3.2997403 -165.28558
-3.3080447 -165.26083 -30.190538 -72.926056 -17.000902 -167.73123
-3.3054996 -165.29114 -17.004171 -167.76683 -30.057278 -85.984764
1397037500 -16.378387 2.5270607 -3.299463 -169.89374 -3.2904494 -169.91235
-3.2976732 -169.87811 -30.724834 -76.75248 -17.541868 -170.76067
-3.2972457 -169.91988 -17.545639 -170.80928 -30.578867 -90.24868
1434525000 -16.803711 -3.5900645 -3.2894485 -174.51651 -3.2815869 -174.54686
-3.2881415 -174.50229 -31.206701 -80.310349 -18.109192 -173.66954
-3.2892623 -174.55676 -18.111607 -173.70883 -31.063589 -94.006248
1472012500 -17.259459 -9.9151077 -3.2779169 -179.14005 -3.2726886 -179.18169
-3.2777863 -179.12836 -31.664948 -83.379997 -18.702269 -176.42538
-3.2801023 -179.19444 -18.699261 -176.45416 -31.496334 -97.274925
1509500000 -17.741259 -16.484207 -3.2668178 176.23219 -3.2644286 176.17819
-3.2670898 176.24112 -32.032825 -86.218117 -19.317623 -178.97476
-3.2720969 176.16733 -19.31459 -178.99014 -31.892365 -99.887314
1546987500 -18.242073 -23.232811 -3.2561889 171.60237 -3.2567296 171.53189
-3.2564306 171.60335 -32.365849 -88.916985 -19.954924 178.70486
-3.264343 171.52991 -19.950377 178.69453 -32.27993 -102.2785
1584475000 -18.761604 -30.238781 -3.246712 166.96028 -3.2499473 166.88084
-3.2466319 166.95753 -32.628464 -91.310303 -20.613178 176.60518
-3.2589235 166.88263 -20.612263 176.64166 -32.65477 -104.44916
1621962500 -19.301306 -37.606628 -3.2380545 162.31061 -3.2439692 162.22946
-3.2385452 162.30788 -32.811329 -93.429962 -21.29599 174.83467
-3.2526515 162.23442 -21.294584 174.88091 -32.940926 -106.75446
1659450000 -19.852896 -45.332817 -3.2303329 157.66147 -3.2388711 157.58244
-3.2309632 157.65973 -32.966 -95.357353 -22.003096 173.4061
-3.2467175 157.58286 -21.9995 173.44057 -33.139061 -108.54442
1696937500 -20.417152 -53.419067 -3.2234981 153.00044 -3.2338603 152.93234
-3.2246287 153.00359 -33.03701 -97.110863 -22.723291 172.37485
-3.2414508 152.93323 -22.718674 172.40036 -33.242764 -109.98063
1734425000 -21.007729 -61.902264 -3.2181809 148.34528 -3.2298331 148.27908
-3.2181942 148.34634 -33.047546 -98.62056 -23.444939 171.83447
-3.2369683 148.28174 -23.44775 171.83786 -33.314255 -110.99922
1771912500 -21.573952 -70.832054 -3.2119462 143.68649 -3.2261167 143.62704
-3.2122974 143.6927 -32.999699 -100.01256 -24.173101 171.8494
-3.2321579 143.63361 -24.176624 171.91182 -33.324596 -111.86829
1809400000 -22.123289 -80.207825 -3.2088687 139.02504 -3.223896 138.97052
-3.2072916 139.03474 -32.88686 -101.54242 -24.87985 172.39749
-3.2298717 138.98376 -24.886139 172.47733 -33.328907 -113.00564
1846887500 -22.646709 -89.926262 -3.2053216 134.36713 -3.2217102 134.32072
-3.2039921 134.37071 -32.753937 -103.02199 -25.561668 173.60493
-3.2280636 134.33124 -25.562908 173.6369 -33.247658 -114.40598
1884375000 -23.110031 -100.24757 -3.2016859 129.6989 -3.2198596 129.66652
-3.2009878 129.71587 -32.570457 -104.29513 -26.183464 175.49799
-3.225944 129.67809 -26.188927 175.51695 -33.071323 -115.5517
1921862500 -23.512636 -110.98784 -3.1989098 125.03745 -3.2192588 125.01884
-3.1992185 125.05428 -32.35957 -105.85809 -26.721273 177.92223
-3.2241476 125.02171 -26.721249 177.8828 -32.813602 -116.65842
1959350000 -23.835144 -121.91789 -3.1968968 120.37518 -3.2185211 120.36523
-3.1974485 120.39215 -32.151527 -107.82252 -27.145098 -179.28099
-3.223948 120.37108 -27.141619 -179.38814 -32.569782 -117.8046
1996837500 -24.089931 -133.01012 -3.1959622 115.71742 -3.2183173 115.71326
-3.1960464 115.72903 -31.92886 -109.80729 -27.467182 -176.25974
-3.223717 115.72083 -27.464474 -176.30594 -32.326351 -119.21326
2034325000 -24.230621 -144.38623 -3.1960337 111.06203 -3.2192047 111.06358
-3.1951442 111.06981 -31.673937 -112.06226 -27.663231 -172.99725
-3.2244163 111.07072 -27.660137 -173.03082 -32.062664 -120.97538
2071812500 -24.266893 -155.76762 -3.1956515 106.40423 -3.2203543 106.41818
-3.1962438 106.41552 -31.424532 -114.54013 -27.744202 -169.78473
-3.2255397 106.42603 -27.735394 -169.78474 -31.761398 -122.95235
2109300000 -24.240803 -166.92412 -3.1978705 101.74941 -3.221632 101.77574
-3.1971903 101.75988 -31.188135 -117.30412 -27.697367 -166.83177
-3.2281363 101.78294 -27.686769 -166.86139 -31.447468 -125.32256
2146787500 -24.128857 -177.94325 -3.1986637 97.100006 -3.2243083 97.138153
-3.1992583 97.111801 -30.945919 -120.36378 -27.546774 -164.11934
-3.2312322 97.140755 -27.53709 -164.17384 -31.090237 -127.52222
2184275000 -23.927288 171.31778 -3.2003081 92.448952 -3.2268064 92.495201
-3.2012591 92.461731 -30.734695 -123.54849 -27.298393 -161.98061
-3.2333739 92.49942 -27.291761 -161.98247 -30.772903 -129.77124
2221762500 -23.680979 161.02289 -3.203563 87.811798 -3.2298608 87.860687
-3.2039151 87.813324 -30.52774 -127.14269 -26.982414 -160.48561
-3.2364178 87.866089 -26.977655 -160.50519 -30.508669 -132.39883
2259250000 -23.390768 151.19394 -3.2063942 83.169579 -3.2333462 83.22673
-3.206476 83.170021 -30.315136 -130.81769 -26.625196 -159.57761
-3.2404816 83.234581 -26.627264 -159.54567 -30.243275 -135.31181
2296737500 -23.074051 141.71425 -3.2103446 78.534874 -3.2361748 78.598305
-3.2099266 78.530785 -30.138983 -134.45222 -26.270636 -159.19136
-3.2439981 78.608376 -26.274933 -159.09438 -29.976755 -138.3374
2334225000 -22.727915 132.55402 -3.2137384 73.898422 -3.2402523 73.971588
-3.213407 73.893669 -29.928978 -138.25404 -25.886786 -159.32431
-3.2479854 73.987556 -25.890572 -159.31364 -29.705177 -141.3542
2371712500 -22.395111 123.96373 -3.2171426 69.269188 -3.2450237 69.348587
-3.2172534 69.262985 -29.768736 -142.16959 -25.519323 -160.03374
-3.2520869 69.364441 -25.529533 -160.0282 -29.462826 -144.39539
2409200000 -22.065432 115.67963 -3.2205272 64.642868 -3.2491596 64.728973
-3.2203207 64.634003 -29.629652 -146.05615 -25.177189 -161.14459
-3.2560775 64.745903 -25.190407 -161.16022 -29.274067 -147.39609
2446687500 -21.736353 107.64816 -3.2238364 60.019775 -3.2534945 60.111744
-3.224359 60.010548 -29.476427 -149.86842 -24.856331 -162.57126
-3.2588835 60.129898 -24.863327 -162.57893 -29.10734 -150.42296
2484175000 -21.425827 99.967102 -3.2271726 55.396137 -3.2565706 55.495068
-3.2276981 55.383217 -29.361908 -153.6304 -24.563316 -164.37466
-3.2618353 55.515572 -24.563776 -164.38194 -28.969311 -153.67995
2521662500 -21.137434 92.44735 -3.2323492 50.776207 -3.2614141 50.888329
-3.2312572 50.768276 -29.264118 -157.43549 -24.298735 -166.35519
-3.2663248 50.908474 -24.302698 -166.39854 -28.83482 -156.80632
2559150000 -20.868532 85.135857 -3.2357814 46.159973 -3.265789 46.280998
-3.2355967 46.150822 -29.179689 -161.10344 -24.064129 -168.58667
-3.2701025 46.299789 -24.059212 -168.58977 -28.694225 -159.88548
2596637500 -20.623707 77.974266 -3.2393084 41.544922 -3.2692688 41.67252
-3.2388101 41.536613 -29.13475 -164.65623 -23.86319 -170.91974
-3.2722025 41.687973 -23.85424 -170.96071 -28.623245 -162.73378
2634125000 -20.402412 70.911179 -3.2425148 36.933243 -3.2735186 37.067734
-3.2424154 36.927696 -29.092247 -168.12592 -23.673521 -173.44766
-3.2761643 37.086159 -23.668192 -173.46704 -28.588177 -165.60295
2671612500 -20.213766 63.948582 -3.2451842 32.323627 -3.2761726 32.467812
-3.2463112 32.319355 -29.089521 -171.53247 -23.521601 -176.00273
-3.2792156 32.479004 -23.517998 -176.02057 -28.556236 -168.51587
2709100000 -20.041058 57.077072 -3.2478843 27.717249 -3.278374 27.864407
-3.248306 27.708677 -29.093933 -174.72949 -23.389378 -178.59184
-3.2815611 27.878332 -23.384361 -178.63185 -28.524609 -171.28117
2746587500 -19.890263 50.328636 -3.2501278 23.108662 -3.2809408 23.26498
-3.2503426 23.098045 -29.138504 -177.78658 -23.283978 178.71812
-3.2838867 23.272497 -23.279493 178.69986 -28.503902 -174.14462
2784075000 -19.745485 43.578449 -3.2528212 18.500185 -3.2838821 18.660461
-3.2530777 18.489964 -29.225872 179.13126 -23.199472 175.98816
-3.28654 18.666937 -23.203505 175.91234 -28.495623 -176.77756
2821562500 -19.616156 36.827934 -3.2550778 13.894485 -3.2867553 14.060429
-3.2557192 13.884484 -29.303463 176.11874 -23.125479 173.21619
-3.2890036 14.064342 -23.137424 173.15808 -28.498814 -179.21025
2859050000 -19.516043 30.100252 -3.2560828 9.287715 -3.2871976 9.4571943
-3.2577655 9.277379 -29.405083 173.27814 -23.079184 170.42467
-3.2907226 9.4584627 -23.091122 170.41481 -28.544405 178.39784
2896537500 -19.428242 23.427774 -3.25758 4.6780972 -3.289063 4.8617921
-3.258364 4.6739707 -29.550283 170.60173 -23.05649 167.7227
-3.2921643 4.8543777 -23.072014 167.70598 -28.598209 176.06125
2934025000 -19.357019 16.647318 -3.2591441 0.078252703 -3.2909491 0.26418608
-3.2604244 0.071158797 -29.701918 167.94173 -23.046963 164.94722
-3.2950549 0.26148927 -23.061157 164.96712 -28.625916 173.76482
2971512500 -19.299364 9.9141874 -3.2600598 -4.5258446 -3.2921629 -4.3351064
-3.2618146 -4.5358577 -29.879034 165.4155 -23.061457 162.25284
-3.2958593 -4.3505683 -23.076887 162.25752 -28.642307 171.72841
3009000000 -19.253626 3.2073328 -3.2615752 -9.1284647 -3.2937608 -8.9368563
-3.2617731 -9.1431189 -30.097006 163.02704 -23.097221 159.57471
-3.2974496 -8.955802 -23.113729 159.56772 -28.695019 169.99744
3046487500 -19.223047 -3.5094321 -3.2618656 -13.73446 -3.2945437 -13.535253
-3.2636433 -13.746206 -30.313982 160.74174 -23.145161 156.85933
-3.299166 -13.558228 -23.155649 156.87971 -28.769478 168.22601
3083975000 -19.196186 -10.349285 -3.2629163 -18.333982 -3.2946959 -18.14028
-3.2638922 -18.348478 -30.528528 158.41861 -23.204792 154.19116
-3.2989109 -18.155046 -23.209011 154.21434 -28.83506 166.62709
3121462500 -19.194397 -17.162994 -3.2624094 -22.938877 -3.2940271 -22.742081
-3.2627788 -22.957228 -30.780249 156.50487 -23.283022 151.62064
-3.2999454 -22.7577 -23.283772 151.679 -28.908688 165.12183
3158950000 -19.198347 -23.959438 -3.261797 -27.54845 -3.2933264 -27.345524
-3.2622225 -27.566645 -31.037741 154.76602 -23.385172 149.14928
-3.299504 -27.361164 -23.384148 149.18558 -28.962458 163.74347
3196437500 -19.207321 -30.86891 -3.26158 -32.153259 -3.2941973 -31.951004
-3.2611966 -32.17239 -31.269184 153.12117 -23.487329 146.72556
-3.2987747 -31.960863 -23.484346 146.72037 -28.981422 162.53683
3233925000 -19.227575 -37.888363 -3.2605345 -36.760048 -3.2938488 -36.560947
-3.2614279 -36.779606 -31.463299 151.55617 -23.596634 144.28995
-3.2987163 -36.565956 -23.589827 144.29968 -28.990166 161.48
3271412500 -19.257309 -44.793049 -3.2601252 -41.370014 -3.2926834 -41.169529
-3.2599199 -41.392101 -31.646379 150.37921 -23.717674 142.01012
-3.2973485 -41.174862 -23.711313 142.04001 -29.011911 160.66727
3308900000 -19.293453 -51.848202 -3.2598393 -45.98336 -3.2922051 -45.777149
-3.2586892 -45.99984 -31.827513 149.49016 -23.839243 139.80611
-3.2964275 -45.777542 -23.829699 139.82993 -29.013044 159.88649
3346387500 -19.327202 -58.972469 -3.2588637 -50.601044 -3.291971 -50.3876
-3.258059 -50.61187 -31.95974 148.63869 -23.964739 137.6216
-3.2954004 -50.382561 -23.956553 137.69305 -28.983841 158.99304
3383875000 -19.360903 -66.179955 -3.258049 -55.214035 -3.2921932 -54.996494
-3.2563875 -55.224617 -32.088795 148.01746 -24.108856 135.59549
-3.2947872 -54.991482 -24.103825 135.63446 -28.930344 158.23341
3421362500 -19.400118 -73.423866 -3.2577207 -59.829365 -3.2923362 -59.602493
-3.2561762 -59.842518 -32.148575 147.66241 -24.244318 133.69554
-3.2966418 -59.603775 -24.241072 133.72661 -28.838629 157.48741
3458850000 -19.442081 -80.757423 -3.2579117 -64.448639 -3.2928278 -64.212891
-3.2568476 -64.456444 -32.13818 147.25362 -24.381363 131.87224
-3.2969477 -64.21521 -24.37882 131.85666 -28.723881 156.76573
3496337500 -19.487619 -88.211754 -3.2578712 -69.063499 -3.2939074 -68.81913
-3.2576566 -69.072296 -32.118332 147.06494 -24.507303 130.12238
-3.2981606 -68.827362 -24.507891 130.09506 -28.607954 155.98456
3533825000 -19.529314 -95.621964 -3.2576241 -73.68261 -3.2941728 -73.428261
-3.2584827 -73.694702 -32.042789 146.84653 -24.631376 128.43329
-3.2998006 -73.438431 -24.634607 128.4566 -28.48344 155.05696
3571312500 -19.574789 -103.05101 -3.2581406 -78.300819 -3.2941589 -78.036949
