! MARKI MICROWAVE INC.
! Email:             	info@markimicrowave.com   				Phone:   408-778-4200
! Model Number:      	PD0440							Date:    05/15
! Filename:		PD-0440.S3P						Version: 1.0
! Description:       	3-port S-parameter data for Power Divider PD-0440
! Measured Frequency: 	10 MHz to 40 GHz		
! Port Configuration:	PORT 1: COMMON, PORT 2 and Port 3: Output


! S3P File: Measurements: Mag<S11> Ang<S11> Mag<S12> Ang<S12> Mag<S13> Ang<S13>! row 1 
!			  Mag<S21> Ang<S21> Mag<S22> Ang<S22> Mag<S23> Ang<S23>! row 2 
!			  Mag<S31> Ang<S31> Mag<S32> Ang<S32> Mag<S33> Ang<S33>! row 3 

# Hz S  dB   R 50

10000000 -9.5980015 170.4409 -3.5932052 -5.6703868 -3.5459259 -5.4807296
-3.568989 -5.4226713 -9.6295328 166.56705 -3.5698841 -7.3845191
-3.5614183 -5.3885236 -3.5877652 -7.1615763 -9.6539383 166.90164
59987500 -9.6264086 169.73073 -3.5864441 -7.1803875 -3.5479484 -7.0238185
-3.5690844 -6.9842782 -9.6786766 164.30711 -3.5914483 -9.6722679
-3.563751 -6.9565763 -3.6068511 -9.5001278 -9.6931868 164.59042
109975000 -9.6589766 168.69049 -3.5806305 -9.0386982 -3.5520389 -8.9135704
-3.5697331 -8.8896198 -9.7373457 161.42038 -3.6183281 -12.459499
-3.5683823 -8.8662043 -3.6323597 -12.333414 -9.7420158 161.64392
159962500 -9.6957979 167.34431 -3.5753016 -11.245603 -3.556474 -11.15045
-3.5711589 -11.145546 -9.8030767 157.905 -3.6537733 -15.740127
-3.5724568 -11.120858 -3.6655753 -15.659956 -9.8028879 158.07277
209950000 -9.7371283 165.69925 -3.5704596 -13.805906 -3.5610695 -13.745503
-3.5728951 -13.742678 -9.8776302 153.76137 -3.6968429 -19.505451
-3.5763237 -13.727925 -3.7063749 -19.476257 -9.8736525 153.88509
259937500 -9.782012 163.73154 -3.5654528 -16.706375 -3.5658524 -16.686621
-3.5743778 -16.694592 -9.9623489 149.03009 -3.7482584 -23.753714
-3.5802462 -16.686558 -3.7548051 -23.768501 -9.9531803 149.09239
309925000 -9.8206835 160.97121 -3.5700712 -19.830044 -3.5687053 -19.805155
-3.5787184 -19.812956 -10.037223 143.4962 -3.8061128 -28.18471
-3.5842161 -19.796797 -3.8138008 -28.199211 -10.032464 143.56906
359912500 -9.8573675 158.17088 -3.5738914 -22.961306 -3.5731413 -22.92696
-3.5829446 -22.943624 -10.119149 137.93996 -3.8714089 -32.597561
-3.5877812 -22.920862 -3.8777792 -32.618549 -10.117848 138.02263
409900000 -9.8935413 155.36108 -3.5770061 -26.097666 -3.5781744 -26.057575
-3.587157 -26.081865 -10.209684 132.40227 -3.9433174 -37.003017
-3.5904596 -26.048693 -3.9481654 -37.01564 -10.206909 132.4693
459887500 -9.9302435 152.5782 -3.5796108 -29.232635 -3.5804541 -29.19767
-3.5902355 -29.209072 -10.305547 126.88183 -4.0228839 -41.388432
-3.5924766 -29.177759 -4.0261989 -41.398415 -10.305696 126.95418
509875000 -9.9648838 149.7798 -3.582478 -32.36002 -3.5839934 -32.334572
-3.5926509 -32.338501 -10.407552 121.39409 -4.1065798 -45.758057
-3.5958054 -32.306446 -4.1105547 -45.750576 -10.410975 121.45107
559862500 -9.9980593 146.99345 -3.5855787 -35.488831 -3.5862188 -35.468678
-3.5951374 -35.473713 -10.514349 115.91933 -4.1983948 -50.097992
-3.5967724 -35.441833 -4.2015238 -50.08345 -10.521525 115.97617
609850000 -10.029855 144.21199 -3.587219 -38.621658 -3.5887508 -38.603157
-3.5958972 -38.606258 -10.630824 110.48503 -4.2953849 -54.412384
-3.5983539 -38.581821 -4.2983403 -54.396484 -10.635301 110.53629
659837500 -10.061302 141.42229 -3.5877986 -41.745022 -3.5895936 -41.726173
-3.5969186 -41.742599 -10.755316 105.0788 -4.3989391 -58.716118
-3.6003954 -41.712734 -4.4010201 -58.686775 -10.755504 105.11001
709825000 -10.090536 138.64014 -3.5894449 -44.873886 -3.5906782 -44.851448
-3.597513 -44.874321 -10.88812 99.651016 -4.5086846 -63.001476
-3.6022153 -44.839348 -4.5113115 -62.967999 -10.882582 99.707558
759812500 -10.117876 135.84846 -3.5904825 -48.006199 -3.591558 -47.97559
-3.5993721 -48.007259 -11.026804 94.246567 -4.6250405 -67.256859
-3.6030154 -47.971149 -4.6260371 -67.221107 -11.018059 94.308174
809800000 -10.145357 133.04393 -3.5909903 -51.136967 -3.591877 -51.107418
-3.5998588 -51.136726 -11.171059 88.837784 -4.7457533 -71.487816
-3.603478 -51.100197 -4.7472811 -71.448914 -11.157104 88.917732
859787500 -10.17598 130.25586 -3.591238 -54.264851 -3.5888424 -54.235344
-3.5997148 -54.257736 -11.316527 83.446716 -4.872324 -75.681366
-3.6025071 -54.224747 -4.8750634 -75.646843 -11.305191 83.54657
909775000 -10.203494 127.45625 -3.592047 -57.393574 -3.5871487 -57.357887
-3.5991936 -57.393322 -11.469005 78.079315 -5.0038147 -79.853668
-3.6013446 -57.351185 -5.0087829 -79.819069 -11.457788 78.180382
959762500 -10.232807 124.64536 -3.5918312 -60.529549 -3.5856988 -60.479668
-3.5990324 -60.525921 -11.626203 72.712852 -5.1431532 -83.990234
-3.5998828 -60.483059 -5.1470604 -83.965485 -11.615407 72.838478
1009750000 -10.264932 121.85053 -3.5907726 -63.664562 -3.5828812 -63.607735
-3.5985143 -63.655273 -11.789234 67.391174 -5.2867994 -88.101105
-3.5974407 -63.613663 -5.2909908 -88.082718 -11.78091 67.522148
1059737500 -10.29798 119.06046 -3.5894012 -66.793518 -3.5789278 -66.73867
-3.5977554 -66.787628 -11.957407 62.088818 -5.4351621 -92.185417
-3.5950119 -66.742973 -5.4399939 -92.167068 -11.952907 62.200668
1109725000 -10.32925 116.26766 -3.5884652 -69.925362 -3.5766454 -69.870918
-3.5954344 -69.917213 -12.130959 56.805359 -5.5894241 -96.229385
-3.5908666 -69.875618 -5.5944262 -96.21756 -12.130203 56.925556
1159712500 -10.363438 113.48316 -3.5863097 -73.062042 -3.5726621 -73.005188
-3.5940216 -73.048958 -12.309793 51.555515 -5.7484303 -100.24265
-3.5866635 -73.016113 -5.7541189 -100.23688 -12.315659 51.653168
1209700000 -10.396537 110.69371 -3.5831661 -76.19381 -3.5696759 -76.144928
-3.5914242 -76.185928 -12.497314 46.330837 -5.9121904 -104.22865
-3.5828886 -76.15274 -5.917182 -104.22022 -12.505363 46.390388
1259687500 -10.430526 107.92209 -3.5788407 -79.323959 -3.5661821 -79.284737
-3.5880368 -79.326401 -12.690125 41.156979 -6.0816169 -108.18927
-3.578949 -79.297127 -6.0850143 -108.17467 -12.70374 41.168297
1309675000 -10.463721 105.16316 -3.5770268 -82.46019 -3.5630255 -82.424789
-3.5853641 -82.4748 -12.894376 35.980343 -6.2533774 -112.11253
-3.5758123 -82.443161 -6.2571177 -112.09814 -12.910088 35.946644
1359662500 -10.499377 102.38712 -3.5731857 -85.600044 -3.559063 -85.576454
-3.5826886 -85.617004 -13.104634 30.783575 -6.4307866 -116.00102
-3.5728977 -85.592514 -6.4346161 -115.98347 -13.117002 30.726593
1409650000 -10.536389 99.629181 -3.5696945 -88.742775 -3.5554912 -88.726234
-3.5790944 -88.756935 -13.323512 25.585358 -6.612587 -119.86266
-3.5682609 -88.739029 -6.6164832 -119.84985 -13.333255 25.514004
1459637500 -10.571393 96.869507 -3.5656259 -91.885948 -3.5516796 -91.879852
-3.5739493 -91.902122 -13.552349 20.395405 -6.7977018 -123.69915
-3.5637584 -91.880318 -6.8023734 -123.67575 -13.55644 20.292021
1509625000 -10.610744 94.07885 -3.5619078 -95.026512 -3.5474145 -95.031212
-3.5696154 -95.04261 -13.789594 15.179519 -6.9867339 -127.4944
-3.5598781 -95.029289 -6.9923034 -127.47005 -13.785315 15.081831
1559612500 -10.653416 91.316902 -3.5573783 -98.170761 -3.5435693 -98.18515
-3.5662482 -98.194717 -14.033704 9.9316959 -7.1786528 -131.25058
-3.557343 -98.180206 -7.1845007 -131.22421 -14.020574 9.8310308
1609600000 -10.696749 88.540115 -3.5531375 -101.3161 -3.540309 -101.33772
-3.5621407 -101.34171 -14.283107 4.6828218 -7.3758545 -134.97601
-3.5539222 -101.32769 -7.3791127 -134.94907 -14.263087 4.5677567
1659587500 -10.743245 85.767403 -3.5496633 -104.46181 -3.5362947 -104.48806
-3.5573928 -104.48573 -14.538139 -0.58295202 -7.5737271 -138.66977
-3.5497949 -104.47785 -7.5784502 -138.64488 -14.510823 -0.69643259
1709575000 -10.792214 82.958153 -3.5461762 -107.61647 -3.5316412 -107.63976
-3.5530374 -107.63744 -14.79669 -5.8720765 -7.7753224 -142.3201
-3.5464492 -107.62842 -7.7822523 -142.30602 -14.759214 -5.9876404
1759562500 -10.844855 80.147438 -3.5412991 -110.76876 -3.5276089 -110.79609
-3.547744 -110.78579 -15.062201 -11.156828 -7.9813304 -145.94235
-3.5416887 -110.78036 -7.9891844 -145.92537 -15.014017 -11.294295
1809550000 -10.899105 77.340355 -3.5365853 -113.91631 -3.5239146 -113.94519
-3.5440264 -113.93001 -15.332088 -16.438772 -8.1909008 -149.5293
-3.5375314 -113.93554 -8.1975365 -149.51474 -15.274879 -16.592991
1859537500 -10.95513 74.5224 -3.5321293 -117.06947 -3.5193727 -117.1059
-3.5397925 -117.0875 -15.610093 -21.717661 -8.4028492 -153.09027
-3.5328939 -117.09013 -8.4094143 -153.06892 -15.543777 -21.919353
1909525000 -11.016364 71.699936 -3.5276532 -120.2242 -3.5157714 -120.26221
-3.5364428 -120.24194 -15.887752 -27.025742 -8.6189137 -156.59827
-3.5291064 -120.25867 -8.6235094 -156.59509 -15.811035 -27.26721
1959512500 -11.075934 68.900887 -3.5232005 -123.38533 -3.5123613 -123.42223
-3.5320921 -123.40085 -16.176531 -32.334084 -8.8376389 -160.07964
-3.5243523 -123.42782 -8.8407707 -160.08147 -16.089012 -32.628639
2009500000 -11.134765 66.072487 -3.5197077 -126.54684 -3.5080097 -126.58226
-3.5277901 -126.5552 -16.472977 -37.677517 -9.0584021 -163.53452
-3.5190067 -126.59263 -9.0621519 -163.55048 -16.373262 -38.02335
2059487500 -11.196783 63.256226 -3.5153463 -129.70338 -3.5037885 -129.74747
-3.5229983 -129.718 -16.783432 -43.070343 -9.279973 -166.95921
-3.5145106 -129.75908 -9.2851515 -166.96829 -16.667868 -43.460262
2109475000 -11.260889 60.440624 -3.5111413 -132.86922 -3.4998128 -132.91414
-3.5193081 -132.88048 -17.103062 -48.504185 -9.5057669 -170.34703
-3.5103779 -132.92397 -9.5099192 -170.35983 -16.964321 -48.924332
2159462500 -11.324049 57.651222 -3.5065613 -136.02957 -3.4968154 -136.07658
-3.5154386 -136.04068 -17.43984 -54.024521 -9.7335558 -173.70073
-3.5067327 -136.09079 -9.7373285 -173.71265 -17.272312 -54.454926
2209450000 -11.386014 54.855736 -3.5028865 -139.19122 -3.4944546 -139.24268
-3.5122974 -139.20238 -17.780603 -59.609768 -9.9665728 -177.02286
-3.5039046 -139.25731 -9.9683647 -177.03416 -17.581663 -59.980831
2259437500 -11.449157 52.07333 -3.4995985 -142.35857 -3.4905102 -142.40663
-3.5059185 -142.37097 -18.140057 -65.30365 -10.198405 179.68518
-3.4989879 -142.42209 -10.200321 179.67451 -17.903799 -65.628128
2309425000 -11.511161 49.279991 -3.4961185 -145.52029 -3.4880903 -145.57286
-3.5016623 -145.53357 -18.506268 -71.11731 -10.433118 176.43698
-3.4964767 -145.58784 -10.435984 176.42484 -18.227087 -71.351341
2359412500 -11.574911 46.486691 -3.491684 -148.68669 -3.4846604 -148.7422
-3.4970019 -148.70148 -18.886543 -77.017456 -10.671718 173.21547
-3.4939516 -148.75662 -10.677229 173.21083 -18.561287 -77.088097
2409400000 -11.635716 43.695248 -3.4879911 -151.85619 -3.4809747 -151.90965
-3.492219 -151.8652 -19.267767 -83.060471 -10.912449 170.0274
-3.4904921 -151.91299 -10.918874 170.02635 -18.902773 -82.937363
2459387500 -11.694632 40.878616 -3.4837015 -155.02596 -3.4778574 -155.0779
-3.4877496 -155.03464 -19.65114 -89.20414 -11.159484 166.87184
-3.4881597 -155.08046 -11.16465 166.88361 -19.239323 -88.833496
2509375000 -11.754573 38.053795 -3.4798329 -158.19759 -3.4753432 -158.24208
-3.4823318 -158.20169 -20.03113 -95.508156 -11.409559 163.77061
-3.4840214 -158.24454 -11.414033 163.77875 -19.570122 -94.81485
2559362500 -11.811902 35.245724 -3.4745059 -161.36783 -3.4723523 -161.40663
-3.4776435 -161.36981 -20.417406 -101.9986 -11.660925 160.68768
-3.4799509 -161.41202 -11.663009 160.69785 -19.91325 -100.95553
2609350000 -11.870759 32.405136 -3.4698334 -164.53893 -3.4684436 -164.5726
-3.4727869 -164.53595 -20.792782 -108.62903 -11.914595 157.66071
-3.4759114 -164.57886 -11.914027 157.66579 -20.253428 -107.1414
2659337500 -11.930902 29.577766 -3.4648118 -167.7061 -3.4644601 -167.73145
-3.4674919 -167.71042 -21.168007 -115.36706 -12.171664 154.67291
-3.4711401 -167.74641 -12.171149 154.66977 -20.600449 -113.44652
2709325000 -11.990168 26.738852 -3.4599249 -170.8761 -3.4612925 -170.90338
-3.4653018 -170.87794 -21.524343 -122.29608 -12.432399 151.72398
-3.4687347 -170.91461 -12.432996 151.72546 -20.928585 -119.84265
2759312500 -12.052886 23.90694 -3.4540896 -174.0457 -3.4568534 -174.06508
-3.4607306 -174.04785 -21.872894 -129.3707 -12.696395 148.83504
-3.4651244 -174.08499 -12.696877 148.83086 -21.259167 -126.33183
2809300000 -12.111923 21.07007 -3.4497051 -177.21548 -3.4529092 -177.22916
-3.4553571 -177.21768 -22.196865 -136.60583 -12.962228 145.98576
-3.46017 -177.24495 -12.96032 145.98405 -21.577337 -133.01663
2859287500 -12.171959 18.227016 -3.4451261 179.61562 -3.4499621 179.60626
-3.4511874 179.60278 -22.501667 -144.03316 -13.230821 143.19901
-3.4557927 179.58524 -13.230192 143.19527 -21.873919 -139.79396
2909275000 -12.2371 15.399396 -3.4414232 176.44714 -3.4466157 176.43962
-3.4465122 176.43108 -22.784248 -151.62451 -13.501384 140.47278
-3.45105 176.42096 -13.500019 140.46507 -22.165602 -146.73703
2959262500 -12.299168 12.599323 -3.4366832 173.27208 -3.4421861 173.27185
-3.443032 173.25734 -23.037226 -159.36781 -13.775373 137.77592
-3.4479613 173.24922 -13.77319 137.76689 -22.44853 -153.78015
3009250000 -12.36246 9.7727098 -3.4328516 170.09991 -3.4370439 170.09633
-3.4374251 170.07927 -23.249052 -167.18106 -14.051376 135.16884
-3.4438283 170.07428 -14.054425 135.16019 -22.69565 -160.89523
3059237500 -12.426435 6.9513016 -3.4287548 166.92697 -3.4332986 166.92479
-3.432215 166.90317 -23.429237 -175.21077 -14.330647 132.58354
-3.4392965 166.90695 -14.335483 132.58817 -22.929064 -168.15813
3109225000 -12.486451 4.1008496 -3.4237344 163.74585 -3.428473 163.74971
-3.4275978 163.73441 -23.54966 176.67711 -14.608427 130.08525
-3.435617 163.73415 -14.615126 130.08479 -23.119488 -175.62219
3159212500 -12.550516 1.2353898 -3.4192393 160.56888 -3.4241476 160.57513
-3.4225326 160.55589 -23.623386 168.58247 -14.88797 127.65531
-3.4300222 160.564 -14.894797 127.65124 -23.286209 176.92085
3209200000 -12.613749 -1.6108164 -3.4146276 157.38841 -3.4189947 157.40378
-3.4179964 157.38075 -23.638474 160.5377 -15.168733 125.28853
-3.4249802 157.39349 -15.173664 125.29785 -23.408829 169.44949
3259187500 -12.679864 -4.4865336 -3.410166 154.21248 -3.4141464 154.23164
-3.4147923 154.2005 -23.608625 152.47336 -15.446371 122.99051
-3.4214325 154.21852 -15.45092 122.99403 -23.49585 161.93004
3309175000 -12.746846 -7.3951092 -3.4065013 151.03273 -3.409508 151.05542
-3.4113595 151.02402 -23.527054 144.62668 -15.726027 120.76605
-3.418294 151.04126 -15.728272 120.77567 -23.552118 154.45953
3359162500 -12.817766 -10.302316 -3.4010735 147.85287 -3.4045491 147.88457
-3.4077992 147.84395 -23.406006 136.96426 -16.005835 118.60976
-3.4146035 147.86395 -16.009569 118.62415 -23.578468 147.02238
3409150000 -12.889457 -13.242761 -3.3972876 144.67575 -3.3999765 144.71159
-3.4038494 144.66368 -23.244968 129.49467 -16.280466 116.53944
-3.410042 144.6891 -16.285469 116.54099 -23.556948 139.60045
3459137500 -12.966273 -16.192152 -3.3927796 141.50017 -3.3953927 141.53896
-3.4012427 141.48605 -23.056337 122.24376 -16.555824 114.53926
-3.406548 141.5195 -16.557394 114.55087 -23.519196 132.34293
3509125000 -13.040164 -19.163816 -3.3896854 138.32213 -3.3915153 138.36674
-3.3989513 138.30974 -22.839937 115.34094 -16.828478 112.63181
-3.402724 138.34813 -16.827753 112.62993 -23.442616 125.10999
3559112500 -13.119211 -22.122671 -3.3870957 135.14453 -3.3879311 135.19023
-3.3954327 135.12453 -22.614557 108.6043 -17.096519 110.76368
-3.3983808 135.17995 -17.093409 110.77738 -23.339994 118.0887
3609100000 -13.200526 -25.116274 -3.3844082 131.96217 -3.3838575 132.01755
-3.3915684 131.94341 -22.376894 102.15231 -17.359226 109.01547
-3.394614 132.00275 -17.354567 109.03131 -23.219767 111.24271
3659087500 -13.280367 -28.15147 -3.3822238 128.7813 -3.3812854 128.83806
-3.3879197 128.75896 -22.136368 95.900818 -17.615219 107.33501
-3.3911636 128.82443 -17.612019 107.34302 -23.082228 104.4824
3709075000 -13.36205 -31.183662 -3.3783767 125.59879 -3.3775241 125.65965
-3.3836069 125.5799 -21.89994 89.912689 -17.869017 105.76291
-3.3863182 125.64682 -17.864815 105.76776 -22.938307 97.971207
3759062500 -13.446033 -34.218014 -3.3744879 122.42085 -3.3736556 122.4836
-3.3798006 122.40695 -21.666195 84.038689 -18.116251 104.2145
-3.3817108 122.47184 -18.111803 104.20796 -22.782448 91.548874
3809050000 -13.53226 -37.245499 -3.3718181 119.23715 -3.3708026 119.30357
-3.3764281 119.2233 -21.41996 78.313133 -18.348394 102.78185
-3.3784811 119.29202 -18.34354 102.77451 -22.596542 85.258308
3859037500 -13.630322 -40.125114 -3.3685858 116.04481 -3.3677845 116.11317
-3.3735085 116.03307 -21.126526 72.684303 -18.548149 101.55396
-3.3753099 116.10609 -18.544836 101.55885 -22.350733 79.000839
3909025000 -13.727845 -43.009041 -3.3661087 112.84779 -3.365391 112.92778
-3.3709052 112.84599 -20.837187 67.17112 -18.737534 100.36031
-3.3721082 112.91585 -18.736223 100.34906 -22.094484 72.859535
3959012500 -13.830127 -45.86911 -3.3624461 109.65474 -3.3616199 109.73694
-3.3678961 109.65369 -20.545094 61.8414 -18.913506 99.255173
-3.3690705 109.72056 -18.91538 99.252586 -21.825899 66.992416
4009000000 -13.935374 -48.737862 -3.3590815 106.46004 -3.3585589 106.54863
-3.36518 106.46576 -20.255796 56.673916 -19.080221 98.172325
-3.3651807 106.52559 -19.082926 98.169159 -21.558365 61.277386
4058987500 -14.039071 -51.6035 -3.3554077 103.26694 -3.3550758 103.35654
-3.3624477 103.27173 -19.976665 51.629345 -19.233189 97.128769
-3.3620842 103.33189 -19.233973 97.124161 -21.299305 55.648731
4108975000 -14.144939 -54.475716 -3.3523705 100.07683 -3.3516304 100.1655
-3.3601487 100.08072 -19.706778 46.714806 -19.371634 96.160301
-3.3594742 100.14095 -19.373846 96.131241 -21.037411 50.177895
4158962500 -14.248638 -57.334911 -3.3504028 96.882446 -3.3490052 96.972672
-3.358496 96.888374 -19.435961 41.878334 -19.494307 95.184578
-3.3577518 96.943298 -19.496094 95.166588 -20.766298 44.791042
4208950000 -14.355496 -60.174679 -3.3480179 93.685455 -3.3455858 93.781761
-3.355885 93.688667 -19.169718 37.162251 -19.603048 94.242531
-3.3551164 93.751289 -19.604992 94.239212 -20.492666 39.550663
4258937500 -14.454729 -63.050694 -3.3457956 90.490089 -3.3421197 90.587189
-3.3536968 90.496239 -18.92659 32.582329 -19.695856 93.314926
-3.3517771 90.551979 -19.698519 93.316116 -20.235014 34.477615
4308925000 -14.548302 -66.086182 -3.3436778 87.305527 -3.3394132 87.397064
-3.3515899 87.30983 -18.735659 28.202938 -19.797905 92.238953
-3.349057 87.360992 -19.799696 92.259651 -20.03582 29.693911
4358912500 -14.637075 -69.113106 -3.3411925 84.12439 -3.3366549 84.210022
-3.3486891 84.117119 -18.549141 23.906502 -19.885176 91.225189
-3.3458443 84.170273 -19.885616 91.240135 -19.841425 24.973536
4408900000 -14.728432 -72.145493 -3.3397727 80.939774 -3.3347788 81.018829
-3.3471313 80.927475 -18.37591 19.650593 -19.954693 90.151825
-3.3437045 80.981575 -19.956179 90.16011 -19.653889 20.325087
4458887500 -14.819733 -75.212196 -3.3375576 77.757477 -3.3329086 77.826431
-3.3454163 77.737701 -18.213076 15.478575 -20.007727 89.125252
-3.3422439 77.787674 -20.005398 89.137787 -19.479492 15.777732
4508875000 -14.913958 -78.263695 -3.3358624 74.574387 -3.3308849 74.632431
-3.344311 74.551796 -18.056608 11.357161 -20.041548 88.073631
-3.3409491 74.594208 -20.042568 88.093735 -19.30134 11.296008
4558862500 -15.011995 -81.296616 -3.3334546 71.382942 -3.3282888 71.436234
-3.3427124 71.363304 -17.909405 7.2648001 -20.06735 86.974098
-3.3383689 71.398949 -20.063751 87.006905 -19.133169 6.8697243
4608850000 -15.114681 -84.334709 -3.3316119 68.194908 -3.3260937 68.242233
-3.3401034 68.172951 -17.767719 3.2838118 -20.071672 85.820686
-3.336292 68.207619 -20.072016 85.853455 -18.969406 2.530623
4658837500 -15.216791 -87.383453 -3.3299892 65.009155 -3.3245907 65.043633
-3.3382251 64.981499 -17.635542 -0.68014979 -20.061832 84.675201
-3.3349195 65.010056 -20.063116 84.707184 -18.810932 -1.7285656
4708825000 -15.329935 -90.405495 -3.3279943 61.817398 -3.3232541 61.843014
-3.3362279 61.788509 -17.501986 -4.6038551 -20.042839 83.429214
-3.3332427 61.819973 -20.044064 83.465477 -18.657803 -5.9371881
4758812500 -15.437295 -93.441109 -3.326014 58.625774 -3.3209784 58.648411
-3.3342285 58.602417 -17.388432 -8.50951 -20.010719 82.189926
