! MARKI MICROWAVE INC.
! Email:             	info@markimicrowave.com   				Phone:   408-778-4200
! Model Number:      	PD0R510							Date:    07/11
! Filename:		PD-0R510.S3P						Version: 1.0
! Description:       	3-port S-parameter data for Power Divider PD0R510
! Frequency Range: 	10 MHz to 10 GHz		
! Port Configuration:	PORT 1: COMMON, PORT 2 and Port 3: Output


! S3P File: Measurements: Mag<S11> Ang<S11> Mag<S12> Ang<S12> Mag<S13> Ang<S13>! row 1 
!			  Mag<S21> Ang<S21> Mag<S22> Ang<S22> Mag<S23> Ang<S23>! row 2 
!			  Mag<S31> Ang<S31> Mag<S32> Ang<S32> Mag<S33> Ang<S33>! row 3 


# GHz S DB R 50

0.01	-9.62755	172.009		-3.56762	-2.09453	-3.68624	-2.42601
	-3.69222	-1.90914	-9.55188	164.386		-3.69394	-3.75059
	-3.70674	-2.2583		-3.84034	-4.43307	-9.61295	163.922
0.06	-9.78393	168.279		-3.61673	-8.38227	-3.64282	-8.3453
	-3.63017	-8.35697	-10.2361	147.541		-4.13605	-17.6188
	-3.64279	-8.32621	-4.15412	-17.7276	-10.2738	147.619
0.11	-9.91594	162.291		-3.62598	-14.8627	-3.63153	-14.7458
	-3.62345	-14.859		-10.8799	127.237		-4.75067	-30.3418
	-3.62996	-14.7438	-4.7509		-30.3517	-10.932		127.495
0.16	-10.0444	155.398		-3.63015	-21.4267	-3.62756	-21.2785
	-3.62861	-21.4131	-11.5741	107.15		-5.51203	-41.7319
	-3.62622	-21.2721	-5.51162	-41.727		-11.6573	107.459
0.21	-10.178		148.361		-3.63296	-28.009		-3.62279	-27.8586
	-3.63304	-27.9855	-12.3345	88.8292		-6.3599		-51.5982
	-3.62342	-27.847		-6.35973	-51.5752	-12.4531	89.1249
0.26	-10.3115	141.377		-3.62968	-34.5947	-3.61348	-34.4554
	-3.62975	-34.5621	-13.0833	72.1168		-7.22105	-60.2488	
	-3.61475	-34.4262	-7.2214		-60.2256	-13.2495	72.3258
0.31	-10.4576	134.503		-3.62083	-41.177		-3.59988	-41.0611
	-3.61941	-41.1557	-13.802		56.8396		-8.06444	-67.9597	
	-3.60056	-41.0313	-8.06432	-67.9325	-14.0169	56.8893
0.36	-10.632		127.716		-3.60962	-47.7605	-3.58617	-47.6608
	-3.60875	-47.7414	-14.4966	42.8123		-8.87485	-74.8951
	-3.58662	-47.6416	-8.8769		-74.865		-14.7628	42.6655
0.41	-10.827		120.955		-3.59641	-54.3613	-3.56997	-54.2756	
	-3.59619	-54.3449	-15.1719	29.7808		-9.65197	-81.3226
	-3.57102	-54.2699	-9.65449	-81.3031	-15.4857	29.3762
0.46	-11.0418	114.273		-3.57876	-60.9859	-3.55114	-60.9206
	-3.57873	-60.9808	-15.837		17.5061		-10.3975	-87.4112
	-3.55157	-60.9214	-10.3985	-87.3979	-16.1954	16.7621
0.51	-11.2884	107.682		-3.56214	-67.6373	-3.53289	-67.5897
	-3.5634		-67.6429	-16.5129	5.92726		-11.117		-93.2236
	-3.53509	-67.593		-11.1183	-93.2114	-16.9117	4.75234
0.56	-11.5689	101.114		-3.54316	-74.287		-3.51309	-74.2614
	-3.54426	-74.286		-17.2027	-5.23313	-11.8154	-98.8685
	-3.51486	-74.2526	-11.8173	-98.8389	-17.6411	-6.93794
0.61	-11.8689	94.5721		-3.5229		-80.948		-3.49037	-80.9459
	-3.524		-80.946		-17.925		-16.0325	-12.5031	-104.396
	-3.49372	-80.9282	-12.5041	-104.357	-18.4023	-18.3233
0.66	-12.1911	88.1651		-3.50128	-87.6371	-3.46883	-87.6448
	-3.50177	-87.6352	-18.7027	-26.5071	-13.1861	-109.855
	-3.47115	-87.6362	-13.1872	-109.819	-19.2125	-29.4228
0.71	-12.5547	81.9363		-3.47811	-94.3634	-3.44464	-94.386	
	-3.47644	-94.3631	-19.5287	-36.7896	-13.8759	-115.301	
	-3.44549	-94.3867	-13.8755	-115.274	-20.0582	-40.4318
0.76	-12.9776	75.7417		-3.45438	-101.099	-3.42202	-101.132
	-3.45227	-101.085	-20.3969	-47.1089	-14.5775	-120.74
	-3.4226		-101.121	-14.5783	-120.702	-20.9293	-51.666
0.81	-13.4356	69.6017		-3.43421	-107.859	-3.40232	-107.907
	-3.43273	-107.838	-21.3357	-57.5015	-15.3035	-126.173	
	-3.40385	-107.88		-15.305		-126.126	-21.8508	-63.1081
0.86	-13.9315	63.6372		-3.41297	-114.625	-3.38281	-114.683
	-3.41303	-114.608	-22.3696	-68.1075	-16.0579	-131.629
	-3.38371	-114.663	-16.0627	-131.583	-22.855		-74.9046
0.91	-14.4924	57.9259		-3.39262	-121.41		-3.3633		-121.483
	-3.39304	-121.395	-23.4955	-79.0212	-16.8563	-137.119	
	-3.36328	-121.471	-16.8583	-137.079	-23.9153	-87.2538
0.96	-15.1314	52.3681		-3.37609	-128.21		-3.34639	-128.297
	-3.37583	-128.203	-24.6877	-90.6999	-17.7053	-142.623
	-3.34697	-128.293	-17.7045	-142.584	-24.9674	-100.604
1.01	-15.8285	46.9224		-3.36108	-135.024	-3.33112	-135.122
	-3.35827	-135.002	-25.9453	-103.565	-18.6191	-148.158	
	-3.33127	-135.109	-18.6136	-148.126	-25.97		-115.208
1.06	-16.5918	41.8011		-3.34594	-141.845	-3.31749	-141.956
	-3.34504	-141.814	-27.2536	-117.949	-19.6069	-153.743
	-3.31907	-141.927	-19.6051	-153.713	-26.8845	-130.96
1.11	-17.4545	37.182		-3.33323	-148.693	-3.30674	-148.8
	-3.33357	-148.66		-28.5756	-133.768	-20.6984	-159.356
	-3.30894	-148.781	-20.6955	-159.328	-27.6893	-147.61
1.16	-18.4223	32.9616		-3.32193	-155.537	-3.29729	-155.653
	-3.3221		-155.511	-29.782		-151.518	-21.9121	-165.018
	-3.29881	-155.631	-21.9107	-164.981	-28.2593	-165.027
1.21	-19.4788	29.3048		-3.31381	-162.374	-3.28956	-162.497
	-3.31199	-162.353	-30.655		-171.287	-23.2862	-170.682	
	-3.28974	-162.479	-23.284		-170.646	-28.5127	177.249
1.26	-20.6202	26.5615		-3.30863	-169.211	-3.28588	-169.343
	-3.30741	-169.201	-31.1416	167.937		-24.8789	-176.34	
	-3.28581	-169.333	-24.8757	-176.306	-28.5286	160.117
1.31	-21.8702	25.2925		-3.30484	-176.051	-3.2833		-176.189	
	-3.30401	-176.041	-31.1586	147.299		-26.7782	177.976
	-3.28339	-176.176	-26.7769	178.013		-28.3223	143.972
1.36	-23.2315	25.7997		-3.30099	177.099		-3.28013	176.967
	-3.30137	177.109		-30.9005	128.153		-29.1396	172.296
	-3.28143	176.981		-29.1516	172.31		-28.0244	129.116
1.41	-24.6069	28.5421		-3.30123	170.261		-3.28142	170.122	
	-3.30179	170.275		-30.3815	110.98		-32.3233	166.798	
	-3.28291	170.141		-32.3319	166.806		-27.6362	115.543
1.46	-25.8045	33.9464		-3.30159	163.42		-3.28244	163.281	
	-3.30256	163.432		-29.7482	95.9108		-37.5661	161.656	
	-3.28501	163.296		-37.5656	161.567		-27.2423	103.089
1.51	-26.6156	42.0821		-3.30339	156.588		-3.28578	156.439	
	-3.30512	156.598		-29.1881	82.5049		-45.6043	-159.807
	-3.28855	156.46		-45.9394	-161.711	-26.9286	91.6226
1.56	-26.8847	51.4602		-3.30884	149.759		-3.29211	149.617
	-3.31144	149.778		-28.7213	70.0983		-46.4845	-99.6444
	-3.29464	149.637		-46.8505	-101.399	-26.6888	80.8535
1.61	-26.5926	59.8447		-3.31392	142.944		-3.2968		142.802	
	-3.31546	142.97		-28.273		58.6021		-40.5514	-42.0519
	-3.29817	142.822		-40.7346	-42.0531	-26.4522	70.5686
1.66	-25.8881	65.6195		-3.31987	136.134		-3.3025		135.988
	-3.32099	136.158		-27.888		47.9216		-34.3964	-44.1777
	-3.30416	136.006		-34.4201	-43.9802	-26.2599	60.7107
1.71	-24.9794	68.5974		-3.32871	129.338		-3.31058	129.177
	-3.32868	129.354		-27.6506	37.5216		-31.3363	-49.6644
	-3.31156	129.196		-31.3305	-49.582		-26.1829	51.0723
1.76	-24.0616	69.264		-3.33647	122.539		-3.31859	122.375
	-3.33644	122.546		-27.4927	27.1835		-29.2603	-55.3387
	-3.31945	122.39		-29.2516	-55.2903	-26.1842	41.5765
1.81	-23.2327	68.0586		-3.34397	115.74		-3.32601	115.577	
	-3.3425		115.751		-27.3627	17.0378		-27.7202	-61.0338
	-3.32556	115.598		-27.7126	-60.9779	-26.196		32.078
1.86	-22.512		65.4172		-3.3524		108.946		-3.33598	108.785	
	-3.35241	108.961		-27.2787	6.98957		-26.5265	-66.8128
	-3.33705	108.813		-26.5172	-66.7233	-26.253		22.5397
1.96	-21.38		57.1626		-3.36885	95.412		-3.35381	95.2368
	-3.37079	95.4202		-27.1638	-13.7462	-24.7984	-78.3023
	-3.35683	95.2653		-24.7919	-78.1654	-26.4688	2.73127
2.01	-21		52.0156		-3.37783	88.6414		-3.36499	88.4693
	-3.37908	88.651		-27.1061	-24.1507	-24.1715	-84.017	
	-3.3653		88.4867		-24.1745	-83.8772	-26.5853	-7.44384
2.06	-20.6994	46.4566		-3.38543	81.8902		-3.37328	81.7147
	-3.38709	81.9032		-27.0962	-34.3001	-23.6702	-89.6568
	-3.37401	81.74		-23.6745	-89.5411	-26.7291	-17.5597
2.11	-20.4673	40.626		-3.39284	75.1387		-3.38053	74.9628
	-3.39399	75.1491		-27.1449	-44.5339	-23.27		-95.2949
	-3.38208	74.9823		-23.272		-95.2302	-26.9413	-27.7421
2.16	-20.3065	34.6059		-3.40123	68.4023		-3.38845	68.221
	-3.40249	68.4094		-27.2317	-54.9247	-22.9603	-100.913
	-3.38993	68.2307		-22.963		-100.885	-27.211		-38.1653
2.21	-20.2196	28.4569		-3.40563	61.6646		-3.39451	61.4799	
	-3.40788	61.6657		-27.3579	-65.3152	-22.7263	-106.503
	-3.39501	61.4827		-22.7329	-106.492	-27.5166	-48.7737
2.26	-20.2065	22.2053		-3.41045	54.9243		-3.40039	54.7425
	-3.41083	54.939		-27.5472	-75.6727	-22.57		-112.056
	-3.39934	54.7583		-22.5724	-111.999	-27.8746	-59.4355
2.31	-20.2658	15.8186		-3.41673	48.1815		-3.40636	48.0053	
	-3.41509	48.2017		-27.7589	-86.442		-22.4817	-117.55
	-3.40516	48.0222		-22.4854	-117.485	-28.2943	-70.635
2.36	-20.3872	9.36751		-3.4203		41.439		-3.4107		41.2575	
	-3.41807	41.4586		-27.9843	-97.3263	-22.4607	-122.945
	-3.40939	41.281		-22.4578	-122.927	-28.7449	-82.1682
2.41	-20.5583	2.90207		-3.42295	34.7066		-3.41421	34.5198		
	-3.42257	34.7198		-28.2665	-108.602	-22.496		-128.282
	-3.41487	34.5404		-22.4969	-128.256	-29.2429	-94.3599
2.51	-21.0434	-9.8773		-3.42547	21.2248		-3.41948	21.0421	
	-3.42496	21.2286		-29.0188	-132.391	-22.7472	-138.693
	-3.42037	21.0509		-22.7513	-138.633	-30.4246	-120.559
2.56	-21.3801	-16.2005	-3.42716	14.4834		-3.42161	14.3015
	-3.42683	14.4922		-29.4339	-145.093	-22.9637	-143.657	
	-3.42228	14.312		-22.9698	-143.607	-31.082		-135.096
2.61	-21.7755	-22.3046	-3.42959	7.73966		-3.42352	7.5627
	-3.42868	7.74807		-29.8374	-158.594	-23.2414	-148.436
	-3.42403	7.5677		-23.2417	-148.422	-31.6937	-150.93
2.66	-22.2199	-28.1789	-3.42922	1.00097		-3.42404	0.824744
	-3.42863	1.01388		-30.1789	-173.282	-23.575		-153.032
	-3.42534	0.835508	-23.5752	-153.031	-32.1831	-168.39
2.71	-22.7506	-33.7485	-3.42837	-5.75155	-3.42429	-5.92367
	-3.42898	-5.7376		-30.4567	171.328		-23.967		-157.402
	-3.43147	-12.4994	-30.6111	155.202		-24.4252	-161.406
2.76	-23.3401	-38.9282	-3.4294		-12.5058	-3.42617	-12.6791
	-3.43147	-12.4994	-30.6111	155.202		-24.4252	-161.406
	-3.42711	-12.67		-24.4382	-161.473	-32.6065	153.183	
2.81	-23.9876	-43.6043	-3.42891	-19.2627	-3.42455	-19.4385
	-3.43235	-19.2598	-30.6369	138.621		-24.9435	-165.025
	-3.42687	-19.4204	-24.9434	-165.092	-32.3948	133.374
2.86	-24.6896	-47.7923	-3.42898	-26.0253	-3.42453	-26.2035
	-3.43097	-26.0209	-30.414		122.159		-25.5092	-168.155
	-3.42748	-26.1839	-25.5127	-168.202	-31.8182	114.858
2.91	-25.4746	-51.1438	-3.42986	-32.8008	-3.4257		-32.9735	
	-3.42915	-32.7902	-29.9676	105.918		-26.1269	-170.717
	-3.42534	-32.9476	-26.1212	-170.746	-30.9987	97.3851
2.96	-26.3313	-53.5688	-3.43058	-39.568		-3.42726	-39.7407
	-3.4289		-39.564		-29.4235	90.654		-26.776		-172.56	
	-3.42493	-39.7232	-26.7696	-172.54		-30.1203	81.597
3.01	-27.23		-54.5527	-3.43225	-46.3463	-3.42881	-46.5149
	-3.4304		-46.3469	-28.7791	76.3203		-27.4383	-173.559
	-3.42624	-46.499		-27.4421	-173.408	-29.213		67.2195
3.06	-28.1319	-54.1577	-3.43582	-53.126		-3.43092	-53.2922
	-3.43265	-53.1323	-28.0728	63.2297		-28.0763	-173.517
	-3.42995	-53.286		-28.0918	-173.362	-28.3173	54.4702
3.11	-28.9573	-52.0793	-3.43773	-59.9089	-3.43461	-60.0713	
	-3.43518	-59.9085	-27.3634	51.2174		-28.6547	-172.467
	-3.43274	-60.058		-28.6723	-172.435	-27.4631	42.9025
3.16	-29.608		-48.4463	-3.44023	-66.6794	-3.43752	-66.842
	-3.43806	-66.6717	-26.717		39.9557		-29.1233	-170.48
	-3.43706	-66.8307	-29.1294	-170.528	-26.7288	32.1587
3.21	-30.0307	-43.1862	-3.44375	-73.4572	-3.4418		-73.6225	
	-3.44163	-73.4472	-26.1096	29.4498		-29.4158	-167.868
	-3.44141	-73.6132	-29.4177	-167.93		-26.0648	22.1076
3.26	-30.1419	-37.3607	-3.44639	-80.2346	-3.44485	-80.3964
	-3.44644	-80.2231	-25.5433	19.6245		-29.5103	-164.937
	-3.44613	-80.3848	-29.5077	-165.042	-25.4956	12.681
3.31	-29.9027	-31.8249	-3.4513		-87.0091	-3.45018	-87.1704
	-3.45256	-86.9904	-25.0599	10.4406		-29.4067	-162.324	
	-3.45173	-87.1531	-29.4022	-162.386	-25.018		3.79099
3.36	-29.4001	-27.4861	-3.45728	-93.7825	-3.45656	-93.9281
	-3.4583		-93.7566	-24.6736	1.71933		-29.1261	-160.199
	-3.45715	-93.914		-29.1134	-160.324	-24.6404	-4.71098
3.41	-28.7754	-24.5356	-3.46203	-100.55		-3.46056	-100.691
	-3.4625		-100.525	-24.3656	-6.61264	-28.7271	-158.992
	-3.46112	-100.677	-28.7097	-159.067	-24.3537	-12.8866
3.46	-28.1226	-22.7579	-3.4667		-107.302	-3.46618	-107.446	
	-3.46706	-107.287	-24.124		-14.5287	-28.2343	-158.811	
	-3.46644	-107.432	-28.2294	-158.806	-24.1427	-20.7297
3.51	-27.4739	-22.0029	-3.4712		-114.058	-3.47309	-114.21	
	-3.47245	-114.047	-23.9746	-22.0883	-27.7347	-159.622
	-3.47242	-114.189	-27.7409	-159.507	-24.0249	-28.2256
3.56	-26.8796	-22.0749	-3.47554	-120.809	-3.47774	-120.967	
	-3.47736	-120.81		-23.9112	-29.4464	-27.2412	-161.143
	-3.47857	-120.953	-27.2585	-161.082	-23.9961	-35.5699
3.61	-26.3264	-22.7946	-3.48018	-127.561	-3.48347	-127.708
	-3.48254	-127.548	-23.9636	-36.6722	-26.8		-163.424	
	-3.4829		-127.69		-26.8159	-163.399	-24.0838	-42.8589
3.66	-25.8647	-23.8221	-3.4862		-134.322	-3.48819	-134.46
	-3.48789	-134.308	-24.0995	-43.5143	-26.4012	-166.317
	-3.48869	-134.451	-26.4188	-166.317	-24.2635	-49.8335
3.71	-25.4676	-25.0436	-3.4915		-141.081	-3.492		-141.21	
	-3.49201	-141.074	-24.3582	-50.149		-26.069		-169.68	
	-3.49267	-141.207	-26.0793	-169.671	-24.5607	-56.6584
3.76	-25.118		-26.3499	-3.4963		-147.845	-3.49646	-147.961
	-3.49663	-147.835	-24.747		-56.7182	-25.7855	-173.381	
	-3.49778	-147.964	-25.7929	-173.35		-24.984		-63.4525
3.81	-24.813		-27.5998	-3.50051	-154.594	-3.50103	-154.713
	-3.50144	-154.581	-25.2673	-63.174		-25.5625	-177.393
	-3.50167	-154.711	-25.565		-177.331	-25.5411	-70.3303
3.86	-24.5688	-28.6891	-3.50352	-161.343	-3.50404	-161.468
	-3.50453	-161.335	-25.9389	-69.2405	-25.3906	178.394
	-3.50469	-161.459	-25.4002	178.456		-26.2438	-77.0855
3.91	-24.3525	-29.7417	-3.50878	-168.101	-3.50798	-168.233	
	-3.5091		-168.101	-26.8275	-74.9393	-25.2938	174.069
	-3.50917	-168.215	-25.2941	174.13		-27.1505	-83.7227
3.96	-24.1736	-30.7264	-3.51354	-174.865	-3.51234	-174.993
	-3.51331	-174.865	-27.9627	-80.3438	-25.2586	169.616
	-3.514		-174.977	-25.2594	169.695		-28.3023	-90.3861
4.01	-24.0004	-31.7801	-3.51594	178.368		-3.51494	178.245
	-3.51609	178.372		-29.4288	-85.1739	-25.2846	165.145
	-3.51685	178.262		-25.2894	165.209		-29.7738	-97.2298
4.06	-23.8128	-32.6423	-3.5209		171.605		-3.51969	171.493	
	-3.52065	171.615		-31.4073	-89.0711	-25.3704	160.684
	-3.52072	171.501		-25.3768	160.701		-31.7453	-104.796
4.11	-23.6144	-33.3895	-3.52634	164.838		-3.52474	164.735	
	-3.5267		164.844		-34.2664	-90.3375	-25.5231	156.249
	-3.5265		164.734		-25.5315	156.262		-34.5818	-113.754
4.16	-23.3971	-34.0796	-3.52929	158.074		-3.52732	157.977
	-3.52877	158.082		-38.7775	-82.3527	-25.7315	151.866
	-3.52852	157.978		-25.7399	151.919		-39.2509	-130.292
4.21	-23.1995	-34.877		-3.53354	151.311		-3.53115	151.211
	-3.53403	151.312		-42.2602	-48.7308	-26.0042	147.633
	-3.53402	151.213		-26.0142	147.648		-44.0359	-177.213
4.26	-22.9946	-35.7528	-3.53762	144.549		-3.53617	144.443	
	-3.53928	144.547		-41.7635	-5.98812	-26.336		143.592	
	-3.53885	144.446		-26.3418	143.601		-44.1334	122.492
4.31	-22.7803	-36.9209	-3.54173	137.789		-3.53951	137.687
	-3.54429	137.788		-37.3353	24.1098		-26.7317	139.789
	-3.5431		137.687		-26.7379	139.837		-39.4125	73.7579
4.36	-22.5805	-38.1883	-3.54646	131.02		-3.54446	130.928	
	-3.54844	131.029		-33.1013	29.796		-27.1909	136.313	
	-3.54727	130.931		-27.191		136.419		-34.4224	56.6625
4.41	-22.4084	-39.6346	-3.55133	124.254		-3.54929	124.16
	-3.55166	124.271		-30.256		27.7809		-27.7006	133.255	
	-3.54997	124.182		-27.7076	133.368		-31.3725	47.5334
4.46	-22.2641	-41.2658	-3.55581	117.497		-3.55357	117.401
	-3.55544	117.506		-28.1395	23.8227		-28.2666	130.777
	-3.55376	117.425		-28.2747	130.816		-29.1627	39.9645
4.51	-22.1494	-43.1656	-3.56046	110.742		-3.55831	110.655	
	-3.5605		110.758		-26.5026	19.0286		-28.8639	129.007	
	-3.55948	110.679		-28.8779	128.961		-27.4783	33.0507
4.56	-22.0853	-45.2416	-3.56519	103.985		-3.56079	103.9	
	-3.56522	103.985		-25.2059	13.9372		-29.4891	127.845
	-3.56274	103.908		-29.4879	127.869		-26.1624	26.5529
4.61	-22.0611	-47.3824	-3.56799	97.2144		-3.56233	97.1328
	-3.56821	97.2266		-24.1442	8.56398		-30.1105	127.466	
	-3.56499	97.1483		-30.0833	127.655		-25.0944	20.2601
4.66	-22.0908	-49.5798	-3.57212	90.4549		-3.5658		90.3617
	-3.57254	90.4507		-23.2974	2.955		-30.7109	127.978
	-3.56783	90.3754		-30.6622	128.243		-24.2542	14.0142
4.71	-22.1912	-51.6841	-3.57763	83.693		-3.57148	83.6058
	-3.57834	83.6926		-22.6178	-2.60243	-31.2008	129.49
	-3.57251	83.621		-31.1741	129.632		-23.5776	7.99818
4.76	-22.3569	-53.6898	-3.57996	76.9417		-3.57416	76.8632
	-3.58133	76.9318		-22.0757	-8.31755	-31.5793	131.729
	-3.57496	76.8673		-31.568		131.786		-23.0478	1.86488
4.81	-22.5731	-55.5547	-3.58483	70.1811		-3.57666	70.1091
	-3.58649	70.1841		-21.67		-14.1414	-31.7671	134.406	
	-3.57879	70.1205		-31.7865	134.358		-22.6507	-4.24142
4.86	-22.8443	-57.1844	-3.58608	63.4062		-3.57728	63.3464
	-3.5874		63.4137		-21.3839	-20.0762	-31.8248	137.129	
	-3.57983	63.3523		-31.8124	137.035		-22.3908	-10.4773
4.91	-23.1942	-58.462		-3.5881		56.6426		-3.57701	56.5824
	-3.58926	56.6374		-21.2079	-26.0765	-31.695		139.568
	-3.58061	56.5792		-31.6788	139.391		-22.2543	-16.7149
4.96	-23.5989	-59.1692	-3.59019	49.8742		-3.57977	49.8174
	-3.59166	49.8793		-21.126		-32.1922	-31.4202	141.347	
	-3.58261	49.8225		-31.4149	141.235		-22.2185	-22.9938
5.01	-24.0279	-59.3051	-3.59323	43.0996		-3.58267	43.0365	
	-3.59532	43.1159		-21.1549	-38.3872	-31.0632	142.389
	-3.58572	43.0584		-31.0696	142.368		-22.3072	-29.315
5.06	-24.4515	-58.5741	-3.59339	36.3297		-3.5825		36.2615
	-3.59422	36.3374		-21.2915	-44.6529	-30.6766	142.526
	-3.58416	36.2783		-30.6748	142.556		-22.511		-35.7874
5.11	-24.8475	-56.979		-3.59667	29.5575		-3.58414	29.4914
	-3.59716	29.5703		-21.5458	-51.0145	-30.2709	141.951	
	-3.58598	29.5148		-30.269		141.975		-22.8537	-42.388
5.16	-25.1856	-54.6233	-3.60022	22.7799		-3.58681	22.7132
	-3.60036	22.783		-21.8941	-57.6057	-29.8845	140.718
	-3.58873	22.7275		-29.8778	140.73		-23.3221	-49.3074
5.21	-25.397		-51.8118	-3.60318	15.9928		-3.58876	15.9306
	-3.60218	16.0056		-22.3714	-64.3474	-29.5215	138.944
	-3.59063	15.9479		-29.5201	139.024		-23.9578	-56.4759
5.26	-25.4308	-48.604		-3.60776	9.20523		-3.59345	9.13311
	-3.60742	9.22153		-22.9801	-71.2634	-29.2126	136.724
	-3.59476	9.16399		-29.2029	136.793		-24.7696	-63.9816
5.31	-25.2984	-45.5672	-3.61166	2.4146		-3.59705	2.35684	
	-3.61206	2.43155		-23.7094	-78.4438	-28.9496	134.219	
	-3.5999		2.37032		-28.9417	134.314		-25.7468	-71.9481
5.36	-25.0246	-43.0404	-3.61368	-4.37042	-3.59898	-4.42939
	-3.61537	-4.35323	-24.5846	-86.0671	-28.7409	131.485	
	-3.60258	-4.42116	-28.7308	131.599		-26.9492	-80.835
5.41	-24.6441	-41.4671	-3.61913	-11.1568	-3.60336	-11.2172
	-3.61979	-11.1364	-25.6294	-94.2279	-28.5654	128.656		
	-3.60709	-11.2057	-28.5616	128.748		-28.4272	-91.1429
5.46	-24.1961	-40.9705	-3.62454	-17.9361	-3.60869	-18.0043
	-3.62326	-17.9273	-26.8765	-103.294	-28.4441	125.692	
	-3.60951	-17.9982	-28.4437	125.743		-30.2168	-104.076
5.51	-23.7185	-41.3952	-3.62819	-24.7113	-3.61281	-24.7882
	-3.62762	-24.7067	-28.3439	-113.598	-28.3627	122.725	
	-3.61396	-24.7793	-28.3615	122.79		-32.225		-121.252
5.56	-23.2828	-42.7934	-3.6347		-31.4897	-3.61907	-31.5737
	-3.63558	-31.4845	-30.0614	-125.986	-28.3305	119.768	
	-3.62116	-31.5594	-28.324		119.834		-34.1234	-145.122
5.61	-22.8804	-45.1014	-3.63948	-38.2755	-3.62386	-38.3589
	-3.64178	-38.2641	-31.9685	-141.691	-28.3259	116.891
	-3.62847	-38.3373	-28.3244	116.949		-35.062		-175.219
5.66	-22.5344	-48.1449	-3.64364	-45.0631	-3.62841	-45.147	
	-3.64484	-45.0498	-33.8294	-162.422	-28.3467	114.115	
	-3.63288	-45.1215	-28.352		114.187		-34.5654	154.127
5.71	-22.2611	-51.8048	-3.64945	-51.8353	-3.63545	-51.9204
	-3.65019	-51.8227	-35.1329	171.232		-28.3963	111.429
	-3.63887	-51.8979	-28.4036	111.479		-32.9748	128.809
5.76	-22.0776	-56.0964	-3.6562		-58.6061	-3.64227	-58.6881
	-3.65488	-58.595		-35.3118	142.74		-28.4715	108.807	
	-3.64352	-58.6693	-28.47		108.862		-31.1027	110.665
5.81	-21.9737	-60.9337	-3.65925	-65.3753	-3.64591	-65.4511	
	-3.65766	-65.3678	-34.3976	117.33		-28.5525	106.328	
	-3.64619	-65.439		-28.5558	106.394		-29.42		97.5759
5.86	-21.9412	-66.1935	-3.66494	-72.1518	-3.65137	-72.2162
	-3.66364	-72.14		-32.9916	97.4619		-28.6523	104.002
