! MARKI MICROWAVE INC.
! Email:             	info@markimicrowave.com   				Phone:   408-778-4200
! Model Number:      	PD0R413							Date:    07/11
! Filename:		PD-0R413.S3P						Version: 1.0
! Description:       	3-port S-parameter data for Power Divider PD0R413
! Frequency Range: 	0.4 GHz to 14 GHz		
! Port Configuration:	PORT 1: COMMON, PORT 2 and Port 3: Output


! S3P File: Measurements: Mag<S11> Ang<S11> Mag<S12> Ang<S12> Mag<S13> Ang<S13>! row 1 
!			  Mag<S21> Ang<S21> Mag<S22> Ang<S22> Mag<S23> Ang<S23>! row 2 
!			  Mag<S31> Ang<S31> Mag<S32> Ang<S32> Mag<S33> Ang<S33>! row 3 


# GHz S DB R 50




0.4	-15.8501	44.2182		-3.24691	-112.872	-3.25235	-112.808
	-3.24355	-112.869	-25.5593	10.49		-15.057		-133.683
	-3.24848	-112.805	-15.0542	-133.685	-25.4244	10.3499
0.468	-18.9502	17.5542		-3.19817	-132.6		-3.20354	-132.519
	-3.19482	-132.598	-27.2749	11.6176		-17.7429	-149.378
	-3.19992	-132.515	-17.7403	-149.38		-27.1969	11.3384
0.536	-23.5788	-18.5508	-3.16254	-152.393	-3.16755	-152.292
	-3.15904	-152.391	-27.4951	14.8946		-21.2404	-161.445	
	-3.1637		-152.29		-21.2374	-161.445	-27.514		14.8123
0.604	-27.853		-80.4562	-3.16424	-172.175	-3.16883	-172.06	
	-3.16038	-172.173	-26.6561	13.1174		-25.5498	-161.999
	-3.16461	-172.059	-25.5481	-161.988	-26.7558	13.5644
0.672	-27.9172	-152.684	-3.17934	168.112		-3.18243	168.237	
	-3.17577	168.112		-25.7464	4.8359		-28.5783	-144.963
	-3.17871	168.242		-28.5774	-144.947	-25.8968	5.82752
0.74	-24.2674	151.627		-3.19681	148.488		-3.19841	148.624	
	-3.19337	148.488		-25.2755	-7.5458		-28.4115	-124.388
	-3.19448	148.632		-28.4094	-124.375	-25.4745	-6.04866
0.808	-21.2559	118.977		-3.23016	128.966		-3.23038	129.112
	-3.22648	128.969		-25.3857	-21.8364	-26.028		-118.433	
	-3.22651	129.121		-26.0242	-118.428	-25.6391	-19.8689
0.876	-19.7084	92.5854		-3.24784	109.52		-3.24745	109.669
	-3.24441	109.526		-26.0876	-36.6054	-24.1439	-126.866
	-3.24369	109.678		-24.1417	-126.861	-26.4131	-34.1823
0.944	-19.1647	67.5695		-3.25835	90.1016		-3.25747	90.2568
	-3.2558		90.1052		-27.422		-50.6414	-23.2976	-140.37
	-3.25422	90.2642		-23.2955	-140.367	-27.8397	-47.6266
1.012	-19.4297	42.2663		-3.26736	70.6766		-3.26698	70.8426	
	-3.26489	70.6798		-29.4605	-62.4339	-23.2916	-155.008
	-3.26358	70.8494		-23.2893	-155.008	-29.9876	-58.41
1.08	-20.4256	15.2991		-3.26187	51.2159		-3.26198	51.3929
	-3.25871	51.2192		-32.1711	-68.645		-23.9793	-168.983
	-3.25817	51.4002		-23.9763	-168.986	-32.7371	-62.6907
1.148	-22.2231	-15.9487	-3.26729	31.7062		-3.26789	31.8946
	-3.2641		31.7091		-34.7768	-64.3079	-25.3225	179.6	
	-3.26399	31.9032		-25.3205	179.604		-35.1197	-56.347
1.216	-24.4727	-56.6708	-3.28012	12.1735		-3.27955	12.3833	
	-3.27766	12.1774		-35.8595	-52.5806	-27.1209	173.476	
	-3.27622	12.3909		-27.1201	173.478		-35.7927	-44.4087
1.284	-25.9311	-108.863	-3.28925	-7.29716	-3.28629	-7.08212
	-3.28684	-7.29237	-34.9315	-42.8782	-28.7304	174.994
	-3.28321	-7.07532	-28.7307	174.992		-34.5643	-37.0446
1.352	-25.5127	-162.29		-3.30994	-26.7325	-3.30673	-26.5188
	-3.30729	-26.7259	-32.8788	-44.0435	-29.1872	-178.463
	-3.30377	-26.5109	-29.1867	-178.467	-32.5491	-40.7751
1.42	-23.5239	154.178		-3.31537	-46.1908	-3.31286	-45.973
	-3.31201	-46.184		-30.899		-54.8935	-28.3319	-174.131	
	-3.31017	-45.9624	-28.3309	-174.137	-30.7756	-53.2467
1.488	-21.5055	120.954		-3.32574	-65.6724	-3.32301	-65.4371
	-3.32202	-65.6654	-29.5927	-71.4015	-26.8815	-176.825
	-3.32009	-65.4247	-26.8819	-176.833	-29.6159	-70.3961
1.556	-20.2323	92.5562		-3.34719	-85.1126	-3.34326	-84.8648
	-3.34334	-85.1048	-28.8405	-89.6557	-25.6556	174.211	
	-3.33977	-84.8539	-25.6549	174.207		-28.9447	-89.1767
1.624	-19.6606	66.2212		-3.35573	-104.527	-3.35052	-104.27
	-3.35181	-104.521	-28.4704	-108.358	-24.9854	161.98	
	-3.34685	-104.259	-24.9833	161.985		-28.6254	-108.29
1.692	-19.8025	40.1315		-3.367		-123.937	-3.36036	-123.675
	-3.3633		-123.931	-28.4313	-126.472	-24.9279	148.931	
	-3.35709	-123.665	-24.927		148.937		-28.611		-126.726
1.76	-20.6094	12.8752		-3.37405	-143.357	-3.36717	-143.087
	-3.37025	-143.35		-28.7144	-143.39		-25.4132	136.922
	-3.36366	-143.079	-25.4117	136.931		-28.9046	-143.847
1.828	-22.0383	-17.4823	-3.36863	-162.802	-3.3618		-162.528
	-3.36543	-162.793	-29.343		-158.528	-26.3186	127.649	
	-3.35839	-162.516	-26.3159	127.668		-29.5484	-158.984
1.896	-23.9645	-54.0001	-3.37975	177.725		-3.37278	178.002	
	-3.37648	177.733		-30.3613	-170.53		-27.3415	123.008	
	-3.36924	178.015		-27.3379	123.008		-30.5929	-170.694
1.964	-25.4943	-99.2828	-3.38516	158.233		-3.37809	158.516	
	-3.3816		158.241		-31.731		-177.156	-27.9267	122.793
	-3.37428	158.529		-27.9233	122.796		-31.9736	-176.425
2.032	-25.6568	-149.285	-3.39103	138.722		-3.38341	139.012
	-3.38721	138.729		-33.1614	-176.4		-27.6574	123.749
	-3.3798		139.026		-27.6565	123.741		-33.3224	-174.23
2.1	-24.4539	164.678		-3.41402	119.207		-3.40653	119.506	
	-3.41014	119.214		-33.7764	-169.019	-26.674		121.427
	-3.4027		119.519		-26.6735	121.425		-33.7065	-165.753
2.168	-22.6878	127.126		-3.43432	99.7087		-3.42613	100.02
	-3.4302		99.7194		-32.9715	-160.921	-25.533		114.095
	-3.42228	100.034		-25.5322	114.098		-32.628		-157.651
2.236	-21.2347	95.7306		-3.46524	80.2782		-3.45506	80.5884
	-3.46134	80.2906		-31.1634	-158.419	-24.7048	102.74
	-3.45125	80.6016		-24.7033	102.74		-30.6419	-156.002
2.304	-20.3685	67.2724		-3.49284	60.9476		-3.48286	61.2422	
	-3.48931	60.9584		-29.2		-162.321	-24.4305	89.7814
	-3.47944	61.2531		-24.4302	89.7835		-28.6542	-160.856
2.372	-20.1279	40.2401		-3.49597	41.6433		-3.48974	41.9387
	-3.49212	41.6561		-27.5497	-170.714	-24.5592	77.3656
	-3.48656	41.9525		-24.5575	77.379		-27.0861	-169.69
2.44	-20.5535	13.8818		-3.50069	22.2975		-3.49758	22.6182
	-3.49659	22.3089		-26.3546	177.965		-25.0389	65.6688	
	-3.4941		22.6347		-25.0379	65.6831		-25.9939	179.222
2.508	-21.5573	-12.9644	-3.49666	2.89534		-3.49298	3.24325
	-3.49295	2.90628		-25.7243	165.43		-25.9275	55.5989	
	-3.48909	3.25977		-25.9272	55.6031		-25.4332	167.204
2.576	-23.1433	-42.3711	-3.4872		-16.5469	-3.48196	-16.1869
	-3.48438	-16.5346	-25.6495	153.18		-27.1397	50.2647	
	-3.47802	-16.1702	-27.1373	50.2731		-25.4329	155.458
2.644	-25.239		-77.5826	-3.49368	-36.0229	-3.4868		-35.6558
	-3.49089	-36.0092	-26.0778	142.518		-27.9022	51.0577
	-3.48302	-35.6384	-27.8998	51.0659		-25.9632	145.533
2.712	-27.0164	-122.054	-3.4928		-55.5243	-3.48496	-55.1544
	-3.48989	-55.513		-26.9031	134.802		-27.5997	53.7865	
	-3.48146	-55.139		-27.5944	53.7858		-26.9116	139.031
2.78	-27.3245	-172.167	-3.499		-75.0432	-3.4908		-74.6727
	-3.49586	-75.0363	-27.8857	131.594		-26.3572	52.659
	-3.48728	-74.6589	-26.3535	52.6598		-27.972		137.823
2.848	-26.0059	141.437		-3.51614	-94.557		-3.50811	-94.1829	
	-3.51289	-94.5488	-28.5239	133.354		-24.9019	45.254
	-3.50427	-94.1669	-24.8983	45.2644		-28.5226	141.969
2.916	-24.0375	104.517		-3.52712	-114.048	-3.51953	-113.67
	-3.52373	-114.037	-28.3463	137.22		-23.7736	33.271
	-3.5154		-113.649	-23.7712	33.2833		-28.0901	147.559
2.984	-22.455		74.6083		-3.55103	-133.505	-3.54409	-133.122
	-3.54748	-133.488	-27.3667	138.706		-23.1688	18.8241
	-3.53958	-133.099	-23.1666	18.8343		-26.827		149.455
3.052	-21.4621	48.3395		-3.56999	-152.926	-3.56327	-152.538
	-3.56641	-152.909	-26.1445	135.238		-23.1026	3.69306	
	-3.5586		-152.516	-23.1008	3.70601		-25.4256	145.777
3.12	-21.0359	23.6663		-3.57658	-172.329	-3.57015	-171.932
	-3.57327	-172.314	-25.1586	127.431		-23.5601	-10.7982
	-3.56555	-171.915	-23.5585	-10.7842	-24.3575	137.876
3.188	-21.2254	-0.61774	-3.59364	168.275		-3.58802	168.68	
	-3.59042	168.29		-24.6483	117.092		-24.5211	-22.9472
	-3.58353	168.696		-24.5198	-22.9396	-23.7992	127.787
3.256	-22.0119	-25.8825	-3.5955		148.868		-3.5914		149.277
	-3.5922		148.887		-24.6999	106.023		-25.7762	-30.8319
	-3.58683	149.295		-25.7733	-30.8171	-23.7858	117.314
3.324	-23.482		-54.123		-3.59419	129.432		-3.59181	129.845	
	-3.59124	129.451		-25.3789	95.671		-26.8121	-33.0923
	-3.58789	129.865		-26.8076	-33.0738	-24.3314	107.957
3.392	-25.5647	-89.2459	-3.60055	109.965		-3.59977	110.392
	-3.59753	109.981		-26.7008	88.2362		-26.9928	-32.2249	
	-3.5959		110.411		-26.9881	-32.2099	-25.3471	101.63
3.46	-27.2543	-135.826	-3.59875	90.4668		-3.59888	90.9198	
	-3.59578	90.4781		-28.4362	87.1681		-26.2712	-33.2698
	-3.59513	90.9368		-26.2675	-33.262		-26.5179	100.417
3.528	-27.1873	171.041		-3.61037	70.9474		-3.60959	71.4276
	-3.60735	70.9555		-29.6952	95.1003		-25.1607	-39.408
	-3.60581	71.4406		-25.1584	-39.3983	-27.2225	104.832
3.596	-25.2459	123.446		-3.62677	51.4318		-3.62348	51.9309
	-3.62359	51.4412		-29.405		106.755		-24.209		-50.0751
	-3.61999	51.9454		-24.2061	-50.0588	-26.9036	110.868
3.664	-22.8416	87.1645		-3.63777	31.9385		-3.63207	32.4499	
	-3.634		31.9491		-27.7225	113.31		-23.6626	-63.5744
	-3.62811	32.4646		-23.6595	-63.5585	-25.7281	113.48
3.732	-21.0869	58.2244		-3.66772	12.4917		-3.66031	13.0126
	-3.66364	12.5051		-25.7504	110.748		-23.6598	-78.3282
	-3.6559		13.0292		-23.6551	-78.3068	-24.3363	110.168
3.8	-20.05		32.5566		-3.68528	-6.91252	-3.67613	-6.38571	
	-3.68117	-6.90089	-24.2715	102.498		-24.21		-92.7583
	-3.67163	-6.3713		-24.2055	-92.7434	-23.2474	102.553
3.868	-19.6972	8.09711		-3.69402	-26.2938	-3.68296	-25.7617
	-3.69044	-26.2847	-23.4347	91.6737		-25.3257	-105.108
	-3.6793		-25.7501	-25.3232	-105.107	-22.6531	92.6585
3.936	-20.0638	-16.4782	-3.70457	-45.6694	-3.69193	-45.1379	
	-3.70128	-45.6614	-23.2339	80.2451		-26.8651	-112.653
	-3.68849	-45.1299	-26.8643	-112.661	-22.6101	82.1537
4.004	-21.1786	-42.8048	-3.69878	-65.0733	-3.68533	-64.5511
	-3.69549	-65.063		-23.6178	69.712		-28.2438	-113.262
	-3.68194	-64.5395	-28.2443	-113.251	-23.1069	72.5009
4.072	-23.2144	-74.0537	-3.69571	-84.5297	-3.68305	-84.019	
	-3.6924		-84.5179	-24.5667	62.0433		-28.5708	-109.066
	-3.67943	-84.0061	-28.5695	-109.05		-24.1229	65.8
4.14	-25.7637	-117.105	-3.69618	-104.039	-3.68557	-103.536
	-3.69251	-104.029	-25.8454	59.7145		-27.6325	-107.072
	-3.68184	-103.522	-27.6294	-107.06		-25.3864	64.4928
4.208	-26.7879	-173.17		-3.69411	-123.595	-3.68563	-123.083
	-3.69071	-123.588	-26.7983	64.2116		-26.1627	-111.95
	-3.68246	-123.071	-26.1596	-111.938	-26.2229	69.5386
4.276	-25.3015	131.195		-3.71618	-143.144	-3.70874	-142.618
	-3.7124		-143.136	-26.6193	72.2374		-24.9595	-122.862
	-3.70568	-142.606	-24.958		-122.856	-25.9303	77.1413
4.344	-22.4315	89.1042		-3.73732	-162.648	-3.73005	-162.103
	-3.73366	-162.637	-25.3104	77.1151		-24.3		-136.748
	-3.72741	-162.091	-24.2995	-136.736	-24.6214	81.0876
4.412	-20.1295	58.3372		-3.75486	177.904		-3.74678	178.466
	-3.7508		177.919		-23.6381	75.4176		-24.2114	-151.695
	-3.74366	178.481		-24.212		-151.682	-23.0494	78.7238
4.48	-18.8062	32.1503		-3.78041	158.508		-3.77136	159.083
	-3.77628	158.519		-22.2819	68.4489		-24.7158	-166.157
	-3.76766	159.094		-24.7164	-166.144	-21.8116	71.5483
4.548	-18.2828	7.69371		-3.78718	139.134		-3.77759	139.719
	-3.78331	139.14		-21.4475	58.9158		-25.7659	-178.472
	-3.77336	139.723		-25.7626	-178.454	-21.0767	62.0585
4.616	-18.559		-16.6009	-3.78749	119.747		-3.77774	120.341
	-3.78455	119.751		-21.1688	48.6899		-27.2132	173.786
	-3.77397	120.343		-27.2102	173.799		-20.8752	51.984
4.684	-19.6976	-42.1784	-3.78529	100.316		-3.77489	100.92
	-3.78266	100.32		-21.4201	39.3173		-28.5068	172.617
	-3.77171	100.921		-28.506		172.647		-21.186		42.7949
4.752	-21.8015	-72.0201	-3.77153	80.8197		-3.75993	81.4303
	-3.76898	80.8253		-22.1387	32.2275		-28.8665	175.985
	-3.75691	81.4331		-28.8665	176.039		-21.9488	35.8641
4.82	-24.7155	-113		-3.77516	61.2659		-3.76228	61.8793	
	-3.77249	61.2706		-23.1201	29.3533		-28.0312	177.727
	-3.7593		61.8824		-28.0302	177.781		-22.9648	33.0624
4.888	-26.3492	-169.36		-3.78302	41.692		-3.76931	42.3026	
	-3.78067	41.6962		-23.8845	31.5131		-26.6369	173.205	
	-3.76678	42.3083		-26.6362	173.233		-23.7663	35.1604
4.956	-25.1492	132.675		-3.79234	22.1243		-3.77843	22.7341	
	-3.78999	22.1289		-23.922		36.6566		-25.4228	162.888	
	-3.77585	22.7396		-25.4221	162.891		-23.8647	40.1915
5.024	-22.2766	88.4074		-3.82246	2.60848		-3.80902	3.21821	
	-3.82003	2.61608		-23.1095	40.3422		-24.7362	149.182	
	-3.80647	3.22522		-24.7358	149.184		-23.1398	43.8589
5.092	-19.8982	57.4082		-3.84235	-16.8444	-3.83005	-16.2336
	-3.84022	-16.8321	-21.9132	39.5222		-24.6229	134.341
	-3.8277		-16.2236	-24.6219	134.345		-22.0519	43.1929
5.16	-18.5533	31.5468		-3.85781	-36.2441	-3.84588	-35.6323
	-3.85586	-36.2292	-20.8448	34.4719		-25.0862	119.888		
	-3.8434		-35.6194	-25.0858	119.898		-21.0978	38.4617
5.228	-18.1147	7.45482		-3.86996	-55.6209	-3.85805	-55.0082
	-3.86815	-55.6079	-20.1734	26.8297		-26.0976	107.476	
	-3.85548	-54.9946	-26.0966	107.491		-20.552		31.312
5.296	-18.4815	-16.4337	-3.86233	-75.02		-3.84977	-74.405	
	-3.86021	-75.0073	-19.9576	18.2155		-27.5238	99.0818
	-3.84724	-74.3911	-27.5238	99.1142		-20.4798	23.448
5.364	-19.7782	-41.5621	-3.85758	-94.4774	-3.84575	-93.8616
	-3.85512	-94.4663	-20.202		10.0143		-28.9351	97.0684
	-3.84285	-93.8487	-28.9363	97.0999		-20.8793	16.4932
5.432	-22.1804	-70.9091	-3.85005	-114.001	-3.83948	-113.385	
	-3.84766	-113.988	-20.8497	3.64928		-29.561		100.406
	-3.83708	-113.372	-29.5616	100.43		-21.6484	12.1714
5.5	-25.4837	-113.076	-3.83688	-133.58		-3.82813	-132.963
	-3.83475	-133.566	-21.7413	0.431507	-29.0116	103.73	
	-3.82588	-132.95		-29.0104	103.745		-22.5216	11.8665
5.568	-27.3154	-172.463	-3.85107	-153.188	-3.84435	-152.569
	-3.84944	-153.172	-22.5076	1.33684		-27.7005	101.677	
	-3.84206	-152.554	-27.6978	101.703		-22.985		15.6284
5.636	-25.9107	127.056		-3.8648		-172.79		-3.85913	-172.164
	-3.86262	-172.774	-22.7577	4.86364		-26.4036	93.8494
	-3.85671	-172.147	-26.4027	93.8716		-22.711		20.4327
5.704	-22.7008	83.3631		-3.88435	167.641		-3.87925	168.283
	-3.88183	167.659		-22.3432	7.91981		-25.5027	82.5062
	-3.87636	168.3		-25.5017	82.5306		-21.8025	22.5957
5.772	-20.3222	53.3847		-3.91448	148.141		-3.91039	148.799
	-3.91184	148.159		-21.532		7.80439		-25.0706	69.77
	-3.90718	148.815		-25.07		69.7929		-20.7218	20.4146
5.84	-19.0135	28.2146		-3.93208	128.692		-3.92899	129.362
	-3.92943	128.709		-20.7239	4.29136		-25.041		57.0066
	-3.92549	129.379		-25.0404	57.0255		-19.8455	14.8928
5.908	-18.6044	4.44684		-3.95037	109.284		-3.94822	109.958	
	-3.94778	109.3		-20.1705	-1.69805	-25.3752	45.0558	
	-3.94485	109.976		-25.3743	45.0713		-19.3305	7.37369
5.976	-18.9762	-19.3364	-3.95929	89.8849		-3.95876	90.5815
	-3.95663	89.9028		-19.9706	-8.80039	-26.0164	34.9161
	-3.95543	90.5993		-26.0138	34.9315		-19.2054	-0.817274
6.044	-20.1217	-44.6747	-3.94852	70.462		-3.94883	71.1866
	-3.94527	70.4788		-20.1293	-15.8831	-26.8031	27.7878	
	-3.94536	71.2009		-26.7984	27.7966		-19.4443	-8.81881
6.112	-22.2278	-74.0127	-3.94819	50.9745		-3.94745	51.7326
	-3.94489	50.9888		-20.6311	-21.7456	-27.3797	24.1393
	-3.94393	51.7461		-27.3758	24.1588		-20.0451	-15.6486
6.18	-25.072		-113.724	-3.94147	31.4261		-3.93709	32.2108
	-3.9386		31.4411		-21.3221	-25.2392	-27.4251	22.1127		
	-3.93415	32.2237		-27.4218	22.1356		-20.8925	-20.1876
6.248	-26.9257	-168.064	-3.93805	11.8351		-3.92921	12.633	
	-3.93557	11.852		-21.9554	-25.875		-26.9284	18.9005	
	-3.9269		12.645		-26.9262	18.9328		-21.7683	-21.6338
6.316	-26.2676	134.344		-3.95425	-7.75436	-3.94122	-6.96183
	-3.95163	-7.73592	-22.2284	-24.3607	-26.1776	12.6931
	-3.93913	-6.9464		-26.1757	12.726		-22.3413	-20.3116
6.384	-23.7101	88.3076		-3.96476	-27.3227	-3.949		-26.5373	
	-3.96242	-27.3035	-22.0292	-22.7118	-25.4899	3.67455
	-3.94691	-26.5202	-25.4887	3.69726		-22.4271	-18.1622
6.452	-21.4456	55.0187		-3.98151	-46.8525	-3.96433	-46.0752
	-3.97939	-46.8324	-21.4579	-22.9503	-25.0491	-7.24996
	-3.96228	-46.0574	-25.0486	-7.22832	-22.0757	-17.5309
6.52	-20.0923	27.3346		-3.99967	-66.3471	-3.98187	-65.5776
	-3.99792	-66.3255	-20.7699	-25.9685	-24.931		-18.9191
	-3.97971	-65.5588	-24.9294	-18.8964	-21.5476	-19.7413
6.588	-19.5169	1.43358		-4.0039		-85.8239	-3.98541	-85.0612	
	-4.00243	-85.8027	-20.173		-31.153		-25.1293	-30.2791
	-3.98339	-85.0415	-25.1268	-30.2645	-21.0878	-24.3475
6.656	-19.6619	-24.2748	-4.0168		-105.3		-3.99707	-104.537
	-4.01564	-105.278	-19.7948	-37.8132	-25.6046	-40.2593
	-3.99554	-104.518	-25.6012	-40.2504	-20.8561	-30.6026
6.724	-20.4541	-51.0673	-4.01894	-124.784	-3.99854	-124.025
	-4.01746	-124.76		-19.6658	-45.0616	-26.2072	-47.99	
	-3.99648	-124.006	-26.2053	-47.9816	-20.9052	-37.5156
6.792	-21.8927	-80.6466	-4.01225	-144.302	-3.99118	-143.553
	-4.01066	-144.277	-19.7792	-52.3191	-26.7095	-53.0891	
	-3.98898	-143.533	-26.7097	-53.0757	-21.2377	-44.4092
6.86	-23.9465	-115.625	-4.01912	-163.846	-3.99766	-163.113
	-4.01794	-163.821	-20.1037	-58.9561	-26.842		-56.3533	
	-3.99601	-163.091	-26.8439	-56.3319	-21.8236	-50.433
6.928	-25.9188	-159.75		-4.01769	176.591		-3.99556	177.307	
	-4.01615	176.619		-20.5792	-64.5994	-26.499		-59.8203
	-3.99437	177.332		-26.4987	-59.7928	-22.5981	-55.0526
6.996	-26.6643	148.999		-4.02068	157.01		-3.99908	157.71
	-4.0189		157.041		-21.1218	-68.8225	-25.8021	-65.4421
	-3.99764	157.738		-25.8015	-65.4127	-23.4332	-57.6211
7.064	-25.7974	99.3507		-4.03258	137.428		-4.01216	138.114
	-4.03088	137.458		-21.6392	-71.6367	-25.0237	-74.0291
	-4.0108		138.145		-25.0243	-74.0024	-24.1763	-58.0792
7.132	-24.1311	58.0809		-4.03581	117.857		-4.01786	118.529	
	-4.03402	117.886		-22.0473	-73.3818	-24.394		-85.1409	
	-4.01644	118.56		-24.3955	-85.1184	-24.6894	-57.0358
7.2	-22.7706	23.8614		-4.05047	98.305		-4.0355		98.9649	
	-4.04849	98.3349		-22.281		-74.702		-24.0659	-98.0029
	-4.03356	98.9964		-24.0663	-97.9747	-24.8815	-55.7507
7.268	-21.9805	-6.72549	-4.06067	78.7706		-4.04873	79.4235
	-4.05881	78.8012		-22.3561	-76.2455	-24.1008	-111.625
	-4.04686	79.4552		-24.1007	-111.592	-24.8228	-55.2883
7.336	-21.7955	-36.0928	-4.05924	59.2382		-4.05079	59.8885
	-4.05772	59.2716		-22.3658	-78.518		-24.5333	-125.112
	-4.04915	59.9231		-24.5326	-125.078	-24.6851	-56.1861
7.404	-22.2584	-65.6993	-4.07078	39.7027		-4.06585	40.356	
	-4.0693		39.7368		-22.4086	-81.6655	-25.396		-137.242
	-4.0642		40.3919		-25.3952	-137.198	-24.6191	-58.2782
7.472	-23.2874	-97.3364	-4.06895	20.1528		-4.0674		20.8137
	-4.06745	20.1903		-22.5735	-85.0442	-26.6107	-146.499
	-4.06583	20.8514		-26.61		-146.453	-24.6882	-60.3612
7.54	-24.8445	-133.519	-4.06559	0.573277	-4.06738	1.24397
	-4.06415	0.612831	-22.929		-87.9188	-27.9226	-151.001
	-4.06617	1.28279		-27.9229	-150.963	-24.9		-61.4103
7.608	-26.4622	-177.436	-4.07135	-19.031		-4.07668	-18.3472
	-4.07007	-18.9933	-23.4485	-89.3866	-28.7615	-150.451
	-4.07541	-18.3123	-28.761		-150.437	-25.1087	-60.654
7.676	-26.9965	132.027		-4.07054	-38.6573	-4.07843	-37.9547
	-4.06913	-38.619		-23.9832	-88.8018	-28.653		-148.285
	-4.07716	-37.918		-28.6546	-148.267	-25.0868	-58.3556
7.744	-26.031		82.2833		-4.08259	-58.288		-4.09282	-57.566	
	-4.08057	-58.2511	-24.2883	-86.179		-27.7025	-149.4
	-4.09128	-57.5298	-27.7034	-149.386	-24.668		-55.8643
7.812	-24.2187	40.3248		-4.09729	-77.901		-4.10932	-77.1571
	-4.09548	-77.8658	-24.1855	-82.8642	-26.522		-155.943
	-4.10786	-77.1206	-26.5229	-155.918	-23.9038	-55.0813
7.88	-22.5492	6.02328		-4.10305	-97.4879	-4.11582	-96.7239
	-4.10173	-97.4516	-23.7262	-80.9019	-25.5987	-166.64	
	-4.11445	-96.6848	-25.5985	-166.629	-23.0446	-57.113
7.948	-21.5374	-23.96		-4.1242		-117.046	-4.13691	-116.257
	-4.12256	-117.007	-23.142		-81.5598	-25.143		-179.64
	-4.13506	-116.215	-25.1426	-179.619	-22.3449	-61.8496
8.016	-21.1579	-51.8099	-4.1319		-136.588	-4.14342	-135.778
	-4.13022	-136.543	-22.692		-84.6027	-25.1702	166.821	
	-4.14167	-135.731	-25.17		166.854		-21.965		-68.3692
8.084	-21.4954	-79.2419	-4.13139	-156.135	-4.14123	-155.304
	-4.12965	-156.086	-22.561		-89.0752	-25.6731	154.095	
	-4.13957	-155.255	-25.6734	154.133		-22.0066	-75.6642
8.152	-22.6611	-107.744	-4.137		-175.7		-4.14477	-174.859
	-4.13501	-175.651	-22.8578	-93.778		-26.5875	143.848	
	-4.14297	-174.807	-26.5877	143.893		-22.5582	-82.6831
8.22	-24.8002	-140.631	-4.13072	164.7		-4.13617	165.543
