! MARKI MICROWAVE INC.
! Email:             	info@markimicrowave.com   				Phone:   408-778-4200
! Model Number:      	PD0R636						Date:    07/11
! Filename:		PD-0R636.S3P						Version: 1.0
! Description:       	3-port S-parameter data for Power Divider PD0R636
! Frequency Range: 	0.6 GHz to 36 GHz		
! Port Configuration:	PORT 1: COMMON, PORT 2 and Port 3: Output


! S3P File: Measurements: Mag<S11> Ang<S11> Mag<S12> Ang<S12> Mag<S13> Ang<S13>! row 1 
!			  Mag<S21> Ang<S21> Mag<S22> Ang<S22> Mag<S23> Ang<S23>! row 2 
!			  Mag<S31> Ang<S31> Mag<S32> Ang<S32> Mag<S33> Ang<S33>! row 3 


# GHz S DB R 50



0.6	-17.0735	51.0753		-3.24593	-115.864	-3.27983	-115.876
	-3.25559	-115.787	-20.7288	93.4648		-12.933		-134.281
	-3.28875	-115.8		-12.9496	-134.227	-20.9061	91.9924
0.75	-23.0873	-2.1352		-3.18496	-145.582	-3.21611	-145.561	
	-3.19482	-145.506	-20.369		78.7731		-15.865		-154.543	
	-3.22544	-145.486	-15.8842	-154.477	-20.5849	77.1545
0.9	-26.2191	-82.2151	-3.17157	-175.349	-3.19911	-175.313
	-3.18103	-175.269	-20.4553	58.4879		-18.4722	-166.81	
	-3.20798	-175.234	-18.4906	-166.72		-20.664		56.5548
1.05	-25.7862	-163.787	-3.19175	155.008		-3.21587	155.05
	-3.20026	155.086		-21.5811	36.4019		-20.0277	-174.717	
	-3.22393	155.128		-20.0417	-174.62		-21.748		33.7971
1.2	-21.7974	133.745		-3.22229	125.546		-3.2433		125.592
	-3.23069	125.618		-24.0028	16.4752		-20.5418	175.548
	-3.25107	125.666		-20.5513	175.642		-24.1042	12.6174
1.35	-19.9741	96.2096		-3.24446	96.2003		-3.2614		96.247
	-3.25221	96.2655		-27.688		5.34736		-20.7957	160.426
	-3.26846	96.3158		-20.8003	160.508		-27.7963	-0.760263
1.5	-20.6986	58.4425		-3.25508	66.875		-3.26768	66.9128
	-3.26359	66.9293		-31.056		8.33475		-21.5866	142.4
	-3.27528	66.9716		-21.59		142.47		-31.3588	0.139675
1.65	-23.1739	9.39929		-3.25989	37.5077		-3.26885	37.5284	
	-3.26911	37.5559		-32.6392	15.3681		-23.0395	126.766
	-3.27719	37.5788		-23.0435	126.824		-33.0733	6.01833
1.8	-24.8659	-56.3125	-3.26863	8.08849		-3.27563	8.09099	
	-3.27971	8.13291		-32.6283	12.3495		-24.5009	117.417	
	-3.28545	8.13593		-24.5063	117.463		-32.8404	2.76928
1.95	-24.3134	-126.03		-3.28626	-21.3337	-3.29203	-21.3446
	-3.29825	-21.2925	-32.6044	-11.0946	-25.0819	112.245
	-3.30247	-21.3049	-25.0879	112.273		-31.9839	-19.8978
2.1	-21.8384	173.785		-3.31179	-50.7176	-3.31574	-50.7408
	-3.32477	-50.6724	-33.3053	-50.6869	-24.569		105.125
	-3.32713	-50.6954	-24.5754	105.146		-31.6505	-55.4242
2.25	-19.8766	129.354		-3.33788	-80.0353	-3.3386		-80.0728
	-3.35063	-79.9837	-33.5035	-98.5953	-23.6306	91.2232	
	-3.3506		-80.0203	-23.6388	91.2416		-31.3616	-95.234
2.4	-19.5966	89.6707		-3.35623	-109.321	-3.35405	-109.375
	-3.36953	-109.258	-32.7441	-145.364	-23.2147	71.7173
	-3.36676	-109.31		-23.2237	71.7463		-30.9639	-133.416
2.55	-20.8038	47.083		-3.36571	-138.619	-3.36141	-138.69	
	-3.37937	-138.543	-31.6488	176.421		-23.7044	51.5636	
	-3.37439	-138.615	-23.7166	51.6005		-30.8244	-166.032
2.7	-22.8282	-5.50482	-3.37243	-167.97		-3.36669	-168.059
	-3.38528	-167.888	-31.4457	149.857		-24.8455	36.1319	
	-3.37839	-167.977	-24.8595	36.1826		-31.5043	170.442
2.85	-24.0291	-68.5469	-3.38393	162.638		-3.37604	162.531
	-3.39483	162.731		-32.5568	136.93		-25.6874	27.5485	
	-3.38643	162.625		-25.7013	27.6176		-32.8673	161.115
3	-23.5541	-132.998	-3.40236	133.236		-3.39199	133.112
	-3.41083	133.342		-33.4243	140.624		-25.4345	21.1548	
	-3.40039	133.217		-25.4448	21.2393		-33.2383	165.085
3.15	-21.8916	170.884		-3.42583	103.86		-3.41313	103.715	
	-3.4328		103.971		-32.5543	150.793		-24.2326	10.0521
	-3.41993	103.823		-24.2395	10.127		-31.8528	171.436
3.3	-20.5884	124.915		-3.44875	74.5276		-3.43439	74.3553	
	-3.45475	74.6328		-29.9972	155.155		-23.0694	-8.85317
	-3.43992	74.4574		-23.0747	-8.79219	-29.2614	168.87
3.45	-20.3657	82.7584		-3.46643	45.2276		-3.45131	45.0224
	-3.47261	45.3186		-27.4516	145.695		-22.8025	-31.8346
	-3.45661	45.1149		-22.8081	-31.7793	-27.3242	154.654
3.6	-21.1779	39.4371		-3.47573	15.9184		-3.46035	15.6856
	-3.48256	15.9996		-26.3363	129.413		-23.5427	-52.9784
	-3.46668	15.769		-23.5488	-52.9278	-26.8484	135.938
3.75	-22.7848	-9.35288	-3.48011	-13.4454	-3.46467	-13.6987	
	-3.48817	-13.3837	-26.6835	113.343		-24.6691	-67.2442
	-3.4721		-13.6361	-24.6792	-67.2124	-27.8779	118.081
3.9	-24.33		-67.1935	-3.487		-42.8744	-3.47129	-43.1484	
	-3.49621	-42.8339	-28.1774	103.105		-25.0852	-75.5013
	-3.48002	-43.1103	-25.0973	-75.4891	-30.242		107.397
4.05	-24.6865	-130.593	-3.50228	-72.3282	-3.48648	-72.6284
	-3.51244	-72.3133	-29.6865	102.619		-24.3311	-84.229
	-3.49593	-72.6157	-24.3456	-84.235		-32.4997	109.243
4.2	-23.5945	168.44		-3.52577	-101.762	-3.51108	-102.093
	-3.53656	-101.757	-29.9275	107.118		-22.9398	-99.6999
	-3.52073	-102.09		-22.9525	-99.7154	-33.0167	116.2
4.35	-21.8517	116.458		-3.55152	-131.142	-3.53919	-131.498	
	-3.56104	-131.158	-28.7522	107.735		-21.9771	-122.135
	-3.54729	-131.516	-21.9876	-122.176	-31.7061	116.737
4.5	-20.6292	72.6749		-3.57189	-160.484	-3.56236	-160.853
	-3.58158	-160.531	-27.1945	98.2542		-21.9529	-146.898
	-3.57064	-160.903	-21.9621	-146.98		-29.9871	102.729
4.65	-20.4686	32.6996		-3.58296	170.175		-3.57512	169.801	
	-3.59484	170.096		-26.4485	81.5481		-22.8166	-169.445	
	-3.58623	169.721		-22.8279	-169.555	-29.3169	79.2483
4.8	-21.6538	-7.91478	-3.58731	140.78		-3.57978	140.405	
	-3.60316	140.695		-26.8319	63.3915		-24.0878	173.973	
	-3.59496	140.317		-24.1046	173.848		-29.8838	52.5523
4.95	-24.2253	-58.1433	-3.59219	111.314		-3.58444	110.932	
	-3.60952	111.252		-28.2915	49.6664		-24.8985	163.386
	-3.60066	110.868		-24.9182	163.293		-31.9701	27.6347
5.1	-25.95		-124.617	-3.60505	81.7993		-3.59719	81.4079
	-3.62178	81.7507		-29.9827	46.63		-24.7234	153.977
	-3.61253	81.3562		-24.7433	153.893		-35.6833	19.0691
5.25	-25.2973	165.373		-3.6274		52.2881		-3.6194		51.8857
	-3.64367	52.2474		-30.357		51.7412		-23.8303	140.091	
	-3.63466	51.8434		-23.8494	140.024		-37.2859	32.0568
5.4	-22.5365	105.661		-3.65494	22.8278		-3.6464		22.4183
	-3.67123	22.7983		-28.9511	55.4476		-23.0585	119.952	
	-3.66254	22.3858		-23.0776	119.892		-35.6313	47.747
5.55	-20.1267	64.0373		-3.6789		-6.57714	-3.66958	-6.99391
	-3.69336	-6.59421	-26.6481	49.1083		-23.0417	96.4614
	-3.68421	-7.01484	-23.0597	96.4114		-31.1875	48.397
5.7	-19.5762	29.8		-3.69287	-35.9636	-3.68293	-36.3907
	-3.70463	-35.974		-25.0113	33.7198		-23.9775	73.9194
	-3.69444	-36.4052	-23.9925	73.8665		-27.9121	29.2548
5.85	-21.1343	-3.85472	-3.69778	-65.3967	-3.68774	-65.8371
	-3.70754	-65.4061	-24.602		15.6031		-25.6149	57.6492	
	-3.69705	-65.8502	-25.6274	57.5929		-26.6175	7.24124
6	-25.676		-52.4571	-3.70068	-94.9146	-3.69091	-95.3656
	-3.71063	-94.9248	-25.4573	0.0877491	-26.8217	50.3363
	-3.70061	-95.3772	-26.8364	50.2746		-26.8977	-11.9018
6.15	-28.1199	-130.085	-3.71225	-124.502	-3.70225	-124.958
	-3.72339	-124.512	-27.1695	-6.29314	-26.6149	46.0539	
	-3.71344	-124.967	-26.6311	46.0005		-28.4308	-22.0612
6.3	-27.1334	150.208		-3.73639	-154.096	-3.72464	-154.559
	-3.75045	-154.111	-28.1579	-1.3672		-25.1279	36.2433
	-3.73887	-154.572	-25.1468	36.1981		-29.6312	-18.2968
6.45	-22.5218	86.7168		-3.7696		176.369		-3.75509	175.887	
	-3.78653	176.36		-27.4215	5.87633		-23.5719	16.3875
	-3.77227	175.883		-23.5915	16.3598		-29.0233	-9.40194
6.6	-19.5495	52.5928		-3.8011		146.912		-3.78512	146.4	
	-3.82006	146.919		-25.3016	5.46072		-23.0195	-9.44733
	-3.80471	146.413		-23.0416	-9.46147	-26.6882	-6.57044
6.75	-19.0718	22.5564		-3.82209	117.494		-3.80677	116.952	
	-3.84088	117.525		-23.4227	-6.36667	-23.7551	-35.3691
	-3.82621	116.991		-23.7767	-35.3594	-24.2537	-16.8683
6.9	-20.7009	-7.96493	-3.83077	88.0437		-3.81715	87.4845
	-3.84812	88.0976		-22.7533	-22.9328	-25.5797	-54.4353
	-3.83515	87.5441		-25.6		-54.4061	-23.1091	-33.6923
7.05	-25.5534	-51.5212	-3.83383	58.5061		-3.82069	57.9365
	-3.84943	58.5722		-23.3331	-38.145		-27.0828	-62.1006
	-3.83684	58.0095		-27.1007	-62.0654	-23.3546	-50.2105
7.2	-28.6416	-128.652	-3.8424		28.8812		-3.82875	28.2977
	-3.85615	28.9517		-24.6751	-46.0606	-26.974		-65.5527
	-3.84307	28.3759		-26.9921	-65.5131	-24.6703	-60.1044
7.35	-28.0433	150.558		-3.86511	-0.771928	-3.85135	-1.37945
	-3.87744	-0.703848	-25.4865	-44.8619	-25.3675	-75.0478	
	-3.86446	-1.30261	-25.3841	-75.0032	-25.8125	-59.1338
7.5	-23.4125	82.7223		-3.90053	-30.3721	-3.88885	-31.0043
	-3.91249	-30.3001	-24.8598	-40.8539	-23.772		-96.3929
	-3.90115	-30.9221	-23.7887	-96.3279	-25.5159	-52.5961
7.65	-20.0419	47.6192		-3.93745	-59.8702	-3.9284		-60.5179
	-3.94878	-59.7935	-23.0658	-42.3921	-23.5041	-123.509
	-3.94032	-60.4301	-23.5191	-123.442	-23.7605	-49.8656
7.8	-19.3504	16.1204		-3.96152	-89.2957	-3.9552		-89.9495
	-3.97368	-89.2073	-21.4009	-52.6362	-24.748		-148.43	
	-3.96756	-89.8458	-24.764		-148.359	-21.7995	-56.7011
7.95	-20.7243	-17.7911	-3.96771	-118.743	-3.96249	-119.396	
	-3.9799		-118.641	-20.7792	-66.9148	-26.7861	-162.374
	-3.97508	-119.278	-26.802		-162.291	-20.8595	-68.9451
8.1	-24.2853	-66.5645	-3.96306	-148.299	-3.95904	-148.957
	-3.97604	-148.184	-21.3467	-79.3053	-27.6743	-165.812
	-3.97204	-148.823	-27.6907	-165.716	-21.1066	-79.6965
8.25	-26.3214	-139.107	-3.96421	-177.984	-3.96189	-178.645
	-3.97719	-177.846	-22.645		-83.7931	-26.6883	-169.354
	-3.97482	-178.487	-26.7038	-169.224	-21.9867	-83.2461
8.4	-25.3635	144.608		-3.98339	152.281		-3.9836		151.624
	-3.99628	152.446		-23.3999	-79.3122	-24.567		176.386	
	-3.99638	151.811		-24.5814	176.546		-22.3415	-79.5007
8.55	-21.6324	81.6679		-4.01976	122.607		-4.0214		121.973	
	-4.03149	122.816		-22.8553	-72.9253	-23.2544	151.173
	-4.03265	122.207		-23.2671	151.386		-21.5839	-74.9179
8.7	-19.0249	41.4487		-4.05783	93.061		-4.05744	92.4605
	-4.06589	93.3196		-21.4151	-72.6277	-23.4124	123.72
	-4.06458	92.7457		-23.421		123.988		-20.1711	-76.4355
8.85	-18.8179	5.67838		-4.07999	63.5996		-4.07445	63.0201
	-4.08111	63.9014		-20.4577	-80.5416	-24.8477	101.318	
	-4.07392	63.3491		-24.8494	101.615		-19.3191	-85.1699
9	-21.1925	-34.2797	-4.08141	34.0964		-4.06972	33.5186	
	-4.0718		34.4312		-20.873		-90.4367	-26.4443	89.8544
	-4.05817	33.8792		-26.4345	90.1823		-19.792		-95.7222
9.15	-24.8929	-100.694	-4.07522	4.44466		-4.05868	3.85752	
	-4.05161	4.79151		-22.5331	-93.7928	-26.7069	85.0344	
	-4.03223	4.22585		-26.6807	85.3619		-21.5743	-100.168
9.3	-25.477		178.675		-4.08406	-25.3325	-4.06318	-25.9294
	-4.04508	-24.9983	-23.9291	-86.5398	-25.3845	77.1429		
	-4.0206		-25.5783	-25.3396	77.4603		-23.2477	-93.1915
9.45	-22.947		101.32		-4.11665	-55.0925	-4.09076	-55.7006
	-4.06219	-54.8088	-23.9786	-75.8048	-23.5482	58.5605
	-4.03185	-55.4064	-23.4859	58.8135		-23.5483	-81.3859
9.6	-18.9119	51.0345		-4.15887	-84.7017	-4.12701	-85.3342
	-4.09162	-84.5085	-22.9476	-71.8702	-22.6436	32.1507	
	-4.05546	-85.1346	-22.5699	32.2983		-22.5798	-75.2497
9.75	-17.8039	15.8198		-4.18403	-114.181	-4.14721	-114.852
	-4.10808	-114.096	-22.6932	-79.3794	-23.0275	4.47367	
	-4.06789	-114.766	-22.9468	4.49507		-22.0898	-80.7406
9.9	-19.6609	-16.9775	-4.18137	-143.694	-4.14284	-144.407
	-4.10075	-143.724	-25.4264	-89.6766	-24.6083	-18.5189
	-4.05955	-144.437	-24.5252	-18.622		-24.0765	-89.6533
10.05	-25.9778	-81.6723	-4.16808	-173.393	-4.12962	-174.132
	-4.0855		-173.513	-29.7686	-68.1936	-26.4402	-30.6586
	-4.04532	-174.256	-26.3572	-30.8547	-27.9057	-75.7897
10.2	-27.5127	-171.546	-4.1732		156.743		-4.13386	155.996
	-4.09001	156.527		-30.2087	-34.8196	-26.9642	-35.3001
	-4.04935	155.773		-26.8836	-35.5926	-28.7825	-46.4516
10.35	-25.6876	99.4102		-4.20901	126.897		-4.1652		126.14	
	-4.12782	126.584		-27.2889	-4.75387	-25.8143	-42.2558
	-4.08324	125.817		-25.7367	-42.6356	-26.7468	-19.643
10.5	-19.4297	45.3062		-4.25722	97.2305		-4.20776	96.4365	
	-4.17886	96.8044		-23.1729	-8.21211	-23.9605	-60.0403
	-4.12893	96.004		-23.8862	-60.5367	-23.2392	-17.5752
10.65	-18.0397	17.5938		-4.28841	67.7191		-4.23604	66.8665
	-4.21488	67.182		-23.391		-17.9003	-22.9817	-86.9779	
	-4.16228	66.3256		-22.9122	-87.5799	-23.2371	-26.6909
10.8	-20.0583	-4.14169	-4.29114	38.1789		-4.24022	37.2714
	-4.22443	37.5447		-25.1105	-9.49462	-23.4076	-116.565
	-4.17387	36.6345		-23.3447	-117.272	-25.0666	-19.5349
10.95	-23.7652	0.913715	-4.28402	8.46827		-4.23685	7.53549	
	-4.22912	7.75218		-25.0351	10.5903		-25.4412	-142.48	
	-4.18294	6.81629		-25.3915	-143.246	-25.2548	0.383345
11.1	-24.6167	20.4241		-4.29333	-21.3709	-4.24773	-22.3052
	-4.25396	-22.1428	-22.7569	27.9802		-28.275		-153.554	
	-4.20989	-23.0765	-28.2414	-154.38		-23.2533	18.5146
11.25	-22.5806	37.2717		-4.32635	-51.1659	-4.27816	-52.1007
	-4.30265	-51.9784	-19.658		28.1796		-29.3563	-152.459
	-4.25628	-52.9109	-29.3391	-153.313	-20.2048	19.9479
11.4	-19.2266	27.741		-4.36359	-80.8077	-4.31074	-81.7648
	-4.35442	-81.6198	-18.4574	18.8903		-28.0934	-152.617	
	-4.30299	-82.5716	-28.0917	-153.483	-19.0669	10.3722
11.55	-19.1294	3.81055		-4.38172	-110.357	-4.3256		-111.353
	-4.38203	-111.144	-18.8205	12.8033		-25.5188	-167.471
	-4.3271		-112.135	-25.5255	-168.302	-19.7154	4.12642
11.7	-23.2539	-20.7591	-4.37784	-139.967	-4.32089	-141.006
	-4.38629	-140.708	-19.6027	14.5295		-24.2161	165.245	
	-4.33067	-141.738	-24.2333	164.46		-20.855		7.71968
11.85	-28.2666	6.13385		-4.37034	-169.717	-4.31356	-170.791
	-4.38035	-170.425	-19.7295	20.7414		-24.6236	136.764
	-4.32499	-171.489	-24.6416	136.017		-21.074		17.2508
12	-29.0229	37.5538		-4.37635	160.456		-4.31944	159.348
	-4.38541	159.771		-19.0717	24.6451		-26.3593	115.043
	-4.32995	158.672		-26.3761	114.316		-20.1606	24.2252
12.15	-25.8601	67.867		-4.39475	130.663		-4.33859	129.514
	-4.39679	129.989		-18.4717	22.1392		-27.987		105.045
	-4.34164	128.85		-27.9953	104.314		-19.1109	22.7833
12.3	-22.4823	45.7701		-4.41094	100.934		-4.35718	99.7461
	-4.40621	100.225		-18.8315	17.0319		-28.1442	100.2
	-4.35364	99.0469		-28.1453	99.43		-19.0763	17.2498
12.45	-24.4933	23.508		-4.4168		71.2001		-4.36705	69.9848
	-4.40379	70.4212		-19.9629	16.5291		-26.8569	90.4699
	-4.35509	69.2176		-26.8511	89.6233		-19.8516	15.2433
12.6	-29.2335	36.25		-4.41874	41.3966		-4.3721		40.1769
	-4.40172	40.49		-20.7528	22.161		-25.5587	69.9254
	-4.3561		39.2812		-25.5481	68.9571		-20.4237	18.2455
12.75	-30.2127	64.3934		-4.42851	11.5306		-4.38223	10.3132	
	-4.40938	10.5157		-20.5444	28.0349		-25.5738	44.7986	
	-4.36453	9.30754		-25.5632	43.717		-20.1887	21.1799
12.9	-27.9125	91.2428		-4.44894	-18.324		-4.40071	-19.5433
	-4.43076	-19.443		-19.7331	27.5898		-26.8512	24.3044	
	-4.38427	-20.6549	-26.8417	23.124		-19.4897	18.3281
13.05	-23.5367	83.7033		-4.47182	-48.1188	-4.42121	-49.3571
	-4.45715	-49.3357	-19.3952	19.9458		-28.1179	13.877
	-4.40871	-50.5661	-28.1124	12.5922		-19.2431	8.85033
13.2	-23.2915	63.4501		-4.48763	-77.8784	-4.43589	-79.143	
	-4.47865	-79.2115	-20.0944	10.9822		-28.0779	8.19246
	-4.42893	-80.4648	-28.0776	6.79857		-19.9958	-2.23051
13.35	-26.4347	50.7843		-4.49543	-107.663	-4.44308	-108.953
	-4.49694	-109.096	-21.3262	6.44788		-26.6904	-1.99762
	-4.44699	-110.374	-26.701		-3.50055	-21.3897	-9.01632
13.5	-29.7604	67.4494		-4.50259	-137.51		-4.44966	-138.821
	-4.51192	-138.989	-22.0704	6.44601		-25.1972	-22.4628
	-4.46144	-140.289	-25.2174	-24.0038	-22.3729	-10.0277
13.65	-29.94		92.4372		-4.51638	-167.395	-4.46225	-168.728	
	-4.53668	-168.877	-21.7639	5.80009		-24.8584	-48.5631
	-4.48524	-170.2		-24.8883	-50.111		-22.202		-10.0051
13.8	-26.8728	110.39		-4.53754	162.737		-4.48274	161.376	
	-4.5653		161.283		-20.7902	-0.847927	-25.8762	-72.5354
	-4.51283	159.934		-25.9147	-74.0456	-21.1105	-15.092
13.95	-23.6523	98.8479		-4.5597		132.912		-4.50512	131.522
	-4.59639	131.478		-20.038		-13.9563	-27.4966	-87.017	
	-4.54412	130.099		-27.5425	-88.5092	-20.0461	-27.0108
14.1	-23.3		78.4186		-4.57637	103.111		-4.52301	101.695
	-4.61825	101.719		-20.0166	-28.737		-28.1259	-92.9255
	-4.56724	100.313		-28.1778	-94.3747	-19.709		-41.2802
14.25	-25.6784	58.7658		-4.58589	73.2926		-4.53391	71.8577
	-4.63354	71.9347		-20.5774	-40.1577	-27.1462	-99.3191
	-4.58407	70.507		-27.203		-100.733	-20.0554	-52.4696
14.4	-30.8833	65.4798		-4.59337	43.4169		-4.54233	41.9675	
	-4.64623	42.127		-21.1207	-45.3278	-25.2597	-115.103
	-4.59768	40.6851		-25.3221	-116.449	-20.546		-57.2265
14.55	-32.1612	91.6188		-4.60631	13.496		-4.55548	12.0314	
	-4.66242	12.2664		-20.9892	-46.4207	-24.0373	-140.446
	-4.6138		10.8108		-24.1025	-141.722	-20.4588	-57.1865
14.7	-30.0665	114.956		-4.62798	-16.4329	-4.5769		-17.918
	-4.68294	-17.6028	-20.0877	-48.2051	-24.1272	-168.631
	-4.63398	-19.0755	-24.1919	-169.854	-19.586		-57.0819
14.85	-24.7836	108.664		-4.6551		-46.319		-4.60422	-47.8273
	-4.70795	-47.4583	-18.9372	-53.7698	-25.5225	166.677	
	-4.65898	-48.9542	-25.5846	165.483		-18.3619	-60.5359
15	-23.0431	79.9847		-4.67994	-76.1558	-4.6304		-77.6864
	-4.7328		-77.2884	-18.1944	-62.0112	-27.4437	152.349	
	-4.68476	-78.8085	-27.5058	151.14		-17.4476	-67.004
15.15	-23.8411	46.8414		-4.6979		-105.979	-4.65036	-107.528
	-4.75259	-107.108	-18.0546	-69.843		-28.2642	146.792
	-4.70633	-108.646	-28.326		145.582		-17.0594	-73.6466
15.3	-27.7061	0.826118	-4.7104		-135.833	-4.66485	-137.392
	-4.76729	-136.946	-18.3859	-74.7978	-27.4229	140.399	
	-4.72295	-138.492	-27.4879	139.213		-17.0698	-78.323
15.45	-30.5527	-77.8494	-4.72336	-165.74		-4.67884	-167.3
	-4.77879	-166.828	-18.7866	-75.7426	-25.7238	123.97	
	-4.73573	-168.375	-25.7895	122.829		-17.1686	-80.3411
15.6	-29.8997	-161.537	-4.74263	164.327		-4.69826	162.771	
	-4.79675	163.266		-18.8535	-73.9531	-24.875		97.8591
	-4.75379	161.72		-24.9419	96.7579		-17.0899	-80.7211
15.75	-25.6992	125.825		-4.76862	134.413		-4.72305	132.855
	-4.82056	133.382		-18.4589	-72.263		-25.6276	69.9271	
	-4.77649	131.836		-25.6914	68.8597		-16.7709	-81.3822
15.9	-22.2884	85.3499		-4.79606	104.55		-4.74873	102.987	
	-4.8474		103.562		-17.8809	-73.0608	-27.9203	50.0775
	-4.80173	102.015		-27.9807	49.0563		-16.4101	-83.8255
16.05	-22.044		51.3435		-4.8171		74.7256		-4.76717	73.1566	
	-4.86696	73.7894		-17.5469	-76.14		-29.7565	45.506
	-4.81861	72.2405		-29.8109	44.5359		-16.323		-87.8029
16.2	-25.8752	17.0032		-4.82897	44.8832		-4.77519	43.3056	
	-4.87596	44.0034		-17.6608	-79.1929	-29.4973	45.6303
	-4.82363	42.4443		-29.5477	44.7129		-16.6885	-91.3743
16.35	-29.9872	-68.0456	-4.83769	14.9829		-4.77901	13.3841	
	-4.88113	14.1562		-17.9846	-79.6996	-27.3144	37.6741	
	-4.82336	12.5754		-27.3612	36.7981		-17.3121	-91.8736
16.5	-29.7009	-157.378	-4.8528		-14.9761	-4.7897		-16.6125
	-4.89323	-15.7402	-18.0559	-77.8801	-25.3481	13.8988	
	-4.8313		-17.3639	-25.3955	13.083		-17.6675	-89.018
16.65	-25.117		115.483		-4.87873	-44.9236	-4.81418	-46.6094
	-4.91672	-45.6317	-17.6528	-76.5625	-25.2273	-15.5566
	-4.85317	-47.3071	-25.2749	-16.3188	-17.4143	-85.8177
16.8	-20.456		80.8872		-4.90767	-74.7947	-4.84479	-76.528
	-4.94416	-75.4628	-17.0453	-78.5864	-26.9578	-39.7298
	-4.88214	-77.1831	-27.003		-40.4563	-16.7622	-85.8989
16.95	-20.1787	50.4547		-4.92773	-104.607	-4.86777	-106.369
	-4.96218	-105.25		-16.7417	-83.8198	-28.9455	-48.4302
	-4.90294	-106.997	-28.9868	-49.1283	-16.2875	-89.9332
17.1	-24.7791	13.8362		-4.93281	-134.45		-4.87499	-136.225
	-4.96642	-135.067	-17.0163	-89.0694	-29.0283	-49.172
	-4.90899	-136.826	-29.0682	-49.8411	-16.3731	-94.8251
17.25	-27.9825	-70.6856	-4.93463	-164.41		-4.87712	-166.197	
	-4.96802	-165.014	-17.5937	-90.9166	-27.0146	-54.8009
	-4.91102	-166.781	-27.0544	-55.4449	-16.8158	-97.0041
17.4	-27.2583	-157.733	-4.95038	165.547		-4.89287	163.746	
	-4.9844		164.958		-17.8588	-89.1548	-24.5236	-76.2944
	-4.92744	163.176		-24.5655	-76.9181	-17.0499	-95.8188
17.55	-21.6631	121.896		-4.98813	135.544		-4.93107	133.726	
	-5.02209	134.943		-17.4525	-87.3706	-23.6217	-106.831
	-4.96595	133.146		-23.6645	-107.469	-16.6959	-94.3058
17.7	-17.6823	89.7052		-5.03252	105.702		-4.97608	103.877	
	-5.06619	105.068		-16.6692	-89.4611	-24.4947	-137.091
	-5.01081	103.262		-24.5385	-137.756	-15.9756	-96.1227
17.85	-17.3064	59.9204		-5.05924	76.0006		-5.00234	74.1728
	-5.09305	75.3069		-16.197		-95.8939	-26.8874	-158.079
