! MARKI MICROWAVE INC.
! Email:             	info@markimicrowave.com   				Phone:   408-778-4200
! Model Number:      	PD0218							Date:    10/08
! Filename:		PD-0218.S3P						Version: 1.0
! Description:       	3-port S-parameter data for Power Divider PD-0218
! Frequency Range: 	10 MHz to 20 GHz		
! Port Configuration:	PORT 1: COMMON, PORT 2 and Port 3: Output


! S3P File: Measurements: Mag<S11> Ang<S11> Mag<S12> Ang<S12> Mag<S13> Ang<S13>! row 1 
!			  Mag<S21> Ang<S21> Mag<S22> Ang<S22> Mag<S23> Ang<S23>! row 2 
!			  Mag<S31> Ang<S31> Mag<S32> Ang<S32> Mag<S33> Ang<S33>! row 3 


# Hz S DB R 50
10000000 -9.7193403 176.73473 -3.5461969 -3.8419602 -3.5382833 -3.680891
-3.5539219 -3.8832533 -9.7937613 170.44891 -3.6677127 -6.7879519
-3.5589712 -3.7864175 -3.6778076 -6.9221087 -9.8529205 170.22144
34987500 -9.7232342 175.5849 -3.5509498 -5.2117949 -3.5440195 -5.0890031
-3.5576978 -5.2413859 -9.8614321 167.05649 -3.7033479 -9.2475986
-3.5613222 -5.1689944 -3.711278 -9.3489065 -9.9055758 166.87395
59975000 -9.7318077 174.22119 -3.5561867 -6.8591638 -3.5502133 -6.7672067
-3.5619078 -6.8733716 -9.9482079 163.02602 -3.7506297 -12.17085
-3.5643001 -6.8265972 -3.7563794 -12.250755 -9.977457 162.8974
84962500 -9.7415047 172.65295 -3.5609794 -8.7771168 -3.5573139 -8.7188253
-3.565486 -8.7771816 -10.053473 158.36678 -3.8114076 -15.559825
-3.5677972 -8.7550983 -3.814728 -15.60835 -10.065838 158.29103
109950000 -9.7554121 170.85355 -3.566565 -10.971564 -3.5636425 -10.943459
-3.5705333 -10.963103 -10.178259 153.0659 -3.8866994 -19.401377
-3.5720809 -10.957129 -3.8881974 -19.417473 -10.174623 153.04887
134937500 -9.7722921 168.84229 -3.5721421 -13.436215 -3.5696864 -13.439829
-3.5766218 -13.411355 -10.32413 147.1326 -3.9781942 -23.692654
-3.575948 -13.427858 -3.9769163 -23.681082 -10.307486 147.17444
159925000 -9.8028765 166.85838 -3.5752525 -15.912693 -3.5725551 -15.900506
-3.5805264 -15.898413 -10.476337 141.29877 -4.0857673 -27.901123
-3.5781624 -15.896885 -4.0840225 -27.896908 -10.456352 141.32973
184912500 -9.8265524 164.8506 -3.5775466 -18.380955 -3.5740345 -18.360504
-3.5841877 -18.364443 -10.634688 135.52028 -4.2041616 -32.050449
-3.5811515 -18.359072 -4.2029872 -32.047192 -10.617748 135.54655
209900000 -9.8535128 162.85364 -3.5796962 -20.842627 -3.5751925 -20.826006
-3.587043 -20.827692 -10.811687 129.79196 -4.3315625 -36.135567
-3.5835588 -20.8188 -4.3316827 -36.124718 -10.792954 129.82314
234887500 -9.8799334 160.87616 -3.5824914 -23.299835 -3.5769231 -23.285868
-3.5896626 -23.284134 -10.996511 124.15792 -4.4707408 -40.148914
-3.5843885 -23.28755 -4.4705343 -40.153793 -10.979751 124.19358
259875000 -9.9057407 158.9294 -3.5848699 -25.758562 -3.5793731 -25.739628
-3.5906231 -25.739046 -11.194156 118.60094 -4.6161075 -44.097374
-3.5873625 -25.735567 -4.617444 -44.10239 -11.178003 118.63939
284862500 -9.9379101 156.99162 -3.5859036 -28.215382 -3.5786049 -28.196178
-3.592721 -28.199549 -11.400778 113.12812 -4.7707882 -47.976551
-3.5883205 -28.187143 -4.7725611 -47.975586 -11.387912 113.14108
309850000 -9.9724064 155.04359 -3.5876689 -30.676306 -3.5796127 -30.657366
-3.5945766 -30.653801 -11.614043 107.7078 -4.9330196 -51.78307
-3.5888162 -30.642704 -4.9347105 -51.780491 -11.606314 107.69475
334837500 -10.005374 153.09164 -3.587971 -33.121071 -3.5806286 -33.114422
-3.5943069 -33.102146 -11.837309 102.37274 -5.1001778 -55.522598
-3.588877 -33.096825 -5.1015916 -55.518414 -11.832335 102.31367
359825000 -10.040401 151.14673 -3.5884712 -35.576942 -3.5819666 -35.573822
-3.5932128 -35.563972 -12.074638 97.122192 -5.2716298 -59.190098
-3.5897844 -35.557869 -5.2750835 -59.182564 -12.062976 97.0299
384812500 -10.075618 149.22951 -3.5886106 -38.020916 -3.5834341 -38.037609
-3.5922461 -38.002846 -12.319624 91.941658 -5.4483566 -62.800571
-3.5902057 -38.016308 -5.4522772 -62.779037 -12.305869 91.839233
409800000 -10.116743 147.34998 -3.5887454 -40.468266 -3.5847385 -40.504219
-3.5906272 -40.458881 -12.57785 86.839211 -5.6284552 -66.337463
-3.589678 -40.47567 -5.6339178 -66.307007 -12.558462 86.735756
434787500 -10.15357 145.48831 -3.5884538 -42.918446 -3.5847144 -42.9617
-3.5889051 -42.908249 -12.841174 81.807762 -5.8121543 -69.816986
-3.5893428 -42.934536 -5.817286 -69.799797 -12.817343 81.713173
459775000 -10.193881 143.62135 -3.5875371 -45.372257 -3.5847502 -45.419861
-3.5879114 -45.36615 -13.112624 76.820854 -5.998364 -73.233025
-3.5901272 -45.385639 -6.0032969 -73.206619 -13.079404 76.720085
484762500 -10.238302 141.71729 -3.5854156 -47.818333 -3.5845153 -47.878811
-3.5875473 -47.818558 -13.390047 71.841515 -6.1871629 -76.590065
-3.5893662 -47.857769 -6.190609 -76.572021 -13.35175 71.762688
509750000 -10.276762 139.83539 -3.5839484 -50.269287 -3.5866554 -50.342834
-3.5857325 -50.271088 -13.675102 66.906013 -6.3766794 -79.907692
-3.5892375 -50.318462 -6.3794069 -79.886917 -13.624144 66.852005
534737500 -10.313747 137.93092 -3.5821033 -52.70982 -3.5845213 -52.801483
-3.5840657 -52.727638 -13.963854 62.009972 -6.5665979 -83.177597
-3.589061 -52.771133 -6.5708752 -83.153259 -13.907666 61.984249
559725000 -10.353704 136.05969 -3.5811944 -55.169052 -3.5832903 -55.260029
-3.5841086 -55.182755 -14.258868 57.131989 -6.757843 -86.397713
-3.5883453 -55.228703 -6.7617874 -86.36879 -14.196674 57.147579
584712500 -10.393129 134.19574 -3.5798559 -57.62001 -3.5825524 -57.718548
-3.5833068 -57.631191 -14.554818 52.242569 -6.9497228 -89.57711
-3.5872569 -57.682724 -6.9526091 -89.555252 -14.492125 52.285961
609700000 -10.433481 132.32304 -3.578511 -60.075134 -3.5814641 -60.177498
-3.5829976 -60.085243 -14.8537 47.398521 -7.1417279 -92.718765
-3.5869923 -60.145607 -7.1443529 -92.696175 -14.785787 47.463482
634687500 -10.476234 130.42557 -3.5780349 -62.532986 -3.5799525 -62.627392
-3.5836182 -62.539028 -15.158036 42.546257 -7.3319359 -95.823212
-3.5865533 -62.601231 -7.334136 -95.806847 -15.078232 42.596035
659675000 -10.522476 128.50545 -3.576973 -64.987793 -3.58004 -65.080505
-3.5840724 -64.996742 -15.464051 37.680553 -7.5229788 -98.889771
-3.5857666 -65.059601 -7.5243039 -98.866402 -15.374558 37.754105
684662500 -10.567695 126.61116 -3.5745153 -67.443382 -3.5778015 -67.537941
-3.5816913 -67.446159 -15.776515 32.850418 -7.7126732 -101.94604
-3.5840726 -67.515572 -7.7149868 -101.91819 -15.679938 33.004807
709650000 -10.612438 124.74069 -3.573261 -69.904999 -3.5753801 -69.999008
-3.5800042 -69.903946 -16.086712 28.009052 -7.9017363 -104.94364
-3.5824873 -69.963982 -7.9052987 -104.90929 -15.977784 28.198139
734637500 -10.658735 122.85158 -3.5714977 -72.360146 -3.5736625 -72.45266
-3.5772941 -72.359077 -16.397266 23.144442 -8.09231 -107.90592
-3.5817394 -72.420654 -8.0967598 -107.87369 -16.279642 23.422798
759625000 -10.707838 120.99298 -3.5702736 -74.822525 -3.5721493 -74.905739
-3.5756412 -74.817421 -16.713732 18.271868 -8.2809486 -110.84263
-3.5803111 -74.882538 -8.2855568 -110.818 -16.579081 18.646591
784612500 -10.760461 119.11227 -3.5675361 -77.280685 -3.5708704 -77.358414
-3.5727062 -77.275314 -17.028843 13.396819 -8.4708815 -113.75892
-3.5782154 -77.346237 -8.4760885 -113.74777 -16.879581 13.880782
809600000 -10.813557 117.22231 -3.5643961 -79.745407 -3.5681677 -79.810562
-3.5708396 -79.733795 -17.338516 8.5414228 -8.6606255 -116.64664
-3.5762842 -79.803886 -8.6652746 -116.64385 -17.180487 9.1655083
834587500 -10.868864 115.35048 -3.5621495 -82.209106 -3.5663412 -82.271233
-3.5674908 -82.196762 -17.646124 3.6487789 -8.8502417 -119.51129
-3.5738318 -82.25164 -8.8543549 -119.50416 -17.481819 4.4413624
859575000 -10.924384 113.4696 -3.5583489 -84.675697 -3.5647652 -84.732849
-3.5641344 -84.661758 -17.950548 -1.2763169 -9.0407972 -122.3632
-3.5709608 -84.711685 -9.0427456 -122.35731 -17.786448 -0.26913193
884562500 -10.980934 111.59754 -3.5546074 -87.139328 -3.5612137 -87.197006
-3.5615962 -87.124016 -18.254402 -6.1333284 -9.2329073 -125.19608
-3.5677125 -87.172722 -9.2321291 -125.19524 -18.093727 -4.9837303
909550000 -11.037943 109.70802 -3.5521758 -89.602516 -3.5587487 -89.650681
-3.5590224 -89.590378 -18.55143 -11.055161 -9.42136 -127.99081
-3.5653942 -89.633949 -9.422266 -127.99538 -18.399794 -9.773881
934537500 -11.100163 107.83005 -3.5484769 -92.070091 -3.5557017 -92.10643
-3.5560482 -92.056725 -18.852406 -15.908293 -9.6154079 -130.79836
-3.5621519 -92.094864 -9.6142893 -130.8093 -18.710869 -14.483104
959525000 -11.160092 105.94962 -3.5455241 -94.536598 -3.5519023 -94.568611
-3.5550289 -94.526146 -19.151672 -20.803574 -9.8045254 -133.59932
-3.558476 -94.55854 -9.8037748 -133.6059 -19.019777 -19.305817
984512500 -11.225199 104.06264 -3.5425174 -97.006607 -3.5496554 -97.032112
-3.5518222 -96.994202 -19.448683 -25.70944 -9.9954958 -136.38182
-3.5545554 -97.022087 -9.993269 -136.3914 -19.331198 -24.154896
1009500000 -11.286866 102.21474 -3.5399399 -99.470047 -3.5455656 -99.499084
-3.5477188 -99.460213 -19.748383 -30.645044 -10.184893 -139.15898
-3.5499527 -99.480995 -10.182861 -139.15904 -19.647818 -29.051323
1034487500 -11.352744 100.34387 -3.5377684 -101.92949 -3.5431044 -101.96568
-3.5438139 -101.93047 -20.046787 -35.630833 -10.374051 -141.91429
-3.5455329 -101.94941 -10.372379 -141.91249 -19.956783 -34.041546
1059475000 -11.422554 98.481293 -3.5336134 -104.39018 -3.5396266 -104.42805
-3.5398526 -104.40273 -20.350382 -40.644882 -10.563581 -144.66687
-3.5417747 -104.4241 -10.562516 -144.67499 -20.266882 -39.050198
1084462500 -11.486778 96.634247 -3.5296061 -106.84959 -3.5346777 -106.89743
-3.5355945 -106.86271 -20.652073 -45.660564 -10.754239 -147.4213
-3.5378063 -106.88972 -10.754597 -147.42502 -20.578615 -44.100346
1109450000 -11.555379 94.803665 -3.5263028 -109.31331 -3.5315838 -109.36251
-3.5313442 -109.33023 -20.953651 -50.816521 -10.944481 -150.17081
-3.5343752 -109.35713 -10.947617 -150.17615 -20.888266 -49.226276
1134437500 -11.630142 92.963127 -3.5226555 -111.7864 -3.527241 -111.83964
-3.5279315 -111.79752 -21.247982 -55.983978 -11.138284 -152.90523
-3.5290596 -111.82825 -11.13791 -152.9068 -21.176903 -54.411087
1159425000 -11.705046 91.123878 -3.5184922 -114.25576 -3.5240269 -114.31302
-3.5245881 -114.26875 -21.537441 -61.315121 -11.328185 -155.64685
-3.5252042 -114.30028 -11.327221 -155.63661 -21.465073 -59.742195
1184412500 -11.780239 89.29612 -3.5139406 -116.72415 -3.5192678 -116.77908
-3.5192289 -116.73654 -21.823 -66.687164 -11.522044 -158.38649
-3.5212541 -116.76875 -11.520901 -158.36998 -21.755871 -65.018059
1209400000 -11.854924 87.468498 -3.5096231 -119.19273 -3.5144217 -119.2487
-3.5152473 -119.20383 -22.096542 -72.075958 -11.717464 -161.09993
-3.5174415 -119.2422 -11.717806 -161.08659 -22.032394 -70.343315
1234387500 -11.936615 85.618698 -3.5054023 -121.66776 -3.5105896 -121.72331
-3.5127156 -121.67891 -22.355202 -77.554543 -11.914474 -163.80974
-3.5149188 -121.71793 -11.913866 -163.79909 -22.290878 -75.740562
1259375000 -12.01671 83.796173 -3.5010686 -124.14385 -3.5055952 -124.2011
-3.5092692 -124.15489 -22.615936 -83.125961 -12.113418 -166.54544
-3.5118103 -124.19827 -12.113084 -166.53238 -22.550354 -81.207039
1284362500 -12.09528 81.951302 -3.4973159 -126.62234 -3.5011828 -126.67252
-3.5062296 -126.62313 -22.85214 -88.758667 -12.312156 -169.25839
-3.5074909 -126.67664 -12.3125 -169.25143 -22.794809 -86.745285
1309350000 -12.180276 80.120583 -3.4945672 -129.09651 -3.4966233 -129.14729
-3.5025837 -129.09898 -23.072725 -94.50499 -12.511731 -171.96065
-3.5041869 -129.15285 -12.514159 -171.96043 -23.014944 -92.367241
1334337500 -12.265265 78.302116 -3.4907603 -131.57964 -3.4916787 -131.62985
-3.4978423 -131.57991 -23.26399 -100.26083 -12.713597 -174.65756
-3.4998884 -131.63773 -12.717176 -174.65758 -23.215244 -98.023315
1359325000 -12.349452 76.495308 -3.4869068 -134.05154 -3.4884081 -134.11136
-3.4932466 -134.06029 -23.45363 -106.1329 -12.916248 -177.39751
-3.4959936 -134.11728 -12.922172 -177.39819 -23.4247 -103.74985
1384312500 -12.435298 74.689232 -3.4830463 -136.52388 -3.4833784 -136.58609
-3.4895415 -136.53212 -23.616352 -112.02184 -13.120237 179.88116
-3.4917159 -136.59605 -13.127386 179.86667 -23.611851 -109.47636
1409300000 -12.528419 72.875336 -3.4800196 -138.99771 -3.4800801 -139.06937
-3.4857516 -139.00537 -23.760771 -117.92185 -13.327305 177.15634
-3.4876931 -139.07632 -13.334191 177.13945 -23.781906 -115.33595
1434287500 -12.625046 71.05835 -3.4756181 -141.47693 -3.4767032 -141.55257
-3.4822066 -141.4872 -23.884098 -123.88734 -13.535813 174.43024
-3.4847417 -141.55667 -13.542404 174.41669 -23.931759 -121.14159
1459275000 -12.711163 69.234322 -3.4712265 -143.96011 -3.4726276 -144.03387
-3.4772351 -143.96077 -23.988338 -129.73468 -13.750641 171.70802
-3.4798431 -144.03792 -13.758132 171.68282 -24.063 -126.92915
1484262500 -12.803877 67.427467 -3.4664531 -146.44266 -3.4691989 -146.51566
-3.4728858 -146.43733 -24.060553 -135.55119 -13.966628 168.98851
-3.4761236 -146.51584 -13.973014 168.97166 -24.166231 -132.71478
1509250000 -12.898342 65.633011 -3.4631228 -148.92079 -3.4650702 -149.00098
-3.4678924 -148.92043 -24.140028 -141.39825 -14.189375 166.20676
-3.4725728 -148.99568 -14.196165 166.19598 -24.277416 -138.54625
1534237500 -12.99699 63.836002 -3.4591641 -151.40295 -3.4618976 -151.48566
-3.4642346 -151.39957 -24.192057 -147.15678 -14.414171 163.43474
-3.4687738 -151.47815 -14.419746 163.42517 -24.377453 -144.34569
1559225000 -13.099575 62.004486 -3.4545789 -153.88522 -3.4578562 -153.9657
-3.4609265 -153.88312 -24.224405 -152.87411 -14.641914 160.6741
-3.4648728 -153.96005 -14.645358 160.6624 -24.452366 -150.10005
1584212500 -13.203168 60.1912 -3.45051 -156.37704 -3.4533601 -156.44902
-3.4573855 -156.36307 -24.231955 -158.52763 -14.872443 157.92133
-3.4613764 -156.4438 -14.874749 157.91248 -24.490911 -155.84294
1609200000 -13.30368 58.386902 -3.4468889 -158.8623 -3.4492214 -158.9379
-3.4530656 -158.84802 -24.235025 -164.04712 -15.110661 155.14571
-3.4574354 -158.93303 -15.114019 155.13071 -24.520763 -161.53906
1634187500 -13.40728 56.55304 -3.4415457 -161.35097 -3.4449646 -161.42065
-3.4493597 -161.33302 -24.215729 -169.5506 -15.347607 152.37077
-3.4531212 -161.41589 -15.352146 152.35526 -24.52129 -167.1492
1659175000 -13.51175 54.753418 -3.4375448 -163.8381 -3.4403708 -163.91014
-3.4447246 -163.82068 -24.195133 -174.91081 -15.593121 149.56548
-3.4481821 -163.90562 -15.597249 149.54564 -24.520481 -172.72716
1684162500 -13.627751 52.959435 -3.4338472 -166.32422 -3.4364052 -166.40134
-3.4406366 -166.31261 -24.159172 179.74327 -15.840323 146.76381
-3.4448063 -166.39713 -15.845639 146.75168 -24.50918 -178.23753
1709150000 -13.741375 51.184166 -3.4297612 -168.81203 -3.4322317 -168.88776
-3.4360332 -168.79796 -24.120142 174.49834 -16.094189 143.93967
-3.4401083 -168.88002 -16.099358 143.91617 -24.491856 176.29155
1734137500 -13.854845 49.388618 -3.4247332 -171.30214 -3.4285512 -171.38036
-3.432524 -171.28917 -24.05707 169.42073 -16.352146 141.14807
-3.4359167 -171.37115 -16.357954 141.13593 -24.441437 170.99992
1759125000 -13.967217 47.614285 -3.4200721 -173.80167 -3.4253075 -173.87538
-3.428093 -173.78204 -23.992403 164.43732 -16.6187 138.35107
-3.4312305 -173.86433 -16.622162 138.32396 -24.371574 165.85432
1784112500 -14.089333 45.859463 -3.4169087 -176.28983 -3.4212596 -176.36761
-3.4238701 -176.26381 -23.931957 159.48564 -16.883591 135.47432
-3.4268179 -176.35242 -16.889242 135.4836 -24.301315 160.68323
1809100000 -14.215307 44.109413 -3.4137597 -178.77325 -3.4177146 -178.8541
-3.4204667 -178.75165 -23.863523 154.66209 -17.158747 132.63081
-3.4236064 -178.84187 -17.16338 132.62881 -24.233753 155.64505
1834087500 -14.344256 42.346478 -3.4092481 178.7386 -3.4135063 178.65311
-3.4156568 178.74878 -23.792898 149.93903 -17.439081 129.76358
-3.41942 178.66048 -17.445133 129.78415 -24.157583 150.70145
1859075000 -14.473516 40.615967 -3.4054115 176.24597 -3.4099932 176.15614
-3.4123197 176.25951 -23.721489 145.30258 -17.730274 126.87518
-3.4160247 176.16179 -17.732615 126.89337 -24.077837 145.83424
1884062500 -14.602413 38.877239 -3.4021575 173.75191 -3.4065669 173.6675
-3.4093559 173.774 -23.635756 140.73712 -18.023079 123.9901
-3.4131732 173.6693 -18.029427 124.00711 -23.978895 141.01422
1909050000 -14.735547 37.17498 -3.3989093 171.26416 -3.4031076 171.17575
-3.405889 171.28398 -23.555614 136.18507 -18.32476 121.05525
-3.4103885 171.17606 -18.330971 121.06016 -23.877708 136.27831
1934037500 -14.873504 35.462696 -3.3958306 168.77068 -3.3991809 168.67821
-3.4021523 168.78465 -23.473122 131.67447 -18.633297 118.10449
-3.4064221 168.67538 -18.639019 118.10352 -23.768057 131.71956
1959025000 -15.013311 33.764305 -3.3928173 166.27126 -3.3955793 166.18358
-3.3976147 166.29161 -23.377121 127.14569 -18.944923 115.11564
-3.4021208 166.17542 -18.948051 115.09478 -23.652887 127.12737
1984012500 -15.159961 32.057262 -3.3892627 163.7795 -3.3908234 163.68927
-3.3953836 163.79601 -23.291998 122.751 -19.268391 112.08694
-3.4001815 163.67491 -19.272537 112.11673 -23.548658 122.63377
2009000000 -15.29546 30.394632 -3.384815 161.2798 -3.3875103 161.19202
-3.3926213 161.2971 -23.208944 118.42139 -19.615288 109.0971
-3.397315 161.1692 -19.61853 109.10781 -23.448013 118.27621
2033987500 -15.435596 28.737228 -3.3801284 158.78619 -3.3838668 158.6866
-3.3892875 158.79366 -23.122629 114.19114 -19.961937 106.02574
-3.3940732 158.67303 -19.971317 106.04193 -23.340471 114.00549
2058975000 -15.578907 27.071121 -3.3781204 156.28329 -3.3812037 156.18465
-3.3864152 156.30371 -23.021286 109.99477 -20.318336 102.94921
-3.3914287 156.18097 -20.329172 102.98418 -23.225185 109.84647
2083962500 -15.729424 25.42959 -3.3756173 153.77921 -3.3778615 153.68147
-3.3818672 153.80302 -22.926321 105.89252 -20.689215 99.890213
-3.3874314 153.67703 -20.701527 99.870956 -23.116816 105.78062
2108950000 -15.880302 23.823465 -3.3730068 151.28128 -3.3741286 151.17345
-3.3780308 151.3015 -22.835491 101.82974 -21.062622 96.722946
-3.3836269 151.17693 -21.076195 96.722687 -23.013594 101.7972
2133937500 -16.030602 22.210421 -3.3693683 148.78299 -3.3715522 148.67307
-3.3750501 148.80565 -22.743599 97.863373 -21.453121 93.481293
-3.3803084 148.6803 -21.467373 93.513443 -22.914938 97.829872
2158925000 -16.178139 20.590639 -3.3653016 146.28387 -3.368284 146.16779
-3.3722281 146.31329 -22.651999 93.942917 -21.860167 90.1521
-3.3772473 146.18102 -21.876221 90.20388 -22.817247 93.837502
2183912500 -16.334112 19.005045 -3.3628254 143.78358 -3.3653355 143.65887
-3.370584 143.81142 -22.574667 90.158142 -22.287928 86.873932
-3.3755589 143.67938 -22.306715 86.945541 -22.722006 90.069733
2208900000 -16.489937 17.425621 -3.3605061 141.28256 -3.363065 141.15686
-3.3657641 141.31145 -22.498234 86.336411 -22.737078 83.441826
-3.3715608 141.18619 -22.760635 83.486359 -22.637924 86.288292
2233887500 -16.655342 15.828156 -3.3593085 138.78476 -3.3600166 138.65033
-3.362371 138.81052 -22.411964 82.63961 -23.189041 79.919144
-3.3688383 138.69127 -23.212412 79.945381 -22.542843 82.557777
2258875000 -16.817831 14.278229 -3.3566241 136.2861 -3.3580546 136.15361
-3.3592963 136.31627 -22.32519 79.004578 -23.656734 76.358543
-3.3665578 136.18651 -23.677752 76.411438 -22.457888 78.912117
2283862500 -16.990946 12.753196 -3.354003 133.78973 -3.3550291 133.65132
-3.3572943 133.81459 -22.262444 75.338181 -24.149452 72.564041
-3.3640358 133.68352 -24.168442 72.601593 -22.378702 75.23111
2308850000 -17.158365 11.180127 -3.3518054 131.2935 -3.3522024 131.15025
-3.3546796 131.30965 -22.20109 71.833435 -24.661037 68.754478
-3.3619192 131.17778 -24.676556 68.79702 -22.302208 71.69622
2333837500 -17.333393 9.6126137 -3.3489931 128.79231 -3.3506119 128.64964
-3.3525639 128.8089 -22.145622 68.274071 -25.197193 64.73806
-3.3592529 128.6781 -25.213245 64.801712 -22.233948 68.123436
2358825000 -17.513319 8.0763378 -3.3468721 126.28455 -3.3478389 126.14307
-3.350976 126.30399 -22.097166 64.842484 -25.759527 60.678539
-3.3569875 126.1713 -25.77463 60.776535 -22.167997 64.669281
2383812500 -17.698669 6.5703444 -3.3452973 123.78487 -3.3460305 123.64034
-3.3489265 123.7979 -22.056976 61.421814 -26.351717 56.415508
