! MARKI MICROWAVE INC.
! Email:             	support@markimicrowave.com   				Phone:   408-778-4200
! Model Number:      	PD0535SM						Date:    09/13
! Filename:		PD-0535SM.S3P						Version: 1.1
! Description:       	3-port S-parameter data for Power Divider PD-0535SM
! Frequency Range: 	10 MHz to 40 GHz		
! Port Configuration:	PORT 1: COMMON, PORT 2 and Port 3: Output


! S3P File: Measurements: Mag<S11> Ang<S11> Mag<S12> Ang<S12> Mag<S13> Ang<S13>! row 1 
!			  Mag<S21> Ang<S21> Mag<S22> Ang<S22> Mag<S23> Ang<S23>! row 2 
!			  Mag<S31> Ang<S31> Mag<S32> Ang<S32> Mag<S33> Ang<S33>! row 3 
# Hz S  dB   R 50
10000000 -9.496419 173.99403 -3.5600264 -0.16648646 -3.5329995 -0.12510006
-3.5940132 -0.056749687 -9.4562941 173.14374 -3.6523473 -0.7574895
-3.4897172 0.015660305 -3.5525541 -0.21694037 -9.5251284 172.7101
59987500 -9.6863432 177.61748 -3.542253 -1.0129056 -3.5418153 -0.99779505
-3.5587909 -1.0192362 -9.7236423 175.17088 -3.5789666 -2.2063196
-3.5573936 -1.0228724 -3.5859084 -2.2038946 -9.7281866 175.23114
109975000 -9.6980753 177.45071 -3.542824 -1.6766429 -3.53213 -1.6183655
-3.5536354 -1.6396332 -9.7528791 172.91638 -3.5869622 -3.7117493
-3.5567563 -1.5668439 -3.6004963 -3.7007296 -9.7812576 173.15691
159962500 -9.7433348 176.81674 -3.5495045 -2.5127175 -3.5407093 -2.3349319
-3.5502927 -2.4746943 -9.8353205 170.57672 -3.6023102 -5.3871889
-3.5536098 -2.3526592 -3.6141388 -5.3952222 -9.8433533 170.70735
209950000 -9.7628689 176.22977 -3.5474458 -3.207655 -3.5560958 -3.0450754
-3.549603 -3.1960711 -9.900219 168.06787 -3.6355383 -7.0460567
-3.5626597 -3.014797 -3.6401348 -7.0379643 -9.887537 168.35129
259937500 -9.8209772 175.64996 -3.5514591 -3.9224975 -3.5448508 -3.702647
-3.5591786 -4.0010552 -9.9466372 165.65845 -3.671392 -8.5827541
-3.5652595 -3.7470891 -3.6704223 -8.6175537 -9.9570074 166.02029
309925000 -9.8382111 174.83157 -3.55406 -4.669404 -3.5385089 -4.4702497
-3.5650015 -4.6646104 -9.997138 163.02498 -3.6941891 -10.286268
-3.5661714 -4.460268 -3.7095633 -10.246486 -9.9946718 163.56247
359912500 -9.8500195 174.45966 -3.5502555 -5.4341016 -3.5509655 -5.1397395
-3.5547318 -5.4814124 -10.057652 160.74969 -3.7233348 -11.847817
-3.5645525 -5.118156 -3.7341499 -11.780901 -10.042068 161.40573
409900000 -9.8952188 173.76482 -3.5520263 -6.1604567 -3.5470233 -5.8483405
-3.5595512 -6.2148671 -10.08754 158.24139 -3.7703161 -13.388103
-3.5587907 -5.8094277 -3.7646303 -13.367565 -10.14824 159.03685
459887500 -9.883152 173.26201 -3.5542204 -6.9286151 -3.5475669 -6.5681076
-3.5558476 -6.9167452 -10.137853 155.78593 -3.7982061 -14.915684
-3.5563293 -6.5508823 -3.8008819 -14.88732 -10.154131 156.62891
509875000 -9.9228458 172.89636 -3.5746713 -7.6579928 -3.5419588 -7.2490473
-3.5696239 -7.6572347 -10.201233 153.63206 -3.8538191 -16.427319
-3.5588424 -7.2106504 -3.8697252 -16.40815 -10.242637 154.58037
559862500 -9.9565058 172.21834 -3.5713451 -8.3680801 -3.549926 -7.985754
-3.5827966 -8.40763 -10.278198 151.32149 -3.9025273 -17.990973
-3.5660052 -7.9362221 -3.9122024 -17.943171 -10.316068 152.34538
609850000 -9.9706068 171.75354 -3.5778341 -9.1274652 -3.5553639 -8.6871204
-3.5661581 -9.1398964 -10.334726 148.99915 -3.9410803 -19.426483
-3.5676627 -8.656064 -3.957988 -19.396812 -10.375041 150.02086
659837500 -9.9920959 171.15091 -3.5664589 -9.9174271 -3.5555384 -9.4148569
-3.5763395 -9.857399 -10.399038 146.77528 -3.9998753 -20.938631
-3.5707972 -9.3548384 -4.0127239 -20.937836 -10.436716 147.83658
709825000 -10.016007 170.57248 -3.566196 -10.568879 -3.55316 -10.123746
-3.5729067 -10.562066 -10.455515 144.37755 -4.0589542 -22.400564
-3.5565679 -10.028773 -4.0556726 -22.346539 -10.52412 145.48384
759812500 -10.031974 170.18433 -3.5742071 -11.323331 -3.551733 -10.807096
-3.5803308 -11.292766 -10.525542 141.95537 -4.12148 -23.872988
-3.5673494 -10.764776 -4.1303029 -23.831032 -10.586816 143.3054
809800000 -10.024413 169.49953 -3.561831 -12.135085 -3.5401158 -11.539214
-3.569211 -12.104712 -10.56817 139.71834 -4.1838698 -25.299675
-3.5573456 -11.502073 -4.1834412 -25.275393 -10.647558 141.01584
859787500 -10.054567 168.82817 -3.5826595 -12.858709 -3.5512569 -12.291921
-3.5807824 -12.870741 -10.670126 137.31535 -4.2425799 -26.833826
-3.5669625 -12.326585 -4.2512679 -26.815365 -10.746279 138.64842
909775000 -10.033161 168.50806 -3.5712347 -13.602316 -3.5520608 -12.964559
-3.5752532 -13.591358 -10.724178 135.19313 -4.306406 -28.190535
-3.5593202 -12.94043 -4.3046703 -28.145742 -10.789745 136.61227
959762500 -10.077682 167.75186 -3.5607672 -14.312588 -3.5534797 -13.638309
-3.5755203 -14.306248 -10.802379 132.75682 -4.3785443 -29.58477
-3.5576346 -13.614392 -4.3730435 -29.510723 -10.88213 134.22997
1009750000 -10.099677 167.21294 -3.5776265 -15.055875 -3.5478113 -14.3405
-3.5890763 -15.008992 -10.869479 130.56122 -4.4496369 -30.995188
-3.5691321 -14.315763 -4.4605312 -30.959202 -10.961211 132.08942
1059737500 -10.131135 166.55397 -3.5761578 -15.79552 -3.5472653 -15.074259
-3.5885282 -15.762086 -10.952853 128.25339 -4.5189939 -32.345253
-3.559664 -15.016313 -4.51895 -32.354588 -11.051217 129.87363
1109725000 -10.134219 165.97331 -3.5870316 -16.48937 -3.5564277 -15.769508
-3.5903437 -16.509073 -11.023286 125.93494 -4.5881085 -33.657131
-3.5645032 -15.716117 -4.5918021 -33.585419 -11.126581 127.61329
1159712500 -10.15188 165.42462 -3.5834646 -17.284708 -3.5472898 -16.470919
-3.5884969 -17.252499 -11.072617 123.87852 -4.6661539 -34.984299
-3.5604002 -16.452093 -4.6689901 -35.010933 -11.193603 125.51492
1209700000 -10.189565 164.8317 -3.5756781 -17.934513 -3.5409288 -17.14028
-3.5914285 -17.934986 -11.174065 121.68246 -4.7343011 -36.387112
-3.5553629 -17.132727 -4.7388673 -36.354042 -11.314531 123.55489
1259687500 -10.194012 164.14168 -3.5824597 -18.672743 -3.5428782 -17.914143
-3.5913904 -18.660503 -11.231357 119.44165 -4.8134274 -37.677452
-3.5618455 -17.87244 -4.8167238 -37.662342 -11.378568 121.31861
1309675000 -10.239956 163.57118 -3.5985904 -19.444008 -3.5499973 -18.614004
-3.6053295 -19.406269 -11.325639 117.18662 -4.9007545 -38.940285
-3.5678396 -18.564167 -4.9147186 -38.944283 -11.478358 119.18844
1359662500 -10.262217 162.97617 -3.5960159 -20.183241 -3.5543604 -19.300838
-3.6002638 -20.141289 -11.409384 115.29735 -4.9878688 -40.232544
-3.5738983 -19.246714 -4.9955683 -40.264118 -11.586552 117.19212
1409650000 -10.26105 162.37863 -3.5921993 -20.854483 -3.5476515 -20.046509
-3.5959706 -20.883566 -11.493302 113.07973 -5.054255 -41.554478
-3.5614893 -20.000559 -5.0555224 -41.492317 -11.667194 115.04361
1459637500 -10.27711 161.82076 -3.5985782 -21.66609 -3.5512335 -20.731937
-3.6002483 -21.625536 -11.573382 111.00256 -5.1469536 -42.800426
-3.5674336 -20.69194 -5.1491914 -42.723869 -11.766842 112.99567
1509625000 -10.288862 161.18517 -3.5858855 -22.33626 -3.5455375 -21.464798
-3.5954957 -22.301842 -11.639448 108.98615 -5.2290959 -44.018555
-3.553205 -21.377668 -5.2281847 -43.992134 -11.854589 111.04302
1559612500 -10.324804 160.53612 -3.5960839 -23.103573 -3.5500834 -22.220587
-3.6003077 -23.095549 -11.723656 106.78112 -5.312644 -45.238056
-3.5636775 -22.192345 -5.3236194 -45.191631 -11.943221 108.88461
1609600000 -10.318064 159.84821 -3.5894876 -23.824398 -3.5475438 -22.885866
-3.5908115 -23.817003 -11.818494 104.80006 -5.3927603 -46.464886
-3.5602922 -22.863441 -5.4042845 -46.460747 -12.027417 106.88702
1659587500 -10.331047 159.28572 -3.5874219 -24.528011 -3.5510416 -23.575289
-3.5938721 -24.491186 -11.903854 102.67152 -5.482132 -47.715199
-3.5562854 -23.52935 -5.4850249 -47.680519 -12.142133 104.91126
1709575000 -10.377791 158.59299 -3.5990965 -25.269203 -3.5425699 -24.294033
-3.6033802 -25.254444 -12.009238 100.59491 -5.5760398 -48.900471
-3.5611093 -24.246637 -5.5832195 -48.899925 -12.24524 102.82567
1759562500 -10.406231 157.86137 -3.5973592 -25.978115 -3.5435989 -24.969431
-3.6077023 -25.939922 -12.101941 98.516121 -5.6626787 -50.055779
-3.5505874 -24.891548 -5.6630573 -50.022411 -12.346909 100.72029
1809550000 -10.402767 157.29639 -3.603555 -26.69174 -3.5478346 -25.721788
-3.5981169 -26.685453 -12.171608 96.425072 -5.7493925 -51.235531
-3.5555139 -25.668333 -5.7604599 -51.175236 -12.431306 98.619186
1859537500 -10.463531 156.39635 -3.5962999 -27.477922 -3.5446343 -26.411938
-3.5996046 -27.424601 -12.25404 94.310005 -5.8537521 -52.454227
-3.5614021 -26.34466 -5.8580909 -52.374584 -12.541085 96.552338
1909525000 -10.466737 155.62888 -3.607816 -28.213516 -3.5516682 -27.084003
-3.5996737 -28.180004 -12.346091 92.229012 -5.937645 -53.530098
-3.5518386 -27.076403 -5.9440918 -53.524666 -12.628401 94.48262
1959512500 -10.504668 155.10332 -3.6069067 -28.896894 -3.5477002 -27.817631
-3.6051219 -28.856024 -12.422355 90.3871 -6.0382061 -54.68737
-3.5550668 -27.81633 -6.0492916 -54.716759 -12.728186 92.514496
2009500000 -10.529702 154.37766 -3.5970197 -29.630621 -3.5428288 -28.495016
-3.6004519 -29.605015 -12.491631 88.238983 -6.1303487 -55.785789
-3.5499291 -28.412104 -6.1192756 -55.766544 -12.798407 90.586823
2059487500 -10.578994 153.83742 -3.589437 -30.340439 -3.5411906 -29.223886
-3.5953605 -30.350117 -12.562154 86.348549 -6.2246675 -56.892746
-3.5531487 -29.154707 -6.2230964 -56.850773 -12.901538 88.69162
2109475000 -10.608507 152.96214 -3.6001043 -31.091465 -3.5445652 -29.905199
-3.6075592 -31.083214 -12.668346 84.359993 -6.3338842 -58.029732
-3.5472045 -29.885004 -6.323523 -57.984203 -13.000043 86.640427
2159462500 -10.637965 152.3448 -3.5925286 -31.799585 -3.5406034 -30.625353
-3.6035752 -31.799902 -12.728049 82.414047 -6.4168267 -59.061424
-3.5533483 -30.556084 -6.4195833 -59.033524 -13.074643 84.98024
2209450000 -10.657711 151.82895 -3.6027298 -32.528999 -3.533236 -31.329098
-3.5964894 -32.527397 -12.782125 80.901901 -6.5106444 -60.195393
-3.5434287 -31.293257 -6.5150676 -60.143005 -13.161173 83.008728
2259437500 -10.689095 151.01935 -3.5990369 -33.289433 -3.5335834 -31.981958
-3.6034091 -33.264229 -12.901928 78.97361 -6.5980773 -61.23497
-3.5454001 -31.980024 -6.6065154 -61.256989 -13.282681 81.193405
2309425000 -10.728782 150.43307 -3.593709 -34.026173 -3.5291207 -32.757755
-3.5987391 -33.997158 -12.992804 77.019989 -6.6961722 -62.242245
-3.5466349 -32.707634 -6.7016544 -62.285751 -13.405932 79.374138
2359412500 -10.757655 149.7879 -3.6073029 -34.766541 -3.5369046 -33.463173
-3.6034865 -34.742378 -13.03929 75.12458 -6.8027844 -63.244717
-3.545903 -33.465382 -6.8053622 -63.271053 -13.463222 77.29097
2409400000 -10.775454 149.07642 -3.5930271 -35.487537 -3.5349123 -34.218048
-3.5967431 -35.491692 -13.115966 73.393112 -6.897994 -64.398468
-3.5397141 -34.156315 -6.8904896 -64.354729 -13.55727 75.747154
2459387500 -10.809969 148.46582 -3.5938745 -36.217453 -3.5385854 -34.895699
-3.6021652 -36.24437 -13.220839 71.527069 -7.0009413 -65.405891
-3.5420673 -34.875092 -6.9951625 -65.330132 -13.669512 73.748383
2509375000 -10.84434 147.64282 -3.6006641 -36.932182 -3.5404115 -35.545498
-3.603673 -36.913437 -13.287096 69.808426 -7.1060419 -66.334282
-3.5439169 -35.486958 -7.1016421 -66.327232 -13.75846 72.007217
2559362500 -10.878976 147.06763 -3.6014905 -37.715889 -3.5370104 -36.305531
-3.6030467 -37.678635 -13.358365 67.917099 -7.2010322 -67.417473
-3.5484746 -36.19939 -7.204453 -67.339012 -13.857987 70.22522
2609350000 -10.882611 146.23232 -3.6028223 -38.401596 -3.5311873 -36.974258
-3.6089497 -38.403355 -13.420712 66.184906 -7.2969103 -68.454193
-3.5465994 -36.957653 -7.3028159 -68.36171 -13.96365 68.226662
2659337500 -10.884714 145.55066 -3.5978532 -39.141518 -3.5285478 -37.685158
-3.5999074 -39.155594 -13.510116 64.508789 -7.401948 -69.422386
-3.5351543 -37.678421 -7.4000759 -69.447449 -14.050573 66.551056
2709325000 -10.941531 144.82062 -3.6049824 -39.898788 -3.5214705 -38.43391
-3.5995703 -39.855652 -13.579381 62.728432 -7.5027409 -70.414825
-3.5303729 -38.360996 -7.5111675 -70.411591 -14.114335 64.671486
2759312500 -10.958797 144.21516 -3.5998414 -40.561043 -3.5201712 -39.085583
-3.5998578 -40.567501 -13.641827 61.072575 -7.6034646 -71.349922
-3.5234082 -39.028168 -7.6016879 -71.286896 -14.190958 63.054798
2809300000 -11.000423 143.38147 -3.5999415 -41.317432 -3.5183773 -39.814148
-3.6000168 -41.288303 -13.717594 59.29768 -7.7048106 -72.322433
-3.5320086 -39.759514 -7.7123103 -72.272598 -14.295274 61.251293
2859287500 -11.002822 142.61768 -3.5987422 -42.056965 -3.5294955 -40.536148
-3.6070845 -42.046024 -13.77786 57.550526 -7.8151879 -73.294777
-3.5335217 -40.42564 -7.8118582 -73.254791 -14.344483 59.462761
2909275000 -11.027558 141.80701 -3.5991237 -42.779938 -3.5202172 -41.208557
-3.5975382 -42.75074 -13.799873 55.993282 -7.9191709 -74.237564
-3.5166214 -41.148636 -7.9172206 -74.19326 -14.438575 58.006802
2959262500 -11.048793 141.08496 -3.5882244 -43.524765 -3.512872 -41.928959
-3.5943692 -43.492203 -13.871395 54.445107 -8.0185213 -75.196754
-3.5101421 -41.859016 -8.0107098 -75.125755 -14.503405 55.999001
3009250000 -11.093575 140.25694 -3.6004272 -44.198059 -3.5173645 -42.636887
-3.5936232 -44.199444 -13.923219 52.781696 -8.1203709 -76.039276
-3.5341897 -42.553181 -8.1417713 -75.995895 -14.577689 54.660614
3059237500 -11.130691 139.62764 -3.597815 -45.036438 -3.5100138 -43.416317
-3.6003032 -44.980381 -13.992816 51.178982 -8.214612 -77.018211
-3.522737 -43.345299 -8.2242069 -76.924507 -14.694055 52.882217
3109225000 -11.150393 138.7372 -3.5972669 -45.700317 -3.5119493 -44.02742
-3.5973248 -45.673279 -14.03911 49.599403 -8.3242121 -77.904488
-3.5149252 -44.006878 -8.3305759 -77.850349 -14.717497 51.182522
3159212500 -11.187236 137.8844 -3.5980942 -46.487251 -3.500205 -44.79921
-3.5948231 -46.47213 -14.101691 48.30595 -8.4370613 -78.871559
-3.5152979 -44.724243 -8.4488029 -78.810196 -14.818519 49.800865
3209200000 -11.225275 137.23625 -3.5968781 -47.207043 -3.5051265 -45.518623
-3.5928707 -47.209972 -14.174945 46.618259 -8.5379868 -79.715256
-3.513535 -45.484554 -8.541646 -79.634666 -14.884907 47.833138
3259187500 -11.238198 136.31009 -3.5836112 -47.931438 -3.5025809 -46.217503
-3.5870008 -47.880531 -14.217553 45.036652 -8.6557693 -80.570953
-3.4993966 -46.154068 -8.6422405 -80.54995 -14.944776 46.642944
3309175000 -11.251522 135.67934 -3.5936222 -48.628986 -3.5014303 -46.940334
-3.5960033 -48.603291 -14.2844 43.766228 -8.7352962 -81.527161
-3.5063672 -46.80555 -8.74716 -81.429634 -15.090543 44.821217
3359162500 -11.299323 134.85905 -3.5941007 -49.37608 -3.4905317 -47.626762
-3.5975707 -49.392445 -14.340021 42.211441 -8.8655205 -82.328949
-3.5023866 -47.588768 -8.8612432 -82.26506 -15.10456 42.94392
3409150000 -11.301933 133.88182 -3.5837495 -50.130501 -3.4897819 -48.40015
-3.5816605 -50.117813 -14.365695 40.491341 -8.9523516 -83.115662
-3.4873028 -48.321354 -8.9524736 -83.13665 -15.17018 41.504559
3459137500 -11.327761 133.23445 -3.5920031 -50.830086 -3.4910583 -49.069157
-3.5937624 -50.808189 -14.416695 39.24778 -9.0698404 -84.064873
-3.499577 -48.999561 -9.0665903 -84.010986 -15.257096 39.764656
3509125000 -11.373534 132.27657 -3.5888603 -51.596481 -3.4914463 -49.819901
-3.5901248 -51.542068 -14.479281 37.666 -9.1701307 -84.827408
-3.4939966 -49.726948 -9.1737185 -84.825539 -15.279556 38.001831
3559112500 -11.371192 131.43034 -3.5870473 -52.342255 -3.4813764 -50.555855
-3.5866954 -52.273407 -14.52578 36.350986 -9.2861929 -85.706146
-3.4880497 -50.473454 -9.2882042 -85.693077 -15.345686 36.578243
3609100000 -11.431392 130.63011 -3.5959439 -53.075611 -3.4894462 -51.237324
-3.595181 -53.033234 -14.5769 34.737904 -9.3861837 -86.492104
-3.5008509 -51.174522 -9.3947096 -86.480728 -15.413623 34.783619
3659087500 -11.442286 129.72949 -3.5900352 -53.792229 -3.4810288 -52.00967
-3.5944307 -53.764805 -14.592053 33.234955 -9.4973555 -87.4123
-3.4896653 -51.94014 -9.4942751 -87.310326 -15.44482 33.337811
3709075000 -11.484122 128.80873 -3.5900693 -54.540009 -3.4886873 -52.747765
-3.5970671 -54.531364 -14.643517 31.82774 -9.606698 -88.191208
-3.4921093 -52.69854 -9.605381 -88.164467 -15.49264 31.709011
3759062500 -11.504771 128.07321 -3.5903668 -55.284153 -3.4767654 -53.43626
-3.5881779 -55.228241 -14.702322 30.436893 -9.7098217 -88.956055
-3.4905496 -53.371223 -9.7127171 -88.907845 -15.541259 30.149914
3809050000 -11.541309 127.0685 -3.5872273 -56.0042 -3.4789996 -54.158169
-3.5925756 -55.971653 -14.745763 29.081341 -9.8114519 -89.808929
-3.4842858 -54.092232 -9.8137674 -89.731522 -15.579775 28.449522
3859037500 -11.594751 126.16386 -3.5766668 -56.750381 -3.4733248 -54.869843
-3.5861852 -56.727123 -14.765595 27.7439 -9.9198208 -90.497993
-3.4746711 -54.831573 -9.9047089 -90.467613 -15.611328 26.915609
3909025000 -11.608846 125.24532 -3.589658 -57.50074 -3.475394 -55.578323
-3.5903325 -57.445347 -14.823628 26.477644 -10.030052 -91.337723
-3.4867816 -55.521492 -10.036833 -91.305618 -15.676378 25.598572
3959012500 -11.634843 124.49938 -3.5864685 -58.184074 -3.472182 -56.326553
-3.5879893 -58.165207 -14.852471 25.03565 -10.13406 -92.178558
-3.4718478 -56.244396 -10.131842 -92.136467 -15.707489 23.96925
4009000000 -11.694189 123.52534 -3.5828028 -58.944637 -3.4726558 -57.05925
-3.58799 -58.87994 -14.907392 24.037384 -10.25061 -92.760246
-3.4798141 -56.957321 -10.256387 -92.728271 -15.76426 22.869297
4058987500 -11.671316 122.52974 -3.5726142 -59.700916 -3.4642463 -57.787464
-3.587307 -59.695526 -15.118663 23.538229 -10.379618 -92.931961
-3.4744849 -57.765396 -10.375703 -92.932655 -16.001719 22.066298
4108975000 -11.725284 121.69974 -3.5899625 -60.406315 -3.4745376 -58.497696
-3.5818748 -60.378689 -15.17829 21.936083 -10.472967 -93.691444
-3.4783313 -58.471153 -10.492382 -93.648979 -16.019835 20.482088
4158962500 -11.801302 120.94115 -3.5879586 -61.068546 -3.4682956 -59.222542
-3.5889223 -61.08588 -15.25631 20.629768 -10.582458 -94.43219
-3.4758494 -59.144287 -10.593617 -94.309624 -16.133532 18.97625
4208950000 -11.841175 120.03525 -3.5807316 -61.819839 -3.4681859 -59.958508
-3.5819354 -61.806286 -15.306746 19.287348 -10.696224 -95.205498
-3.4710832 -59.862297 -10.677848 -95.10791 -16.164957 17.238434
4258937500 -11.864277 119.37608 -3.5823705 -62.591473 -3.4689045 -60.677952
-3.5827913 -62.569035 -15.371428 18.075201 -10.779123 -95.927078
-3.4767816 -60.601345 -10.785794 -95.819771 -16.224592 15.874938
4308925000 -11.933967 118.51541 -3.5889213 -63.323772 -3.4665985 -61.359249
-3.5921123 -63.284565 -15.44278 16.771843 -10.884965 -96.631767
-3.4735022 -61.288475 -10.887376 -96.641251 -16.291262 14.220513
4358912500 -11.980918 117.59769 -3.5822291 -64.052628 -3.4640217 -62.107197
-3.5852077 -64.036491 -15.473398 15.359711 -10.986408 -97.314941
-3.4726315 -62.105198 -10.98499 -97.333054 -16.272915 12.949687
4408900000 -12.041636 116.89937 -3.5732627 -64.796158 -3.4621911 -62.836281
-3.5824046 -64.761475 -15.535902 14.252761 -11.095577 -98.005371
-3.4795327 -62.752159 -11.084053 -97.941559 -16.364317 11.479877
4458887500 -12.05344 116.00443 -3.5650868 -65.501427 -3.4583526 -63.556885
-3.5737271 -65.489151 -15.605463 13.046696 -11.182341 -98.777733
-3.464844 -63.502003 -11.173046 -98.743401 -16.401028 9.9932117
4508875000 -12.125914 115.1634 -3.5731561 -66.233925 -3.4616621 -64.270027
-3.5801878 -66.188904 -15.682342 11.782804 -11.291215 -99.475998
-3.4670539 -64.217651 -11.284525 -99.4039 -16.45063 8.561409
4558862500 -12.183471 114.34315 -3.5748303 -66.995361 -3.459408 -64.952614
-3.5791667 -66.911346 -15.741502 10.4618 -11.38713 -100.12479
-3.4707506 -64.928406 -11.393568 -100.186 -16.501387 6.9539995
4608850000 -12.216801 113.50752 -3.5741661 -67.657928 -3.457969 -65.692604
-3.5775497 -67.670158 -15.804045 9.2898836 -11.476234 -100.8652
-3.4620786 -65.651421 -11.480176 -100.71497 -16.535946 5.7021594
4658837500 -12.267626 112.69193 -3.5698476 -68.408821 -3.4567168 -66.453194
-3.5697217 -68.389786 -15.884995 8.1106997 -11.595465 -101.52614
-3.4611454 -66.389885 -11.592222 -101.48227 -16.581032 4.438168
4708825000 -12.332032 111.83508 -3.5714684 -69.160873 -3.4600954 -67.158913
-3.5781021 -69.111458 -15.957059 6.5648937 -11.674505 -102.28436
-3.4732492 -67.075493 -11.677376 -102.26447 -16.628538 2.8700776
