! MARKI MICROWAVE INC.
! Email:             	info@markimicrowave.com   				Phone:   408-778-4200
! Model Number:      	PD-0030SM						Date:    07/11
! Filename:		PD-0030SM.S3P						Version: 1.0
! Description:       	3-port S-parameter data for Power Divider PD-0030SM
! Frequency Range: 	10 MHz to 30 GHz		
! Port Configuration:	PORT 1: COMMON, PORT 2 and PORT 3: OUTPUT
! Note:			S-Parameters include Test Fixture

! S3P File: Measurements: Mag<S11> Ang<S11> Mag<S12> Ang<S12> Mag<S13> Ang<S13>! row 1 
!			  Mag<S21> Ang<S21> Mag<S22> Ang<S22> Mag<S23> Ang<S23>! row 2 
!			  Mag<S31> Ang<S31> Mag<S32> Ang<S32> Mag<S33> Ang<S33>! row 3 


# GHz S dB R 50



0.01	-27.6883	94.6305		-5.97347	-0.210303	-5.97243	-0.151891
	-6.05866	0.143465	-27.051		92.113		-5.96194	-0.173623
	-6.02604	0.0807525	-6.04265	0.350583	-27.1114	91.8038
0.16	-42.3877	73.0975		-5.98563	-4.39412	-5.97496	-4.37475
	-5.99329	-4.30391	-37.9928	67.2572		-5.986		-4.01485
	-5.97786	-4.29297	-5.99164	-3.91165	-38.0575	69.8738
0.31	-43.4572	56.9828		-5.98562	-8.52353	-5.97378	-8.50812
	-5.98483	-8.50992	-38.0956	53.2395		-5.98912	-7.7879	
	-5.97095	-8.49393	-5.98653	-7.77973	-38.2467	55.8124
0.46	-41.6922	50.4332		-5.98651	-12.6512	-5.97431	-12.6328
	-5.98763	-12.6437	-36.3325	47.5662		-5.99059	-11.554	
	-5.97358	-12.6236	-5.99055	-11.5507	-36.6045	50.1003
0.61	-40.5507	51.8743		-5.98915	-16.7678	-5.97675	-16.7436
	-5.99084	-16.7527	-35.1024	44.06		-5.99392	-15.3036
	-5.97658	-16.7306	-5.99445	-15.2968	-35.3838	46.7641
0.76	-40.2338	51.9513		-5.9944		-20.8733	-5.98163	-20.8439
	-5.99566	-20.8579	-34.2711	42.4467		-5.99957	-19.0426
	-5.98098	-20.8314	-5.99934	-19.0368	-34.5094	45.253
0.91	-39.7256	49.9193		-6.00133	-24.9738	-5.98868	-24.9385
	-6.00218	-24.9592	-33.6241	40.5568		-6.00678	-22.7753
	-5.9877		-24.9286	-6.00623	-22.7719	-33.887		43.9071
1.06	-39.4925	46.6592		-6.0089		-29.0663	-5.99613	-29.0276
	-6.00964	-29.0552	-33.166		39.116		-6.01442	-26.5027
	-5.99568	-29.0204	-6.01421	-26.4996	-33.4237	43.315
1.21	-39.6689	44.3223		-6.01698	-33.1461	-6.00458	-33.1035
	-6.01786	-33.1326	-32.8659	38.1792		-6.02218	-30.2193
	-6.00397	-33.0929	-6.02206	-30.2116	-33.129		42.9814
1.36	-39.614		42.9133		-6.02449	-37.2138	-6.01252	-37.1683
	-6.02564	-37.194		-32.7329	36.4832		-6.02896	-33.9242
	-6.01234	-37.1494	-6.02905	-33.9114	-33.0218	42.1062
1.51	-39.4556	41.6777		-6.03115	-41.2718	-6.01968	-41.2188
	-6.03311	-41.2478	-32.8462	34.5642		-6.03511	-37.6206
	-6.01999	-41.1987	-6.03549	-37.606		-33.1362	41.3626
1.66	-39.6135	38.1987		-6.03621	-45.3274	-6.02538	-45.2666
	-6.03828	-45.3024	-33.1869	32.5719		-6.03963	-41.3201
	-6.02559	-45.2471	-6.03988	-41.3037	-33.4598	40.7845
1.81	-40.2284	35.0758		-6.03944	-49.3892	-6.0289		-49.322	
	-6.04129	-49.3626	-33.8177	30.7426		-6.04182	-45.0271
	-6.02922	-49.2994	-6.0421		-45.0108	-34.0338	40.695
1.96	-41.027		33.641		-6.04194	-53.4475	-6.03141	-53.3726
	-6.04326	-53.4154	-34.9525	28.6558		-6.04386	-48.735	
	-6.03181	-53.3445	-6.04343	-48.7148	-35.0699	41.5504
2.11	-41.5847	30.6361		-6.04349	-57.5132	-6.03335	-57.4315
	-6.04437	-57.4837	-36.4114	26.0451		-6.04538	-52.454	
	-6.03303	-57.4061	-6.04459	-52.4351	-36.3757	42.9991
2.26	-41.5926	23.123		-6.04439	-61.5898	-6.03463	-61.4967
	-6.04427	-61.57		-38.1342	23.454		-6.04697	-56.1837
	-6.03316	-61.4825	-6.04509	-56.1745	-37.766		45.9907
2.41	-41.6149	13.6112		-6.04508	-65.677		-6.03565	-65.5752
	-6.04529	-65.6631	-40.5981	21.3551		-6.04912	-59.9268
	-6.0351		-65.5676	-6.04818	-59.9245	-39.3849	52.439
2.56	-41.6807	7.05945		-6.04501	-69.7784	-6.03642	-69.666	
	-6.04636	-69.7612	-44.6618	21.1048		-6.05233	-63.6855
	-6.03674	-69.658		-6.05224	-63.6808	-41.0821	64.9198
2.71	-41.9009	2.31457		-6.04601	-73.8902	-6.03769	-73.7655
	-6.04773	-73.8731	-51.8203	50.7072		-6.05692	-67.4511
	-6.03845	-73.7571	-6.05698	-67.4456	-42.0928	85.327
2.86	-41.7546	-3.60746	-6.04878	-78.0116	-6.04087	-77.875	
	-6.05144	-77.9926	-53.0739	116.346		-6.06358	-71.2224
	-6.04266	-77.8645	-6.06474	-71.2134	-41.7363	107.69
3.01	-41.4879	-12.6449	-6.05283	-82.1379	-6.04536	-81.9911
	-6.05667	-82.1168	-47.3121	168.266		-6.07254	-74.9957
	-6.04763	-81.9762	-6.07445	-74.9848	-40.2819	124.526
3.16	-41.6516	-20.6058	-6.05945	-86.27		-6.05217	-86.1093
	-6.06428	-86.2456	-41.6387	174.713		-6.08499	-78.7678
	-6.05561	-86.0914	-6.08761	-78.7577	-38.4147	135.173
3.31	-41.6745	-24.2705	-6.06908	-90.4095	-6.0616		-90.2348
	-6.07481	-90.3805	-38.4555	175.017		-6.10052	-82.5399
	-6.06602	-90.2106	-6.1039		-82.5279	-36.687		141.14
3.46	-41.1578	-24.8188	-6.08038	-94.545		-6.07269	-94.3553
	-6.08733	-94.5106	-36.33		175.078		-6.11764	-86.3	
	-6.078		-94.3242	-6.12225	-86.2826	-35.3522	144.648
3.61	-40.2902	-26.9499	-6.09352	-98.6659	-6.08501	-98.4583
	-6.10127	-98.6252	-34.758		175.585		-6.13628	-90.0409
	-6.09163	-98.4211	-6.14218	-90.0151	-34.3621	147.479
3.76	-39.9674	-28.7395	-6.10871	-102.777	-6.09957	-102.551
	-6.1172		-102.717	-33.4888	176.048		-6.15734	-93.7669
	-6.10663	-102.495	-6.1642		-93.7217	-33.549		150.014
3.91	-39.7319	-24.8527	-6.12494	-106.874	-6.11533	-106.629
	-6.1347		-106.787	-32.433		176.419		-6.17928	-97.4718
	-6.12316	-106.548	-6.18724	-97.3994	-32.8954	152.113
4.06	-38.9709	-19.3882	-6.14178	-110.961	-6.13171	-110.696
	-6.15325	-110.841	-31.54		177.029		-6.20104	-101.159
	-6.14019	-110.585	-6.21012	-101.055	-32.3939	154.176
4.21	-37.8939	-16.5581	-6.15903	-115.034	-6.14686	-114.749
	-6.17089	-114.889	-30.7242	178.099		-6.22175	-104.831
	-6.15644	-114.615	-6.23158	-104.703	-31.9637	156.875
4.36	-37.1188	-14.8469	-6.17637	-119.095	-6.16241	-118.793
	-6.18867	-118.933	-29.9449	178.978		-6.24235	-108.491
	-6.17254	-118.642	-6.25274	-108.343	-31.5232	159.611
4.51	-36.317		-10.8643	-6.19357	-123.149	-6.17768	-122.831
	-6.20556	-122.959	-29.2142	178.973		-6.26221	-112.14	
	-6.18739	-122.65		-6.27178	-111.963	-31.0634	161.404
4.66	-35.1868	-6.42328	-6.20987	-127.195	-6.19131	-126.858
	-6.21887	-126.981	-28.5966	178.589		-6.28031	-115.779
	-6.19817	-126.655	-6.28685	-115.579	-30.6801	162.502
4.81	-33.8949	-4.04015	-6.22497	-131.234	-6.20356	-130.882
	-6.23034	-131.017	-28.0749	178.014		-6.2964		-119.411
	-6.20672	-130.676	-6.29966	-119.21		-30.3695	163.17
4.96	-32.7932	-2.59487	-6.23953	-135.271	-6.21488	-134.908
	-6.2425		-135.065	-27.6334	176.581		-6.31136	-123.045
	-6.21601	-134.713	-6.31308	-122.855	-30.0784	162.644
5.11	-31.8324	-0.630807	-6.2513		-139.305	-6.22334	-138.933
	-6.25357	-139.11		-27.3306	174.31		-6.32387	-126.678
	-6.2239		-138.746	-6.32457	-126.499	-29.9122	160.919
5.26	-30.8492	1.3893		-6.26195	-143.344	-6.23028	-142.962
	-6.26326	-143.151	-27.1778	171.401		-6.33468	-130.311
	-6.23007	-142.778	-6.33441	-130.139	-29.9162	158.159
5.41	-29.8333	3.11971		-6.27225	-147.388	-6.23683	-147	
	-6.27266	-147.205	-27.0976	167.909		-6.34508	-133.953
	-6.2362		-146.825	-6.34419	-133.79		-30.0054	154.473
5.56	-28.9567	4.43774		-6.28206	-151.437	-6.24346	-151.043
	-6.28251	-151.267	-27.0999	163.637		-6.35565	-137.599
	-6.24263	-150.883	-6.35486	-137.449	-30.1849	149.559
5.71	-28.2752	5.7177		-6.29172	-155.491	-6.2495		-155.095
	-6.29241	-155.328	-27.2347	158.454		-6.36609	-141.248
	-6.24879	-154.943	-6.36574	-141.106	-30.5187	143.083
5.86	-27.6812	7.5775		-6.3023		-159.555	-6.25616	-159.159
	-6.30291	-159.399	-27.536		152.603		-6.37742	-144.9	
	-6.25517	-159.015	-6.3768		-144.768	-31.0467	134.972
6.01	-27.1041	9.73044		-6.31409	-163.624	-6.26405	-163.232
	-6.31465	-163.478	-27.9357	145.793		-6.38991	-148.557
	-6.26326	-163.097	-6.38891	-148.433	-31.627		124.888
6.16	-26.5717	11.5097		-6.3275		-167.697	-6.27361	-167.31	
	-6.32738	-167.56		-28.3376	137.475		-6.40365	-152.214
	-6.27251	-167.182	-6.40226	-152.097	-32.0361	112.431
6.31	-26.1801	13.444		-6.34146	-171.775	-6.28398	-171.397
	-6.34058	-171.648	-28.7259	127.075		-6.41764	-155.869
	-6.2823		-171.278	-6.41563	-155.765	-32.1403	97.3404
6.46	-25.8763	16.3481		-6.3574		-175.849	-6.29647	-175.482
	-6.35633	-175.734	-29.0365	114.958		-6.43287	-159.516
	-6.29415	-175.376	-6.43064	-159.427	-31.8539	80.963
6.61	-25.5167	19.9618		-6.37562	-179.921	-6.31119	-179.567
	-6.37431	-179.819	-29.1145	101.497		-6.44933	-163.158
	-6.3087		-179.474	-6.44724	-163.081	-31.0897	65.1628
6.76	-25.1142	23.2577		-6.39561	176.014		-6.32817	176.354	
	-6.39602	176.107		-28.8348	87.1685		-6.46697	-166.788
	-6.32767	176.436		-6.46666	-166.722	-29.8922	51.2957
6.91	-24.7831	26.56		-6.41657	171.96		-6.34695	172.284	
	-6.41999	172.053		-28.133		73.0091		-6.48454	-170.404
	-6.34911	172.365		-6.48676	-170.341	-28.4681	39.9282
7.06	-24.4646	30.7367		-6.43917	167.908		-6.36708	168.214	
	-6.44397	168.011		-27.188		59.8286		-6.50227	-174.018
	-6.37055	168.305		-6.5059		-173.944	-27.0435	30.3629
7.21	-23.9974	35.5008		-6.46234	163.869		-6.38811	164.154	
	-6.46713	163.977		-26.0849	48.5507		-6.51929	-177.62	
	-6.39153	164.249		-6.52316	-177.535	-25.7167	22.6864
7.36	-23.4526	39.5118		-6.48572	159.84		-6.40972	160.106	
	-6.49113	159.96		-24.912		39.023		-6.53511	178.795	
	-6.41353	160.211		-6.53927	178.89		-24.4957	16.345
7.51	-22.9768	42.9645		-6.50954	155.832		-6.43228	156.076	
	-6.5142		155.955		-23.7728	30.9151		-6.54946	175.224	
	-6.43531	156.187		-6.55304	175.32		-23.3679	10.7212
7.66	-22.5083	46.7541		-6.53346	151.831		-6.45507	152.054	
	-6.53705	151.945		-22.7646	23.7992		-6.56242	171.656	
	-6.45764	152.154		-6.5649		171.742		-22.3776	5.62115
7.81	-21.9273	50.4454		-6.55674	147.839		-6.4777		148.042	
	-6.56023	147.95		-21.8708	17.2402		-6.57365	168.09	
	-6.48018	148.134		-6.57631	168.174		-21.5295	0.871394
7.96	-21.3091	53.2581		-6.57956	143.858		-6.49968	144.039	
	-6.58293	143.974		-21.0651	11.23		-6.583		164.527	
	-6.50236	144.138		-6.58552	164.617		-20.8039	-3.66582
8.11	-20.79		55.5633		-6.60215	139.89		-6.52199	140.049	
	-6.60587	140.002		-20.3352	5.52876		-6.5907		160.967	
	-6.52506	140.145		-6.59353	161.052		-20.1559	-8.19888
8.26	-20.3015	58.0391		-6.6241		135.943		-6.54424	136.081	
	-6.6282		136.052		-19.7089	-0.0822973	-6.59728	157.419	
	-6.54734	136.173		-6.60062	157.5		-19.5981	-12.8208
8.41	-19.7714	60.4383		-6.64462	131.997		-6.56543	132.114	
	-6.64779	132.102		-19.1999	-5.53125	-6.60196	153.868	
	-6.56759	132.201		-6.60443	153.944		-19.1569	-17.4999
8.56	-19.2536	62.34		-6.66326	128.057		-6.58492	128.153	
	-6.66596	128.16		-18.7855	-10.9731	-6.60407	150.318	
	-6.58661	128.241		-6.60598	150.392		-18.8014	-22.3219
8.71	-18.8316	63.9615		-6.68081	124.134		-6.60349	124.211	
	-6.68296	124.234		-18.4421	-16.5252	-6.60428	146.772	
	-6.60515	124.295		-6.60604	146.841		-18.5042	-27.3018
8.86	-18.4719	65.6069		-6.69705	120.214		-6.62109	120.274	
	-6.69899	120.306		-18.1871	-22.3342	-6.60282	143.217	
	-6.62247	120.349		-6.60433	143.276		-18.2905	-32.555
9.01	-18.1275	67.306		-6.71175	116.298		-6.63724	116.341	
	-6.71397	116.374		-18.016		-28.4058	-6.5996		139.655	
	-6.63894	116.402		-6.60107	139.699		-18.1612	-38.1583
9.16	-17.7864	68.8374		-6.72406	112.381		-6.6516		112.41	
	-6.72719	112.446		-17.9048	-34.6932	-6.59445	136.088	
	-6.65441	112.458		-6.59649	136.119		-18.0915	-44.1237
9.31	-17.4807	70.2408		-6.73386	108.474		-6.66413	108.488	
	-6.73838	108.529		-17.8425	-41.4175	-6.5866		132.516	
	-6.66778	108.525		-6.59017	132.542		-18.0632	-50.5969
9.46	-17.2378	71.7428		-6.74193	104.576		-6.67498	104.564	
	-6.74913	104.607		-17.832		-48.6858	-6.57653	128.928	
	-6.68101	104.589		-6.58328	128.941		-18.0783	-57.636
9.61	-17.0304	73.4567		-6.74807	100.667		-6.68415	100.633	
	-6.75898	100.679		-17.8641	-56.4624	-6.5649		125.323	
	-6.69398	100.655		-6.57541	125.328		-18.1288	-65.2222
9.76	-16.8097	75.166		-6.75141	96.7411		-6.6907		96.6997	
	-6.76602	96.758		-17.8977	-64.7416	-6.55195	121.7	
	-6.70499	96.7302		-6.56571	121.715		-18.1734	-73.4025
9.91	-16.5968	76.6681		-6.75287	92.8101		-6.69484	92.7655	
	-6.76994	92.8391		-17.9048	-73.6236	-6.53735	118.061	
	-6.71204	92.805		-6.55356	118.086		-18.1774	-82.2392
10.06	-16.4366	78.1486		-6.75268	88.8702		-6.69776	88.825	
	-6.77262	88.9105		-17.878		-83.1075	-6.52215	114.396	
	-6.71764	88.875		-6.54141	114.434		-18.133		-91.6456
10.21	-16.2988	79.8763		-6.74999	84.9103		-6.69958	84.8717	
	-6.77332	84.9655		-17.8089	-92.9243	-6.50689	110.704	
	-6.72167	84.9402		-6.52966	110.761		-18.0385	-101.318
10.36	-16.1403	81.6764		-6.74586	80.9365		-6.6992		80.9072	
	-6.77169	81.0079		-17.6702	-102.902	-6.49232	106.991	
	-6.72372	80.997		-6.5181		107.066		-17.873		-111.119
10.51	-15.9838	83.1637		-6.74184	76.9464		-6.69819	76.9342	
	-6.77027	77.0481		-17.444		-112.969	-6.47995	103.258	
	-6.72567	77.0488		-6.50899	103.359		-17.6165	-120.953
10.66	-15.8799	84.5068		-6.73795	72.9352		-6.69705	72.9422	
	-6.76796	73.0779		-17.1653	-122.996	-6.47044	99.5028	
	-6.72655	73.0944		-6.50123	99.6399		-17.3025	-130.713
10.81	-15.7974	86.0576		-6.73509	68.9027		-6.69632	68.9307	
	-6.76464	69.0901		-16.843		-132.724	-6.46407	95.7299	
	-6.72561	69.1301		-6.494		95.9145		-16.9556	-140.127
10.96	-15.6757	87.6042		-6.73309	64.855		-6.69598	64.9103	
	-6.76044	65.0796		-16.4896	-141.942	-6.46058	91.9555	
	-6.72326	65.1484		-6.48803	92.1821		-16.5962	-149.043
11.11	-15.5501	88.8624		-6.73233	60.8035		-6.69562	60.8864	
	-6.75466	61.0584		-16.1102	-150.764	-6.46001	88.1861	
	-6.71847	61.1569		-6.48293	88.4427		-16.2266	-157.63
11.26	-15.4713	89.9273		-6.73486	56.7441		-6.69815	56.8555	
	-6.75067	57.0272		-15.7303	-159.202	-6.46376	84.4129	
	-6.71466	57.1537		-6.48067	84.6936		-15.861		-165.921
11.41	-15.4248	91.0722		-6.73967	52.676		-6.70237	52.8149	
	-6.74994	52.9652		-15.3876	-167.24		-6.47069	80.6406	
	-6.71344	53.121		-6.48181	80.9288		-15.5289	-173.934
11.56	-15.3625	92.1638		-6.74687	48.6033		-6.70856	48.7731	
	-6.75285	48.8927		-15.0934	-174.886	-6.47998	76.8822	
	-6.71474	49.0824		-6.48582	77.1757		-15.2424	178.338
11.71	-15.2745	93.0088		-6.75652	44.5385		-6.71629	44.738	
	-6.75861	44.8281		-14.8329	177.768		-6.49082	73.1445	
	-6.71781	45.0496		-6.4926		73.4406		-14.99		170.869
11.86	-15.2157	93.6655		-6.76919	40.4887		-6.72647	40.7147	
	-6.76923	40.7672		-14.5973	170.528		-6.50424	69.4243	
	-6.72537	41.0126		-6.50429	69.7112		-14.7616	163.484
12.01	-15.1984	94.3378		-6.78527	36.4424		-6.739		36.6947	
	-6.7856		36.7064		-14.4035	163.381		-6.51989	65.7183	
	-6.73867	36.9755		-6.52069	65.9882		-14.5669	156.147
12.16	-15.1735	95.0684		-6.80202	32.4021		-6.75127	32.6812	
	-6.80516	32.6546		-14.265		156.353		-6.53439	62.0292	
	-6.75391	32.9509		-6.53795	62.2845		-14.4207	148.879
12.31	-15.1211	95.7105		-6.81912	28.3774		-6.76315	28.68	
	-6.82648	28.6367		-14.1536	149.441		-6.54689	58.3554	
	-6.77017	28.958		-6.55418	58.6145		-14.3041	141.737
12.46	-15.0864	96.1187		-6.83788	24.3765		-6.77589	24.6971	
	-6.84911	24.6754		-14.0505	142.457		-6.55839	54.6997	
	-6.78673	25.0146		-6.56944	54.9991		-14.1963	134.502
12.61	-15.0776	96.3957		-6.85741	20.3962		-6.78866	20.7295	
	-6.87275	20.7458		-13.9589	135.323		-6.5688		51.053	
	-6.80355	21.0971		-6.58395	51.4083		-14.0989	127.061
12.76	-15.0683	96.7486		-6.87591	16.4253		-6.79978	16.7635	
	-6.89396	16.8182		-13.884		128.147		-6.57605	47.4042	
	-6.81779	17.1752		-6.59371	47.8037		-14.0199	119.548
12.91	-15.0324	97.1387		-6.89278	12.4698		-6.80909	12.8064	
	-6.91092	12.9004		-13.8219	120.864		-6.5807		43.7575	
	-6.82848	13.2549		-6.59894	44.1902		-13.9488	111.887
13.06	-14.9844	97.2971		-6.90811	8.53046		-6.81737	8.85883	
	-6.92557	8.99845		-13.7452	113.344		-6.58342	40.0997	
	-6.8356		9.34123		-6.60144	40.5691		-13.8521	103.966
13.21	-14.9594	97.2331		-6.92144	4.59833		-6.82353	4.91069	
	-6.93657	5.10631		-13.6382	105.487		-6.58406	36.4263	
	-6.83848	5.44114		-6.60008	36.9439		-13.7151	95.7554
13.36	-14.9526	97.26		-6.93249	0.661433	-6.82789	0.952771
	-6.94406	1.20152		-13.5085	97.388		-6.58323	32.7287	
	-6.83882	1.52063		-6.59432	33.2834		-13.5499	87.3462
13.51	-14.9135	97.3831		-6.94159	-3.27434	-6.82982	-3.00883
	-6.94815	-2.72768	-13.3486	89.2704		-6.58147	29.0143	
	-6.83578	-2.44106	-6.58717	29.575		-13.3491	78.9633
13.66	-14.8409	97.2712		-6.94834	-7.20691	-6.82983	-6.97173
	-6.94927	-6.66276	-13.1521	81.1782		-6.58048	25.2832	
	-6.82971	-6.41232	-6.58164	25.8422		-13.1098	70.6694
13.81	-14.7989	96.8953		-6.95323	-11.1432	-6.82876	-10.9464
	-6.94801	-10.6172	-12.922		73.0605		-6.58084	21.5282	
	-6.82317	-10.4021	-6.57614	22.0725		-12.8339	62.3967
13.96	-14.7916	96.5758		-6.95695	-15.0906	-6.82784	-14.9365
	-6.94852	-14.5857	-12.6673	64.9931		-6.58382	17.752	
	-6.8189		-14.4109	-6.57566	18.278		-12.5323	54.2562
14.11	-14.7589	96.445		-6.95963	-19.0527	-6.82651	-18.9403
	-6.94913	-18.5703	-12.4052	57.1703		-6.58929	13.9646	
	-6.81472	-18.4369	-6.57808	14.4673		-12.2322	46.4359
14.26	-14.6819	96.1668		-6.96249	-23.0234	-6.82461	-22.952	
	-6.94691	-22.556		-12.1381	49.6665		-6.59821	10.1752	
	-6.80916	-22.4655	-6.58274	10.6649		-11.943		38.9398
14.41	-14.6404	95.5866		-6.96526	-26.9965	-6.82392	-26.9739
	-6.94625	-26.5612	-11.8638	42.3718		-6.61145	6.38387	
	-6.80521	-26.519		-6.59243	6.84627		-11.6478	31.6698
14.56	-14.6443	95.0696		-6.96848	-30.97		-6.82449	-30.9975
	-6.94798	-30.581		-11.607		35.362		-6.62731	2.60176	
	-6.8038		-30.5849	-6.60648	3.02015		-11.3758	24.7028
14.71	-14.6325	94.763		-6.97178	-34.9473	-6.82537	-35.0247
	-6.95206	-34.5937	-11.3842	28.6562		-6.64486	-1.16276
	-6.80542	-34.6523	-6.62446	-0.785913	-11.1461	18.0521
14.86	-14.5747	94.422		-6.9754		-38.924		-6.8273		-39.0571
	-6.95682	-38.5923	-11.1962	22.1743		-6.66454	-4.91257
	-6.8078		-38.7113	-6.64479	-4.55875	-10.9586	11.6411
15.01	-14.5361	93.8713		-6.97956	-42.9054	-6.83026	-43.097	
	-6.96138	-42.5774	-11.0355	15.8704		-6.68592	-8.65115
	-6.81045	-42.7462	-6.66614	-8.29407	-10.808		5.38698
15.16	-14.5521	93.3869		-6.98406	-46.8873	-6.83385	-47.136	
	-6.96573	-46.5648	-10.9139	9.69847		-6.7075		-12.3682
	-6.81424	-46.7824	-6.6881		-12.018		-10.6988	-0.803385
15.31	-14.5599	93.3184		-6.98864	-50.8617	-6.83805	-51.1707
	-6.96894	-50.5549	-10.8389	3.66968		-6.72763	-16.0628
	-6.81759	-50.8315	-6.70735	-15.7266	-10.6368	-6.88529
15.46	-14.5265	93.4407		-6.99254	-54.8331	-6.84229	-55.2029
	-6.97249	-54.5258	-10.805		-2.39336	-6.74691	-19.7416
	-6.8211		-54.8707	-6.72651	-19.4047	-10.617		-13.0103
15.61	-14.4962	93.4267		-6.99553	-58.8074	-6.84692	-59.2428
	-6.97619	-58.4881	-10.814		-8.56839	-6.7648		-23.4178
	-6.82726	-58.8967	-6.74501	-23.0702	-10.6375	-19.2706
15.76	-14.5048	93.5019		-6.9981		-62.782		-6.85165	-63.284	
	-6.98015	-62.4513	-10.8564	-14.859		-6.77968	-27.086	
	-6.83499	-62.9275	-6.76243	-26.7307	-10.6907	-25.6413
15.91	-14.5225	94.0381		-7.00101	-66.7553	-6.85788	-67.3212
	-6.98626	-66.4051	-10.9349	-21.3215	-6.79382	-30.7498
	-6.84258	-66.9494	-6.7794		-30.3819	-10.7791	-32.2048
16.06	-14.5012	94.8494		-7.00343	-70.7271	-6.86416	-71.3605
	-6.99023	-70.3496	-11.0442	-28.002		-6.80542	-34.4165
	-6.84897	-70.9569	-6.79194	-34.0276	-10.8898	-39.0169
16.21	-14.463		95.6307		-7.005		-74.6943	-6.87066	-75.3997
	-6.99328	-74.3046	-11.1722	-35.0364	-6.81546	-38.0854
	-6.85782	-74.9737	-6.80355	-37.6796	-11.0084	-46.1621
16.36	-14.4525	96.372		-7.00548	-78.6593	-6.87887	-79.4392
	-6.99448	-78.2791	-11.316		-42.5194	-6.82475	-41.7703
	-6.86709	-79.0229	-6.81298	-41.3683	-11.1308	-53.7387
16.51	-14.463		97.2808		-7.00498	-82.63		-6.88802	-83.4752
	-6.99368	-82.2722	-11.4655	-50.4184	-6.83295	-45.4735
	-6.87496	-83.084		-6.82039	-45.0925	-11.2434	-61.6928
16.66	-14.4439	98.4146		-7.0041		-86.6089	-6.89901	-87.5133
	-6.9935		-86.2736	-11.5954	-58.7405	-6.84173	-49.1854
	-6.88598	-87.1351	-6.82984	-48.8255	-11.3224	-69.9691
16.81	-14.3984	99.5468		-7.00283	-90.5911	-6.91064	-91.5404
	-6.99319	-90.2642	-11.6904	-67.5135	-6.85135	-52.9035
	-6.89841	-91.1644	-6.84047	-52.5506	-11.3573	-78.5319
16.96	-14.3635	100.536		-7.00263	-94.5695	-6.92356	-95.5485
	-6.9923		-94.246		-11.7372	-76.7089	-6.86335	-56.6266
	-6.91218	-95.1741	-6.85207	-56.2802	-11.3384	-87.347
17.11	-14.3554	101.587		-7.00352	-98.5494	-6.93779	-99.5468
	-6.99385	-98.2233	-11.7314	-86.125		-6.87693	-60.3636
	-6.92811	-99.1718	-6.86685	-60.0164	-11.2722	-96.2625
