! MARKI MICROWAVE INC.
! Email:             	info@markimicrowave.com   				Phone:   408-778-4200
! Model Number:      	PD-0030						Date:    10/12
! Filename:		PD_0030.S3P						Version: 1.0
! Description:       	3-port S-parameter data for Power Divider PD-0030
! Frequency Range: 	10 MHz to 30 GHz		
! Port Configuration:	PORT 1: Common, PORT 2 and Port 3: Output


! S3P File: Measurements: Mag<S11> Ang<S11> Mag<S12> Ang<S12> Mag<S13> Ang<S13> ! row 1 
!			  Mag<S21> Ang<S21> Mag<S22> Ang<S22> Mag<S23> Ang<S23> ! row 2 
!			  Mag<S31> Ang<S31> Mag<S32> Ang<S32> Mag<S33> Ang<S33> ! row 3 
			  
# GHz S DB R 50
0.01	-50.3168	56.0075		-6.00676	-0.242976	-6.70681	-0.290962	
	-6.03051	-0.303261	-49.5225	90.6894		-6.03051	-0.303261	
	-6.72441	-0.228759	-6.00676	-0.242976	-34.0851	6.76248
0.16	-42.0352	61.4427		-6.0437		-3.37569	-6.31612	-1.7974		
	-6.05062	-3.39194	-39.1985	69.9203		-6.05062	-3.39194	
	-6.32106	-1.81622	-6.0437		-3.37569	-39.058		23.5361
0.31	-38.1934	67.14		-6.0491		-6.50412	-6.12181	-5.15594	
	-6.05492	-6.53128	-34.051		66.5842		-6.05492	-6.53128	
	-6.12543	-5.19715	-6.0491		-6.50412	-37.6485	59.4951
0.46	-36.1045	74.0846		-6.05261	-9.64469	-6.07321	-8.79015	
	-6.05691	-9.68244	-31.7216	67.7359		-6.05691	-9.68244	
	-6.07505	-8.83002	-6.05261	-9.64469	-33.3181	72.5193
0.61	-34.7364	78.2772		-6.05706	-12.7855	-6.0598		-12.265		
	-6.06085	-12.8251	-30.5072	68.9004		-6.06085	-12.8251	
	-6.06158	-12.3085	-6.05706	-12.7855	-31.2759	72.8483
0.76	-34.0225	81.715		-6.06097	-15.9195	-6.06227	-15.6885	
	-6.06459	-15.9593	-29.9573	69.9673		-6.06459	-15.9593	
	-6.0642		-15.7323	-6.06097	-15.9195	-30.5434	71.7037
0.91	-34.0049	86.6481		-6.06352	-19.0547	-6.08107	-19.077		
	-6.06702	-19.0945	-29.8409	71.1187		-6.06702	-19.0945	
	-6.08269	-19.1192	-6.06352	-19.0547	-30.6842	71.5299
1.06	-34.3202	94.447		-6.06634	-22.1978	-6.11638	-22.4104	
	-6.06919	-22.2347	-30.1494	72.0786		-6.06919	-22.2347	
	-6.1176		-22.4505	-6.06634	-22.1978	-31.4905	73.8147
1.21	-35.0253	103.611		-6.06877	-25.3392	-6.17058	-25.6276	
	-6.07192	-25.3781	-30.8971	72.4508		-6.07192	-25.3781	
	-6.17185	-25.6687	-6.06877	-25.3392	-32.5575	79.5968
1.36	-35.996		116.694		-6.07338	-28.4868	-6.23644	-28.6003	
	-6.07656	-28.5309	-32.1832	71.7866		-6.07656	-28.5309	
	-6.23706	-28.6465	-6.07338	-28.4868	-33.3377	85.864
1.51	-36.6789	131.089		-6.08033	-31.6377	-6.27419	-31.299			
	-6.08355	-31.6821	-34.1524	68.3376		-6.08355	-31.6821	
	-6.27465	-31.3519	-6.08033	-31.6377	-34.1327	84.5215
1.66	-37.094		145.893		-6.08897	-34.7903	-6.26208	-33.9944	
	-6.09184	-34.8346	-36.8672	58.4183		-6.09184	-34.8346	
	-6.26266	-34.0438	-6.08897	-34.7903	-35.9623	69.4605
1.81	-37.2053	160.317		-6.0994		-37.9333	-6.2247		-36.9019		
	-6.10159	-37.9774	-39.6117	34.9905		-6.10159	-37.9774	
	-6.22549	-36.9477	-6.0994		-37.9333	-38.3873	36.4106
1.96	-37.3697	171.881		-6.11122	-41.0624	-6.19257	-39.9837	
	-6.11326	-41.1067	-39.874		-0.214799	-6.11326	-41.1067	
	-6.19365	-40.0292	-6.11122	-41.0624	-38.3479	-6.95989
2.11	-37.8867	-178.699	-6.12364	-44.1776	-6.17344	-43.1432	
	-6.12626	-44.2228	-37.4909	-29.9042	-6.12626	-44.2228	
	-6.17473	-43.188		-6.12364	-44.1776	-35.6917	-40.2987
2.26	-38.8411	-170.469	-6.13622	-47.2805	-6.16508	-46.3147	
	-6.13931	-47.3284	-34.6143	-44.5411	-6.13931	-47.3284	
	-6.16642	-46.3575	-6.13622	-47.2805	-32.9287	-56.004
2.41	-40.5987	-163.965	-6.14918	-50.3677	-6.16331	-49.4716	
	-6.15256	-50.4179	-32.2995	-51.6672	-6.15256	-50.4179	
	-6.16484	-49.5175	-6.14918	-50.3677	-30.9251	-63.7713
2.56	-43.8903	-159.989	-6.16132	-53.4399	-6.16534	-52.609		
	-6.165		-53.4933	-30.5522	-55.7535	-6.165		-53.4933	
	-6.16636	-52.6572	-6.16132	-53.4399	-29.5231	-68.2187
2.71	-50.133		-173.604	-6.17189	-56.499		-6.16855	-55.7245	
	-6.1759		-56.5535	-29.2842	-58.9898	-6.1759		-56.5535	
	-6.16997	-55.7732	-6.17189	-56.499		-28.5649	-71.5303
2.86	-53.1121	128.955		-6.18089	-59.5466	-6.17175	-58.8232	
	-6.18501	-59.6024	-28.4017	-62.3666	-6.18501	-59.6024	
	-6.17365	-58.8741	-6.18089	-59.5466	-27.9417	-74.7564
3.01	-48.9308	74.9042		-6.18821	-62.5819	-6.17428	-61.907		
	-6.19195	-62.6439	-27.8483	-66.5162	-6.19195	-62.6439	
	-6.176		-61.9643	-6.18821	-62.5819	-27.5819	-78.6235
3.16	-42.3092	65.6198		-6.19358	-65.614		-6.17628	-64.983		
	-6.19724	-65.6825	-27.5844	-72.051		-6.19724	-65.6825	
	-6.17718	-65.0442	-6.19358	-65.614		-27.4257	-83.7784
3.31	-38.5834	70.5368		-6.19588	-68.6575	-6.17645	-68.0645	
	-6.1999		-68.7216	-27.5343	-79.7598	-6.1999		-68.7216	
	-6.17702	-68.1215	-6.19588	-68.6575	-27.3881	-91.0012
3.46	-35.8808	77.4939		-6.19605	-71.7031	-6.17472	-71.1432	
	-6.1995		-71.7607	-27.5557	-90.2961	-6.1995		-71.7607	
	-6.17611	-71.2009	-6.19605	-71.7031	-27.3263	-100.793
3.61	-33.7696	85.2295		-6.19492	-74.7532	-6.17211	-74.228		
	-6.19718	-74.81		-27.4328	-103.696	-6.19718	-74.81		
	-6.17342	-74.2856	-6.19492	-74.7532	-27.0509	-112.944
3.76	-31.9289	93.4712		-6.19158	-77.8138	-6.16816	-77.3213	
	-6.19399	-77.8723	-26.9155	-118.944	-6.19399	-77.8723	
	-6.16932	-77.3768	-6.19158	-77.8138	-26.3903	-126.37
3.91	-30.2397	101.565		-6.18772	-80.8855	-6.16491	-80.4221	
	-6.19015	-80.9485	-25.9241	-134.134	-6.19015	-80.9485	
	-6.16573	-80.4792	-6.18772	-80.8855	-25.3321	-139.432
4.06	-28.7144	108.849		-6.18326	-83.9724	-6.16172	-83.5328	
	-6.18647	-84.0352	-24.5964	-147.473	-6.18647	-84.0352	
	-6.16296	-83.5901	-6.18326	-83.9724	-24.0191	-150.84
4.21	-27.3534	115.198		-6.18022	-87.0705	-6.15965	-86.6531	
	-6.18375	-87.13		-23.1503	-158.222	-6.18375	-87.13		
	-6.16068	-86.7105	-6.18022	-87.0705	-22.6331	-160.126
4.36	-26.109		120.654		-6.17824	-90.1739	-6.15943	-89.7759		
	-6.18208	-90.2321	-21.7617	-166.657	-6.18208	-90.2321	
	-6.15997	-89.8344	-6.17824	-90.1739	-21.31		-167.541
4.51	-25.0158	125.126		-6.17648	-93.2726	-6.1598		-92.8907	
	-6.18102	-93.3279	-20.5213	-173.327	-6.18102	-93.3279	
	-6.16155	-92.944		-6.17648	-93.2726	-20.1215	-173.491
4.66	-24.0783	128.924		-6.17657	-96.3733	-6.16178	-96.0022	
	-6.18084	-96.421		-19.4794	-178.702	-6.18084	-96.421		
	-6.16454	-96.0489	-6.17657	-96.3733	-19.1136	-178.378
4.81	-23.3231	132.066		-6.17782	-99.4679	-6.16505	-99.1066	
	-6.18092	-99.5106	-18.6426	176.806		-6.18092	-99.5106	
	-6.16629	-99.1493	-6.17782	-99.4679	-18.2959	177.46
4.96	-22.7299	134.782		-6.17775	-102.556	-6.16687	-102.201	
	-6.18048	-102.603	-18.0043	172.856		-6.18048	-102.603	
	-6.16752	-102.244	-6.17775	-102.556	-17.6649	173.749
5.11	-22.3054	137.066		-6.17644	-105.643	-6.16755	-105.29		
	-6.17881	-105.694	-17.552		169.23		-6.17881	-105.694	
	-6.1685		-105.337	-6.17644	-105.643	-17.2093	170.302
5.26	-22.0283	139.083		-6.17403	-108.726	-6.16767	-108.375	
	-6.17624	-108.785	-17.2736	165.74		-6.17624	-108.785	
	-6.16813	-108.427	-6.17403	-108.726	-16.9208	166.941
5.41	-21.884		140.94		-6.17128	-111.813	-6.16754	-111.461	
	-6.17284	-111.879	-17.1577	162.186		-6.17284	-111.879	
	-6.16703	-111.513	-6.17128	-111.813	-16.7886	163.502
5.56	-21.8673	142.719		-6.16769	-114.912	-6.16561	-114.551	
	-6.16826	-114.979	-17.1901	158.436		-6.16826	-114.979	
	-6.16456	-114.607	-6.16769	-114.912	-16.7996	159.891
5.71	-21.9603	144.38		-6.16252	-118.02		-6.16219	-117.65		
	-6.16358	-118.088	-17.3544	154.345		-6.16358	-118.088	
	-6.16188	-117.706	-6.16252	-118.02		-16.9407	155.976
5.86	-22.1393	145.964		-6.15764	-121.132	-6.15874	-120.754	
	-6.15908	-121.202	-17.634		149.717		-6.15908	-121.202	
	-6.15885	-120.811	-6.15764	-121.132	-17.1947	151.565
6.01	-22.3731	147.4		-6.15399	-124.255	-6.15645	-123.862	
	-6.15511	-124.326	-18.005		144.36		-6.15511	-124.326	
	-6.15603	-123.922	-6.15399	-124.255	-17.5422	146.507
6.16	-22.6375	148.69		-6.1498		-127.386	-6.15381	-126.979	
	-6.15131	-127.461	-18.4253	138.13		-6.15131	-127.461	
	-6.1532		-127.042	-6.1498		-127.386	-17.9437	140.675
6.31	-22.8961	149.792		-6.14586	-130.527	-6.15104	-130.102	
	-6.14833	-130.602	-18.8485	130.927		-6.14833	-130.602	
	-6.15144	-130.169	-6.14586	-130.527	-18.3601	133.953
6.46	-23.1276	150.539		-6.14385	-133.668	-6.14925	-133.228		
	-6.14711	-133.741	-19.2106	122.816		-6.14711	-133.741	
	-6.15033	-133.294	-6.14385	-133.668	-18.7346	126.374
6.61	-23.2987	150.982		-6.14329	-136.807	-6.14858	-136.352	
	-6.14647	-136.878	-19.4608	113.966		-6.14647	-136.878	
	-6.14967	-136.415	-6.14329	-136.807	-19.0196	118.053
6.76	-23.3806	151.052		-6.14466	-139.942	-6.14988	-139.47		
	-6.14672	-140.014	-19.5657	104.782		-6.14672	-140.014	
	-6.14984	-139.534	-6.14466	-139.942	-19.1765	109.327
6.91	-23.3585	150.852		-6.14684	-143.068	-6.15182	-142.58		
	-6.14743	-143.145	-19.5237	95.7366		-6.14743	-143.145	
	-6.15013	-142.649	-6.14684	-143.068	-19.197		100.623
7.06	-23.2275	150.409		-6.14725	-146.19		-6.15165	-145.686	
	-6.14763	-146.272	-19.3688	87.1436		-6.14763	-146.272	
	-6.14969	-145.759	-6.14725	-146.19		-19.11		92.2522
7.21	-23.005		149.953		-6.14663	-149.311	-6.15013	-148.793	
	-6.14718	-149.397	-19.1516	79.2337		-6.14718	-149.397	
	-6.14858	-148.87		-6.14663	-149.311	-18.96		84.468
7.36	-22.675		149.731		-6.14535	-152.429	-6.1476		-151.898	
	-6.14622	-152.524	-18.9327	72.0083		-6.14622	-152.524	
	-6.14654	-151.98		-6.14535	-152.429	-18.8006	77.284
7.51	-22.2964	149.851		-6.14244	-155.551	-6.14391	-155.008	
	-6.14428	-155.654	-18.7603	65.3176		-6.14428	-155.654	
	-6.14387	-155.098	-6.14244	-155.551	-18.6831	70.5887
7.66	-21.8986	150.416		-6.1378		-158.686	-6.13939	-158.129	
	-6.14158	-158.788	-18.6604	58.961		-6.14158	-158.788	
	-6.14168	-158.22		-6.1378		-158.686	-18.6363	64.1822
7.81	-21.5034	151.533		-6.13285	-161.836	-6.13508	-161.252	
	-6.13759	-161.93		-18.6537	52.7094		-6.13759	-161.93		
	-6.13868	-161.334	-6.13285	-161.836	-18.6905	57.8878
7.96	-21.1181	153.321		-6.12907	-165		-6.12938	-164.381	
	-6.13286	-165.09		-18.7405	46.2992		-6.13286	-165.09		
	-6.13201	-164.459	-6.12907	-165		-18.8471	51.5074
8.11	-20.7612	155.609		-6.12457	-168.176	-6.12024	-167.528	
	-6.12835	-168.263	-18.9014	39.5909		-6.12835	-168.263	
	-6.1225		-167.605	-6.12457	-168.176	-19.0853	44.8559
8.26	-20.4424	158.45		-6.12031	-171.363	-6.11064	-170.7		
	-6.12481	-171.447	-19.1302	32.4595		-6.12481	-171.447	
	-6.11361	-170.778	-6.12031	-171.363	-19.3984	37.7375
8.41	-20.1647	161.678		-6.119		-174.564	-6.10469	-173.895
	-6.12303	-174.646	-19.3987	24.7698		-6.12303	-174.646
	-6.10751	-173.969	-6.119		-174.564	-19.762		29.9734
8.56	-19.9226	165.167		-6.12034	-177.772	-6.10209	-177.103
	-6.12328	-177.856	-19.6688	16.4813		-6.12328	-177.856
	-6.10398	-177.173	-6.12034	-177.772	-20.1419	21.4946
8.71	-19.7154	168.862		-6.1231		179.01		-6.10094	179.68
	-6.12544	178.924		-19.8945	7.64937		-6.12544	178.924
	-6.10249	179.611		-6.1231		179.01		-20.4862	12.3237
8.86	-19.5495	172.691		-6.12829	175.792		-6.1025		176.464		
	-6.13048	175.704		-20.0382	-1.38548	-6.13048	175.704	
	-6.10345	176.389		-6.12829	175.792		-20.7494	2.77945
9.01	-19.4373	176.619		-6.13491	172.574		-6.10556	173.248	
	-6.13724	172.486		-20.099		-10.2001	-6.13724	172.486	
	-6.1062		173.169		-6.13491	172.574		-20.9238	-6.67808
9.16	-19.3841	-179.504	-6.14353	169.358		-6.11		170.029	
	-6.14596	169.269		-20.1017	-18.4794	-6.14596	169.269	
	-6.111		169.948		-6.14353	169.358		-21.0226	-15.6722
9.31	-19.4083	-175.706	-6.15489	166.148		-6.11717	166.812	
	-6.15769	166.054		-20.0777	-26.0156	-6.15769	166.054	
	-6.11811	166.726		-6.15489	166.148		-21.0786	-23.9386
9.46	-19.512		-171.832	-6.16843	162.94		-6.12656	163.593	
	-6.17076	162.842		-20.0814	-32.6456	-6.17076	162.842	
	-6.12719	163.503		-6.16843	162.94		-21.1568	-31.2417
9.61	-19.6834	-167.846	-6.18364	159.728		-6.13815	160.365	
	-6.18586	159.632		-20.1716	-38.348		-6.18586	159.632	
	-6.13937	160.28		-6.18364	159.728		-21.3249	-37.5028
9.76	-19.9243	-163.749	-6.199		156.521		-6.15025	157.141	
	-6.20271	156.424		-20.396		-43.2539	-6.20271	156.424	
	-6.15294	157.058		-6.199		156.521		-21.6461	-42.844
9.91	-20.2317	-159.301	-6.21683	153.324		-6.16513	153.927	
	-6.2212		153.229		-20.8083	-47.5934	-6.2212		153.229	
	-6.16761	153.842		-6.21683	153.324		-22.1894	-47.5129
10.06	-20.5752	-154.331	-6.23711	150.136		-6.18231	150.719	
	-6.24116	150.04		-21.4586	-51.6767	-6.24116	150.04	
	-6.18432	150.63		-6.23711	150.136		-23.0292	-51.8814
10.21	-20.9156	-148.861	-6.25835	146.96		-6.20116	147.524	
	-6.26229	146.86		-22.3998	-55.9188	-6.26229	146.86	
	-6.20342	147.427		-6.25835	146.96		-24.2595	-56.4188
10.36	-21.221		-142.967	-6.27997	143.789		-6.22091	144.331	
	-6.28545	143.687		-23.7161	-60.8585	-6.28545	143.687	
	-6.225		144.234		-6.27997	143.789		-26.0348	-62.0119
10.51	-21.4432	-136.611	-6.30414	140.629		-6.24329	141.146	
	-6.31051	140.527		-25.5395	-67.6453	-6.31051	140.527	
	-6.24865	141.049		-6.30414	140.629		-28.6332	-70.8762
10.66	-21.5293	-130.099	-6.32981	137.478		-6.2677		137.966	
	-6.33654	137.379		-27.9998	-79.2214	-6.33654	137.379	
	-6.27347	137.874		-6.32981	137.478		-32.2026	-90.8277
10.81	-21.4637	-123.791	-6.35568	134.338		-6.29313	134.799	
	-6.36343	134.247		-30.7484	-101.817	-6.36343	134.247	
	-6.29949	134.715		-6.35568	134.338		-34.5002	-131.384
10.96	-21.2548	-118.048	-6.38294	131.217		-6.32033	131.652	
	-6.39186	131.127		-31.9322	-137.548	-6.39186	131.127	
	-6.32681	131.576		-6.38294	131.217		-32.9071	-176.029
11.11	-20.9407	-113.104	-6.41214	128.109		-6.34953	128.519	
	-6.42108	128.031		-30.2879	-172.984	-6.42108	128.031	
	-6.3562		128.453		-6.41214	128.109		-28.8461	157.514
11.26	-20.5498	-109.03		-6.44227	125.026		-6.37973	125.412	
	-6.45045	124.956		-27.1506	164.873		-6.45045	124.956	
	-6.38631	125.355		-6.44227	125.026		-25.4037	146.491
11.41	-20.1133	-105.855	-6.47202	121.965		-6.40993	122.33	
	-6.48035	121.901		-24.3506	153.564		-6.48035	121.901	
	-6.41648	122.28		-6.47202	121.965		-22.8948	140.655
11.56	-19.6758	-103.437	-6.50079	118.923		-6.43956	119.268	
	-6.5094		118.862		-22.1897	146.833		-6.5094		118.862	
	-6.44585	119.223		-6.50079	118.923		-21.0122	136.651
11.71	-19.2591	-101.5		-6.52943	115.913		-6.46859	116.234	
	-6.53694	115.849		-20.5367	142.038		-6.53694	115.849	
	-6.47362	116.191		-6.52943	115.913		-19.5726	133.361
11.86	-18.8634	-99.9056	-6.55538	112.929		-6.49418	113.231	
	-6.5621		112.866		-19.2761	138.095		-6.5621		112.866	
	-6.4993		113.183		-6.55538	112.929		-18.4676	130.311
12.01	-18.5041	-98.5344	-6.57803	109.971		-6.51665	110.247	
	-6.58364	109.902		-18.3248	134.462		-6.58364	109.902	
	-6.52153	110.195		-6.57803	109.971		-17.6283	127.238
12.16	-18.1763	-97.1869	-6.59646	107.032		-6.53591	107.283	
	-6.60224	106.955		-17.6243	130.787		-6.60224	106.955	
	-6.54054	107.225		-6.59646	107.032		-17.0088	123.932
12.31	-17.8778	-95.6168	-6.61132	104.094		-6.55071	104.318	
	-6.61715	104.012		-17.1378	126.855		-6.61715	104.012	
	-6.5556		104.255		-6.61132	104.094		-16.58		120.262
12.46	-17.6164	-93.7748	-6.62098	101.156		-6.56103	101.349	
	-6.62831	101.07		-16.8396	122.529		-6.62831	101.07	
	-6.56712	101.279		-6.62098	101.156		-16.3213	116.111
12.61	-17.3892	-91.7493	-6.62681	98.2107		-6.56823	98.3689	
	-6.63598	98.1187		-16.6993	117.604		-6.63598	98.1187	
	-6.57573	98.2961		-6.62681	98.2107		-16.2027	111.319
12.76	-17.1781	-89.4413	-6.62957	95.2443		-6.57265	95.3678	
	-6.6398		95.1572		-16.6801	111.888		-6.6398		95.1572	
	-6.58152	95.3037		-6.62957	95.2443		-16.1872	105.717
12.91	-16.9759	-86.8171	-6.6301		92.2678		-6.57562	92.3596	
	-6.64131	92.188		-16.7443	105.351		-6.64131	92.188	
	-6.58577	92.3003		-6.6301		92.2678		-16.2389	99.3061
13.06	-16.7903	-83.8906	-6.62886	89.2785		-6.57703	89.3376	
	-6.64177	89.2072		-16.8553	97.9257		-6.64177	89.2072	
	-6.58868	89.2841		-6.62886	89.2785		-16.3215	92.0666
13.21	-16.6133	-80.7763	-6.62785	86.2715		-6.57926	86.2953	
	-6.64202	86.2123		-16.9711	89.6394		-6.64202	86.2123	
	-6.59244	86.2537		-6.62785	86.2715		-16.3937	84.0307
13.36	-16.444		-77.5607	-6.62806	83.2521		-6.58361	83.2437	
	-6.64209	83.2059		-17.0464	80.6139		-6.64209	83.2059	
	-6.59711	83.2142		-6.62806	83.2521		-16.4165	75.3619
13.51	-16.2908	-74.281		-6.62789	80.2343		-6.58844	80.1915	
	-6.64167	80.1963		-17.048		71.1267		-6.64167	80.1963	
	-6.60185	80.1739		-6.62789	80.2343		-16.3687	66.3402
13.66	-16.1571	-71.0382	-6.62839	77.2174		-6.59468	77.139	
	-6.64201	77.1914		-16.9616	61.4901		-6.64201	77.1914	
	-6.60726	77.1386		-6.62839	77.2174		-16.2413	57.268
13.81	-16.0479	-67.8668	-6.62905	74.2082		-6.60198	74.1036	
	-6.64179	74.1949		-16.8019	51.9853		-6.64179	74.1949	
	-6.61293	74.1127		-6.62905	74.2082		-16.0505	48.3661
13.96	-15.9774	-64.7804	-6.62853	71.2164		-6.60768	71.0895	
	-6.64024	71.2062		-16.5983	42.7805		-6.64024	71.2062	
	-6.61812	71.0965		-6.62853	71.2164		-15.8246	39.7622
14.11	-15.948		-61.7712	-6.62668	68.2267		-6.6119		68.0776	
	-6.63669	68.2155		-16.3788	33.9957		-6.63669	68.2155	
	-6.62113	68.0883		-6.62668	68.2267		-15.5892	31.5373
14.26	-15.9591	-58.8216	-6.62178	65.2382		-6.61421	65.0689	
	-6.63048	65.2279		-16.1699	25.5728		-6.63048	65.2279	
	-6.62152	65.0838		-6.62178	65.2382		-15.3712	23.6412
14.41	-16.0219	-55.9021	-6.61282	62.2438		-6.61274	62.062	
	-6.62069	62.2348		-16.0062	17.3594		-6.62069	62.2348	
	-6.61863	62.0755		-6.61282	62.2438		-15.1966	15.9112
14.56	-16.1175	-53.0291	-6.60024	59.246		-6.6077		59.0576	
	-6.60706	59.2306		-15.8967	9.1046		-6.60706	59.2306	
	-6.6122		59.0587		-6.60024	59.246		-15.0724	8.10869
14.71	-16.2391	-50.1767	-6.58353	56.2327		-6.59877	56.0365	
	-6.59029	56.2074		-15.8243	0.711552	-6.59029	56.2074	
	-6.6028		56.0288		-6.58353	56.2327		-14.9838	0.151089
14.86	-16.3772	-47.2778	-6.56625	53.1871		-6.58879	52.9806	
	-6.57173	53.1577		-15.7776	-7.95894	-6.57173	53.1577	
	-6.59189	52.9701		-6.56625	53.1871		-14.9175	-8.08351
15.01	-16.5156	-44.4092	-6.54872	50.11		-6.57955	49.8973	
	-6.55312	50.0786		-15.7351	-16.9724	-6.55312	50.0786	
	-6.58182	49.8863		-6.54872	50.11		-14.8567	-16.6144
15.16	-16.6339	-41.6197	-6.53256	47.0056		-6.57099	46.7916	
	-6.5357		46.9759		-15.6652	-26.3372	-6.5357		46.9759	
	-6.57277	46.7822		-6.53256	47.0056		-14.7752	-25.4508
15.31	-16.7338	-38.9225	-6.51756	43.8816		-6.56399	43.6709	
	-6.52009	43.8494		-15.5476	-35.9323	-6.52009	43.8494	
	-6.56505	43.6597		-6.51756	43.8816		-14.6575	-34.4981
15.46	-16.8183	-36.3384	-6.50512	40.7444		-6.55992	40.5395	
	-6.50738	40.7052		-15.3667	-45.4777	-6.50738	40.7052	
	-6.56014	40.5226		-6.50512	40.7444		-14.4873	-43.5244
15.61	-16.8725	-34.0037	-6.49656	37.6051		-6.55946	37.4069	
	-6.49743	37.5563		-15.1177	-54.7649	-6.49743	37.5563	
	-6.55866	37.3774		-6.49656	37.6051		-14.2611	-52.3481
15.76	-16.9062	-31.9669	-6.49107	34.4632		-6.56281	34.2727	
	-6.49131	34.4085		-14.8146	-63.5974	-6.49131	34.4085	
	-6.56072	34.2351		-6.49107	34.4632		-13.9882	-60.7942
15.91	-16.9301	-30.176		-6.48785	31.3276		-6.56823	31.1504	
	-6.48777	31.267		-14.4825	-71.74		-6.48777	31.267	
	-6.56555	31.1065		-6.48785	31.3276		-13.6859	-68.6546
16.06	-16.9598	-28.6497	-6.4853		28.2054		-6.57423	28.0447	
	-6.48479	28.142		-14.156		-79.1095	-6.48479	28.142	
	-6.5712		27.996		-6.4853		28.2054		-13.3837	-75.8337
16.21	-17.0113	-27.4077	-6.48245	25.1037		-6.58009	24.9608	
	-6.48168	25.0364		-13.8694	-85.7334	-6.48168	25.0364	
	-6.57741	24.9067		-6.48245	25.1037		-13.1087	-82.3128
16.36	-17.0878	-26.4293	-6.47784	22.023		-6.58471	21.9016	
	-6.47727	21.9489		-13.6465	-91.6655	-6.47727	21.9489	
	-6.58174	21.8413		-6.47784	22.023		-12.8851	-88.1248
16.51	-17.2004	-25.6334	-6.47072	18.9529		-6.58705	18.8567	
	-6.47079	18.8733		-13.5075	-97.0612	-6.47079	18.8733	
	-6.58376	18.7941		-6.47072	18.9529		-12.7316	-93.4052
16.66	-17.3574	-24.916		-6.46029	15.8898		-6.58563	15.8254	
	-6.46034	15.8077		-13.466		-102.061	-6.46034	15.8077	
	-6.58217	15.7625		-6.46029	15.8898		-12.6584	-98.2797
16.81	-17.558		-24.1733	-6.44514	12.8223		-6.57919	12.7949	
	-6.44461	12.7374		-13.5302	-106.798	-6.44461	12.7374	
	-6.57565	12.7312		-6.44514	12.8223		-12.6731	-102.861
16.96	-17.8086	-23.2544	-6.42461	9.73756		-6.56692	9.75299	
	-6.42374	9.65115		-13.712		-111.408	-6.42374	9.65115	
	-6.5635		9.68353		-6.42461	9.73756		-12.7854	-107.259
17.11	-18.1223	-22.1466	-6.40048	6.62626		-6.55088	6.68711	
