! MARKI MICROWAVE INC.
! Email:             	info@markimicrowave.com   				Phone:   408-778-4200
! Model Number:      	PD0109							Date:    07/11
! Filename:		PD-0109.S3P						Version: 1.0
! Description:       	3-port S-parameter data for Power Divider PD0109
! Frequency Range: 	1 GHz to 9 GHz		
! Port Configuration:	PORT 1: COMMON, PORT 2 and Port 3: Output


! S3P File: Measurements: Mag<S11> Ang<S11> Mag<S12> Ang<S12> Mag<S13> Ang<S13>! row 1 
!			  Mag<S21> Ang<S21> Mag<S22> Ang<S22> Mag<S23> Ang<S23>! row 2 
!			  Mag<S31> Ang<S31> Mag<S32> Ang<S32> Mag<S33> Ang<S33>! row 3 


# GHz S DB R 50




1	-15.6842	46.2381		-3.37325	-133.51		-3.31031	-133.267
	-3.37493	-133.497	-24.8662	-104.371	-18.4783	-145.733	
	-3.31058	-133.256	-18.4808	-145.712	-25.847		-102.14
1.04	-16.2746	41.8413		-3.36316	-138.948	-3.30005	-138.708
	-3.36478	-138.933	-25.7257	-115.073	-19.2474	-150.007
	-3.29957	-138.691	-19.2476	-149.995	-26.8055	-113.58
1.08	-16.922		37.6906		-3.35286	-144.402	-3.28953	-144.162	
	-3.35434	-144.382	-26.5951	-126.351	-20.0741	-154.296	
	-3.28988	-144.131	-20.0753	-154.252	-27.7246	-125.895
1.12	-17.6341	33.7877		-3.34248	-149.86		-3.28024	-149.623
	-3.34429	-149.839	-27.4324	-138.508	-20.9658	-158.577
	-3.28044	-149.59		-20.9662	-158.547	-28.5501	-139.322
1.16	-18.4175	30.0961		-3.33451	-155.325	-3.27267	-155.084
	-3.33615	-155.304	-28.211		-151.405	-21.9397	-162.812	
	-3.27339	-155.058	-21.9395	-162.778	-29.2659	-153.639
1.2	-19.2537	26.7316		-3.32898	-160.786	-3.26604	-160.54	
	-3.32937	-160.77		-28.851		-165.119	-23.0118	-166.982
	-3.26678	-160.526	-23.0082	-166.956	-29.7845	-168.659
1.24	-20.15		23.7649		-3.32267	-166.247	-3.25961	-165.995
	-3.32252	-166.229	-29.3278	-179.43		-24.2098	-171.112
	-3.25877	-165.981	-24.1999	-171.08		-30.0671	176.084
1.28	-21.1256	21.5442		-3.32		-171.714	-3.25638	-171.46
	-3.32055	-171.702	-29.6183	166.141		-25.565		-175.116	
	-3.25711	-171.451	-25.5514	-175.052	-30.1101	161.347
1.32	-22.2049	20.1797		-3.31797	-177.179	-3.25446	-176.922
	-3.31822	-177.159	-29.7567	151.803		-27.1311	-178.951
	-3.2545		-176.905	-27.1188	-178.864	-29.9767	147.308
1.36	-23.3831	19.781		-3.31538	177.359		-3.2523		177.62
	-3.31625	177.377		-29.7453	138.03		-28.9937	177.528
	-3.25321	177.638		-28.9964	177.619		-29.7169	134.294
1.4	-24.6117	20.7474		-3.31589	171.894		-3.25271	172.162
	-3.31597	171.924		-29.5836	124.949		-31.3153	174.758	
	-3.25325	172.186		-31.3214	174.86		-29.3722	122.286
1.44	-25.8153	23.4976		-3.31623	166.436		-3.25241	166.706	
	-3.31708	166.455		-29.3258	112.688		-34.4213	173.816
	-3.25419	166.723		-34.4284	173.871		-28.9972	111.321
1.48	-26.9282	28.4946		-3.31637	160.984		-3.25278	161.259	
	-3.31756	161.003		-29.0408	101.353		-39.0233	-179.039	
	-3.25438	161.274		-39.0353	-178.617	-28.646		101.515
1.52	-27.7837	35.7491		-3.32106	155.521		-3.2558		155.81
	-3.32216	155.546		-28.7929	90.6643		-42.9548	-147.293	
	-3.25829	155.823		-42.9912	-146.758	-28.3784	92.453
1.56	-28.2828	44.2859		-3.32493	150.076		-3.25983	150.368
	-3.32685	150.101		-28.5539	80.6301		-43.6986	-107.56
	-3.26192	150.383		-43.7363	-107.198	-28.1489	83.9562
1.6	-28.3077	52.8526		-3.32832	144.628		-3.26217	144.931
	-3.32896	144.664		-28.2987	71.0693		-41.3987	-70.7756	
	-3.26431	144.951		-41.4269	-70.5779	-27.9403	75.7831
1.64	-27.9018	60.1105		-3.33188	139.189		-3.26603	139.494
	-3.33278	139.222		-28.0651	61.9579		-36.7819	-54.6072
	-3.26821	139.516		-36.787		-54.7596	-27.7791	68.1132
1.68	-27.2055	65.38		-3.33755	133.75		-3.27138	134.064
	-3.3388		133.784		-27.8677	53.1795		-33.5653	-54.141	
	-3.27395	134.09		-33.5785	-54.3109	-27.6932	60.7423
1.72	-26.3805	68.6335		-3.34155	128.319		-3.27579	128.64
	-3.34309	128.353		-27.7442	44.666		-31.3616	-56.5036
	-3.27893	128.657		-31.363		-56.4604	-27.7009	53.6391
1.76	-25.5739	70.0439		-3.34764	122.888		-3.28204	123.215	
	-3.35036	122.921		-27.6574	36.2805		-29.7126	-59.8396
	-3.28515	123.228		-29.7211	-59.8105	-27.7667	46.5182
1.8	-24.8329	69.8247		-3.35394	117.462		-3.28815	117.796
	-3.35505	117.498		-27.5757	28.0622		-28.4224	-63.5842
	-3.28966	117.814		-28.426		-63.5844	-27.8528	39.4724
1.84	-24.17		68.3528		-3.35861	112.041		-3.29244	112.38	
	-3.36144	112.07		-27.5056	19.8794		-27.3727	-67.5531
	-3.2946		112.395		-27.376		-67.5965	-27.9931	32.4727
1.88	-23.5754	65.9665		-3.36715	106.625		-3.30003	106.968
	-3.36895	106.652		-27.4589	11.7447		-26.5056	-71.7144
	-3.30225	106.99		-26.5113	-71.7578	-28.2056	25.488
1.92	-23.0594	62.9277		-3.37359	101.215		-3.30636	101.562
	-3.37691	101.241		-27.4479	3.45523		-25.7785	-75.9918
	-3.30915	101.582		-25.7856	-75.9895	-28.5008	18.2437
1.96	-22.6289	59.3882		-3.38094	95.811		-3.31257	96.1667	
	-3.38346	95.8359		-27.4209	-4.94455	-25.1663	-80.3246
	-3.31492	96.1847		-25.1741	-80.2994	-28.8106	10.6476
2	-22.303		55.4698		-3.38829	90.4125		-3.31838	90.7684	
	-3.38911	90.4224		-27.3832	-13.2445	-24.6533	-84.6679
	-3.31952	90.7775		-24.6597	-84.6538	-29.1351	2.9675
2.04	-22.041		51.1242		-3.39512	85.013		-3.32421	85.3743	
	-3.39633	85.031		-27.3757	-21.3284	-24.2217	-89.0189
	-3.32513	85.3914		-24.2243	-88.9769	-29.5169	-4.72823
2.08	-21.8228	46.6615		-3.40009	79.6171		-3.32847	79.9827	
	-3.40099	79.636		-27.413		-29.1766	-23.8583	-93.3571	
	-3.32935	80.0003		-23.8558	-93.3221	-30.0062	-12.4617
2.12	-21.6555	41.9928		-3.40589	74.2138		-3.3337		74.5891	
	-3.40761	74.2371		-27.5049	-37.2186	-23.5579	-97.7379
	-3.33485	74.6079		-23.5523	-97.703		-30.6167	-20.7434
2.16	-21.5461	37.324		-3.41245	68.8282		-3.33892	69.2127
	-3.41415	68.8484		-27.6241	-45.236		-23.3185	-102.132
	-3.3406		69.2189		-23.3139	-102.076	-31.3028	-29.4164
2.2	-21.4991	32.5549		-3.41632	63.4408		-3.34198	63.8247	
	-3.41649	63.4584		-27.7576	-53.2467	-23.1282	-106.484
	-3.34239	63.8293		-23.1277	-106.465	-32.0437	-38.5727
2.24	-21.4968	27.7202		-3.42065	58.0666		-3.34546	58.4418
	-3.42082	58.0809		-27.9588	-61.167		-22.9873	-110.869	
	-3.34657	58.4562		-22.9896	-110.811	-32.9309	-48.2725
2.28	-21.5524	22.8303		-3.42452	52.6785		-3.35015	53.0562
	-3.42457	52.6962		-28.213		-69.1976	-22.8887	-115.219	
	-3.3494		53.0732		-22.8956	-115.168	-33.9642	-59.2593
2.32	-21.6511	17.8657		-3.42722	47.2836		-3.35323	47.6617
	-3.42753	47.3162		-28.4955	-77.366		-22.8389	-119.546
	-3.35125	47.6962		-22.8422	-119.507	-35.0539	-71.8565
2.36	-21.7998	12.9715		-3.43102	41.9002		-3.35573	42.2832	
	-3.43051	41.9311		-28.822		-85.7264	-22.831		-123.831
	-3.35366	42.3039		-22.8325	-123.82		-36.1473	-86.7698
2.4	-21.9974	8.06588		-3.43496	36.5051		-3.35863	36.8922
	-3.43462	36.5481		-29.2141	-94.3592	-22.8692	-128.092
	-3.35832	36.9187		-22.8663	-128.061	-37.1646	-104.706
2.44	-22.2215	3.28198		-3.43636	31.1182		-3.35934	31.5024	
	-3.43553	31.1427		-29.6774	-103.187	-22.9436	-132.28
	-3.35982	31.5172		-22.9418	-132.25		-37.9072	-125.295
2.48	-22.4794	-1.44431	-3.43825	25.7312		-3.36077	26.107
	-3.43732	25.7553		-30.2466	-112.62		-23.0542	-136.43	
	-3.36152	26.1337		-23.056		-136.37		-38.1157	-148.245
2.52	-22.7848	-6.0597		-3.44092	20.3467		-3.36368	20.723
	-3.43964	20.3643		-30.8866	-122.551	-23.2101	-140.475
	-3.36332	20.7322		-23.2114	-140.434	-37.6606	-170.822
2.56	-23.1245	-10.5487	-3.44276	14.9673		-3.36477	15.3404
	-3.44104	14.9882		-31.5871	-133.42		-23.4042	-144.481
	-3.36465	15.3462		-23.4063	-144.434	-36.6861	168.716
2.6	-23.5218	-14.7075	-3.44501	9.58034		-3.36646	9.95177		
	-3.44322	9.6001		-32.317		-145.42		-23.6453	-148.343
	-3.36638	9.95513		-23.6439	-148.291	-35.3859	151.373
2.64	-23.9627	-18.6299	-3.44599	4.19492		-3.36874	4.56419	
	-3.44519	4.21344		-33.0405	-158.923	-23.9291	-152.103
	-3.36809	4.57552		-23.9255	-152.065	-33.9301	136.728
2.68	-24.4381	-22.1242	-3.44457	-1.20076	-3.3685		-0.83057
	-3.44551	-1.185		-33.7405	-174.093	-24.2491	-155.704
	-3.36838	-0.817867	-24.2563	-155.679	-32.5517	124.157
2.72	-24.9712	-25.2425	-3.44528	-6.59895	-3.37035	-6.22637	
	-3.44654	-6.57639	-34.2351	168.838		-24.6198	-159.127	
	-3.3703		-6.20795	-24.6228	-159.128	-31.2761	113.29
2.76	-25.537		-27.8233	-3.44676	-11.9989	-3.37255	-11.6183
	-3.449		-11.9824	-34.4624	150.319		-25.0288	-162.33	
 	-3.37326	-11.6097	-25.044		-162.325	-30.1446	103.43
2.8	-26.1295	-29.8048	-3.44583	-17.4001	-3.37326	-17.0217	
	-3.44981	-17.3786	-34.2825	131.245		-25.4902	-165.284	
	-3.37492	-17.0056	-25.5018	-165.265	-29.1323	94.286
2.84	-26.7321	-31.0215	-3.44731	-22.7977	-3.37507	-22.4158
	-3.45063	-22.7787	-33.6849	113.333		-25.9923	-167.883
	-3.37654	-22.4042	-26.0077	-167.843	-28.1969	85.9486
2.88	-27.3139	-31.3546	-3.44773	-28.2081	-3.37605	-27.8217	
	-3.45088	-28.1855	-32.8123	96.9787		-26.5405	-170.032
	-3.37743	-27.8056	-26.5563	-170		-27.359		78.0468
2.92	-27.8949	-30.6218	-3.44913	-33.6153	-3.37791	-33.2224	
	-3.45157	-33.5937	-31.7225	82.3438		-27.1334	-171.669
	-3.37846	-33.2062	-27.1509	-171.696	-26.5622	70.4967
2.96	-28.4151	-28.922		-3.45179	-39.0314	-3.38001	-38.6271
	-3.45187	-39.0111	-30.6252	69.4578		-27.7538	-172.724	
	-3.38001	-38.6109	-27.773		-172.793	-25.8807	63.1609
3	-28.8041	-26.235		-3.45544	-44.4455	-3.38376	-44.0291
	-3.45471	-44.4229	-29.5565	58.0336		-28.3914	-173.064	
	-3.38334	-44.017		-28.4058	-173.122	-25.257		55.8963
3.04	-29.0106	-23.0121	-3.45809	-49.8607	-3.38524	-49.4365
	-3.4575		-49.8436	-28.5576	48.0811		-29.0174	-172.636
	-3.38668	-49.431		-29.0352	-172.663	-24.6865	48.9598
3.08	-29.0329	-19.4967	-3.46079	-55.2738	-3.38825	-54.8469	
	-3.46015	-55.2556	-27.6144	39.286		-29.6067	-171.294	
	-3.38963	-54.8428	-29.6168	-171.33		-24.1564	42.3765
3.12	-28.8272	-16.0732	-3.46503	-60.6784	-3.39382	-60.2532
	-3.46378	-60.6634	-26.7645	31.0388		-30.1278	-169.098
	-3.393		-60.2377	-30.1244	-169.163	-23.6954	35.8735
3.16	-28.4847	-13.0862	-3.46757	-66.0797	-3.39844	-65.6505
	-3.46705	-66.0671	-26.0145	23.3644		-30.531		-166.103	
	-3.39723	-65.6321	-30.5165	-166.162	-23.3042	29.4475
3.2	-28.0065	-10.616		-3.47087	-71.493		-3.40316	-71.0468	
	-3.47067	-71.478		-25.3367	16.052		-30.7636	-162.541	
	-3.40135	-71.0314	-30.758		-162.606	-22.9496	23.1115
3.24	-27.458		-9.09521	-3.47597	-76.9012	-3.40681	-76.4418	
	-3.47676	-76.8913	-24.7216	9.10485		-30.8092	-158.779
	-3.40697	-76.4296	-30.8032	-158.808	-22.6321	16.8695
3.28	-26.8442	-8.35564	-3.48084	-82.3119	-3.41197	-81.8415	
	-3.4822		-82.2939	-24.1747	2.54218		-30.655		-155.232
	-3.41258	-81.8286	-30.6543	-155.307	-22.3613	10.8777
3.32	-26.239		-8.437		-3.48656	-87.7145	-3.41613	-87.2354
	-3.48755	-87.6989	-23.7047	-3.77123	-30.3533	-152.291
	-3.41796	-87.2214	-30.3332	-152.353	-22.1474	4.98218
3.36	-25.6676	-9.0878		-3.49155	-93.1086	-3.42154	-92.6169
	-3.4934		-93.0915	-23.3095	-9.90892	-29.9091	-150.177
	-3.42353	-92.6063	-29.886		-150.2		-21.9913	-0.841114
3.4	-25.1419	-10.2357	-3.4961		-98.5054	-3.42506	-98.0013
	-3.49779	-98.4882	-22.9743	-15.8568	-29.4022	-148.916
	-3.42786	-97.9951	-29.3912	-148.893	-21.8714	-6.64082
3.44	-24.6713	-11.6992	-3.50159	-103.89		-3.42933	-103.385	
	-3.50143	-103.881	-22.695		-21.6316	-28.8634	-148.558
	-3.43114	-103.379	-28.8638	-148.518	-21.7924	-12.3297
3.48	-24.2581	-13.5185	-3.50698	-109.281	-3.43396	-108.767	
	-3.5074		-109.279	-22.461		-27.2002	-28.3248	-148.955	
	-3.43593	-108.771	-28.3251	-148.935	-21.7477	-17.8376
3.52	-23.8859	-15.4831	-3.51172	-114.668	-3.43755	-114.156	
	-3.51237	-114.664	-22.2863	-32.6256	-27.8061	-150.075
	-3.43945	-114.15		-27.8091	-150.019	-21.766		-23.2678
3.56	-23.559		-17.6229	-3.51558	-120.06		-3.44104	-119.538
	-3.51783	-120.059	-22.1715	-37.9516	-27.3191	-151.763
	-3.44393	-119.54		-27.3122	-151.715	-21.8375	-28.666
3.6	-23.2766	-19.854		-3.52172	-125.445	-3.44713	-124.922
	-3.52321	-125.432	-22.1264	-43.2523	-26.8716	-153.891
	-3.44789	-124.909	-26.8639	-153.847	-21.9696	-34.0706
3.64	-23.0408	-22.0557	-3.52449	-130.836	-3.44992	-130.301
	-3.52653	-130.82		-22.127		-48.4244	-26.467		-156.413	
	-3.45083	-130.292	-26.4588	-156.39		-22.15		-39.3915
3.68	-22.854		-24.2204	-3.52962	-136.222	-3.45444	-135.683
	-3.52889	-136.204	-22.1932	-53.3874	-26.1061	-159.257
	-3.45323	-135.671	-26.1024	-159.245	-22.4032	-44.5703
3.72	-22.7175	-26.3448	-3.53379	-141.615	-3.45761	-141.065
	-3.53352	-141.597	-22.3326	-58.2719	-25.792		-162.384
	-3.45757	-141.062	-25.7968	-162.346	-22.7446	-49.7175
3.76	-22.6129	-28.3899	-3.53656	-147.003	-3.45914	-146.451
	-3.53695	-146.989	-22.5356	-63.106		-25.5219	-165.689
	-3.4601		-146.45		-25.5296	-165.699	-23.1546	-54.889
3.8	-22.546		-30.2844	-3.53876	-152.38		-3.46171	-151.824
	-3.54015	-152.368	-22.807		-67.9662	-25.3022	-169.166
	-3.46206	-151.824	-25.3115	-169.163	-23.6429	-60.0658
3.84	-22.5158	-32.0511	-3.54206	-157.768	-3.46369	-157.21		
	-3.54375	-157.745	-23.1458	-72.6507	-25.1322	-172.776	
	-3.46508	-157.2		-25.1416	-172.784	-24.2189	-65.1403
3.88	-22.5083	-33.5814	-3.54586	-163.154	-3.46764	-162.594
	-3.54723	-163.133	-23.5682	-77.1666	-25.0082	-176.513	
	-3.46765	-162.588	-25.0134	-176.506	-24.9241	-70.1298
3.92	-22.5282	-34.9979	-3.54836	-168.552	-3.46901	-167.992	
	-3.5485		-168.53		-24.0932	-81.4135	-24.9271	179.684	
	-3.46977	-167.977	-24.9318	179.676		-25.774		-75.0695
3.96	-22.5732	-36.2587	-3.55149	-173.946	-3.47242	-173.39	
	-3.55235	-173.926	-24.7226	-85.4923	-24.8879	175.811
	-3.47395	-173.37		-24.8834	175.831		-26.7937	-79.9621
4	-22.6241	-37.3623	-3.55284	-179.341	-3.4739		-178.786
	-3.55445	-179.322	-25.4719	-89.4587	-24.8907	171.95	
	-3.47705	-178.762	-24.8862	171.998		-28.0222	-84.8606
4.04	-22.6798	-38.2647	-3.5553		175.269		-3.4756		175.826	
	-3.55679	175.281		-26.3681	-93.2296	-24.9335	168.069
	-3.4786		175.843		-24.9313	168.155		-29.5617	-89.7579
4.08	-22.723		-38.9345	-3.55829	169.87		-3.4792		170.438		
	-3.55979	169.882		-27.4597	-96.4822	-25.0162	164.217	
	-3.48224	170.441		-25.022		164.315		-31.6098	-94.3987
4.12	-22.7679	-39.4003	-3.56107	164.472		-3.48146	165.04
	-3.56227	164.477		-28.7937	-99.1212	-25.1427	160.406	
	-3.48504	165.037		-25.1518	160.468		-34.5125	-99.1471
4.16	-22.794		-39.6774	-3.56227	159.067		-3.48309	159.639
	-3.56316	159.083		-30.486		-100.747	-25.312		156.615	
	-3.4857		159.65		-25.3211	156.707		-39.9825	-105.317
4.2	-22.8151	-39.886		-3.56536	153.663		-3.48606	154.24
	-3.56764	153.679		-32.5696	-100.047	-25.5252	152.953
	-3.49003	154.254		-25.5315	153.065		-45.3744	-163.328
4.24	-22.8136	-40.0479	-3.56741	148.261		-3.4897		148.839
	-3.57037	148.275		-35.1639	-94.5614	-25.7845	149.375	
	-3.49202	148.855		-25.7903	149.585		-46.1354	137.021
4.28	-22.7939	-40.2406	-3.56949	142.863		-3.49195	143.448
	-3.57379	142.867		-37.8401	-78.1491	-26.0924	145.993	
	-3.49584	143.448		-26.0948	146.143		-43.2348	78.1121
4.32	-22.7573	-40.4862	-3.57367	137.458		-3.4967		138.055	
	-3.57694	137.471		-39.1906	-53.1021	-26.4425	142.794
	-3.5005		138.059		-26.4469	142.93		-36.3304	55.041
4.36	-22.7167	-40.7203	-3.57615	132.055		-3.49927	132.665	
	-3.57834	132.069		-38.6311	-26.2806	-26.8395	139.819	
	-3.50209	132.664		-26.8413	139.913		-32.5505	50.7584
4.4	-22.6703	-41.0415	-3.57919	126.645		-3.50215	127.267	
	-3.57907	126.674		-36.2963	-6.15193	-27.2819	137.118
	-3.50382	127.278		-27.2845	137.242		-30.1095	46.0647
4.44	-22.6303	-41.4858	-3.58328	121.244		-3.5066		121.867	
	-3.58365	121.273		-33.4917	2.53084		-27.7595	134.74	
	-3.50797	121.887		-27.7674	134.857		-28.3158	41.1689
4.48	-22.5826	-42.1103	-3.58597	115.853		-3.50994	116.482	
	-3.58577	115.878		-31.1308	4.70443		-28.2724	132.792	
	-3.5113		116.498		-28.2914	132.857		-26.8604	36.202
4.52	-22.5388	-42.8821	-3.58795	110.462		-3.51205	111.098
	-3.58883	110.482		-29.2957	3.9239		-28.8191	131.358	
	-3.51452	111.11		-28.8375	131.372		-25.6769	31.3553
4.56	-22.5204	-43.7788	-3.59043	105.061		-3.51555	105.708
	-3.59234	105.068		-27.8403	1.66108		-29.3841	130.499
	-3.51882	105.707		-29.4026	130.453		-24.7079	26.5858
4.6	-22.5251	-44.7199	-3.59303	99.6557		-3.5175		100.304	
	-3.59527	99.6631		-26.6341	-1.39924	-29.954		130.246	
	-3.52128	100.319		-29.9795	130.199		-23.8828	21.8112
4.64	-22.5553	-45.812		-3.59488	94.248		-3.51923	94.9051	
	-3.59753	94.2507		-25.6706	-4.91986	-30.5149	130.7	
	-3.52291	94.9163		-30.5394	130.673		-23.2095	17.0891
4.68	-22.6259	-46.8964	-3.59932	88.8422		-3.52333	89.5167	
	-3.60107	88.8441		-24.8588	-8.85293	-31.0343	131.855
	-3.52665	89.5173		-31.059		131.905		-22.6532	12.2949
4.72	-22.7161	-47.9391	-3.60255	83.4378		-3.52628	84.1333	
	-3.60488	83.4466		-24.1959	-12.8509	-31.4862	133.794
	-3.53032	84.1274		-31.4884	133.855		-22.1923	7.64411
4.76	-22.8451	-48.8736	-3.60434	78.0356		-3.52842	78.751	
	-3.60669	78.0436		-23.645		-17.1139	-31.8212	136.418	
	-3.5322		78.7426		-31.8205	136.412		-21.8226	2.91332
4.8	-23.0124	-49.622		-3.60868	72.6295		-3.53185	73.3652
	-3.61125	72.6499		-23.2109	-21.5332	-32.01		139.411	
	-3.53572	73.367		-32.0049	139.357		-21.5392	-1.83783
4.84	-23.2067	-50.2962	-3.61116	67.2242		-3.53398	67.9701
	-3.61345	67.2349		-22.8662	-26.1813	-32.0558	142.518
	-3.53689	67.9683		-32.0593	142.351		-21.3309	-6.67251
4.88	-23.4364	-50.7726	-3.61289	61.8151		-3.53413	62.5742
	-3.61385	61.8345		-22.6112	-30.8706	-31.9518	145.334	
	-3.53593	62.5758		-31.9682	145.235		-21.2009	-11.5033
4.92	-23.696		-50.9681	-3.61627	56.4067		-3.53613	57.1805	
	-3.61794	56.4226		-22.4402	-35.6836	-31.7013	147.775	
	-3.53923	57.1742		-31.7188	147.633		-21.1504	-16.3259
4.96	-23.9863	-50.7469	-3.61783	50.9934		-3.53631	51.7837	
	-3.62019	51.0163		-22.34		-40.5504	-31.3607	149.476	
	-3.53978	51.7789		-31.3828	149.392		-21.1602	-21.1853
5	-24.2864	-50.1368	-3.62012	45.5845		-3.53715	46.3718	
	-3.62301	45.6106		-22.3293	-45.5673	-30.9728	150.528	
	-3.54204	46.3918		-30.9654	150.564		-21.2487	-26.0645
5.04	-24.5646	-48.9755	-3.62216	40.1687		-3.53899	40.9681
	-3.62547	40.1972		-22.3993	-50.6954	-30.5532	150.911	
	-3.54216	40.9856		-30.5365	150.905		-21.4091	-30.9408
5.08	-24.8033	-47.3898	-3.62499	34.7588		-3.53994	35.5661
	-3.62763	34.781		-22.5467	-55.9649	-30.128		150.63	
	-3.54226	35.5816		-30.1114	150.573		-21.6543	-35.8367
5.12	-24.9844	-45.3523	-3.62627	29.3499		-3.54007	30.1722
	-3.62879	29.3608		-22.7588	-61.4056	-29.7034	149.801	
	-3.54153	30.1746		-29.7028	149.701		-21.9742	-40.8045
5.16	-25.0929	-42.9721	-3.63146	23.9359		-3.54278	24.7636	
	-3.63332	23.9403		-23.0556	-67.0716	-29.3144	148.446	
	-3.54479	24.7609		-29.3195	148.367		-22.385		-45.9195
5.2	-25.1132	-40.4272	-3.63451	18.5103		-3.54452	19.34
	-3.63605	18.5271		-23.448		-72.8719	-28.9633	146.764	
	-3.54662	19.3538		-28.9621	146.746		-22.8951	-51.0617
5.24	-25.0393	-37.849		-3.63766	13.0934		-3.54623	13.9221
	-3.63886	13.1153		-23.932		-79.0183	-28.6437	144.756	
	-3.54749	13.9394		-28.6374	144.774		-23.5058	-56.3692
5.28	-24.8465	-35.5491	-3.64293	7.67112		-3.55028	8.50517	
	-3.64488	7.6951		-24.505		-85.329		-28.365		142.517
	-3.5513		8.52638		-28.3603	142.505		-24.2299	-61.6406
5.32	-24.5781	-33.5865	-3.64751	2.24916		-3.55213	3.08914
	-3.65046	2.27561		-25.1633	-92.0837	-28.1257	140.013	
	-3.55493	3.10821	  	-28.1232	140.033		-25.0892	-67.1889
5.36	-24.2408	-32.1417	-3.65081	-3.16621	-3.55252	-2.32276
	-3.65363	-3.14552	-25.9244	-99.356		-27.9233	137.358
	-3.5565		-2.30836	-27.9256	137.371		-26.1083	-73.0606
5.4	-23.8679	-31.3706	-3.65573	-8.58191	-3.55566	-7.73707	
	-3.6581		-8.55877	-26.7975	-107.387	-27.7712	134.603
	-3.56049	-7.71723	-27.7698	134.634		-27.3193	-79.4054
5.44	-23.4718	-31.2697	-3.66098	-13.9868	-3.55904	-13.1429		
	-3.66163	-13.9729	-27.7696	-116.544	-27.6538	131.817	
	-3.56276	-13.1317	-27.6556	131.898		-28.7812	-86.5443
5.48	-23.0792	-31.7578	-3.66575	-19.3946	-3.56241	-18.5475	
	-3.66551	-19.3931	-28.8364	-127.024	-27.5765	129.043
	-3.56478	-18.5475	-27.5779	129.075		-30.5504	-94.9487
5.52	-22.6938	-32.8161	-3.67245	-24.8063	-3.56743	-23.9578	
	-3.6729		-24.8031	-29.9486	-139.175	-27.5257	126.277	
	-3.56977	-23.9575	-27.5268	126.324		-32.7349	-105.902
5.56	-22.3432	-34.4261	-3.67704	-30.2222	-3.57133	-29.3706	
	-3.67947	-30.2198	-31.015		-153.531	-27.5065	123.518	
	-3.57429	-29.3698	-27.5119	123.57		-35.304		-122.418
5.6	-22.028		-36.5739	-3.68151	-35.6334	-3.57484	-34.788	
	-3.68607	-35.6282	-31.8753	-170.35		-27.5175	120.819
