! MARKI MICROWAVE INC.
! Email:             	info@markimicrowave.com   				Phone:   408-778-4200
! Model Number:      	PD_0530SM						Date:    07/14
! Filename:		PD_0530SM.S3P						Version: 1.0
! Description:       	3-port S-parameter data for Power Divider PD_0530SM
! Frequency Range: 	10 MHz to 30 GHz		
! Port Configuration:	PORT 1: Common, PORT 2 and Port 3: Output


! S3P File: Measurements: Mag<S11> Ang<S11> Mag<S12> Ang<S12> Mag<S13> Ang<S13> ! row 1 
!			  Mag<S21> Ang<S21> Mag<S22> Ang<S22> Mag<S23> Ang<S23> ! row 2 
!			  Mag<S31> Ang<S31> Mag<S32> Ang<S32> Mag<S33> Ang<S33> ! row 3 
			  
# Hz S  dB   R 50
10000000 -9.7774315 173.1741 -3.5579436 -4.7556915 -3.5654809 -5.1487284
-3.5600424 -4.8997984 -9.8110323 169.73207 -3.6258831 -6.5550818
-3.5712686 -5.1392074 -3.6129522 -6.4147525 -9.8445997 169.57034
47487500 -9.7943888 172.35513 -3.5664821 -6.3377957 -3.5711792 -6.6511884
-3.5689602 -6.4542489 -9.8551674 167.57411 -3.6408083 -8.7630348
-3.5760734 -6.643086 -3.6296899 -8.6493111 -9.8789568 167.45889
84975000 -9.8107004 171.29204 -3.5749047 -8.2585192 -3.5785828 -8.484129
-3.5763986 -8.3471947 -9.9042997 164.90834 -3.6570435 -11.425429
-3.5823483 -8.470768 -3.6487226 -11.330179 -9.9157286 164.82785
122462500 -9.8318834 169.97607 -3.583262 -10.504852 -3.5858619 -10.646141
-3.5858579 -10.55524 -9.9584808 161.70943 -3.6761649 -14.548836
-3.588886 -10.624665 -3.6700563 -14.477047 -9.9589005 161.68861
159950000 -9.8528652 168.40732 -3.592936 -13.079259 -3.5943022 -13.138095
-3.5957057 -13.093911 -10.016162 157.98039 -3.6972835 -18.123232
-3.5958214 -13.116821 -3.6927018 -18.079762 -10.006534 158.02576
197437500 -9.8750381 166.58496 -3.6031148 -15.981948 -3.602421 -15.957602
-3.6051362 -15.965382 -10.079518 153.73544 -3.7204099 -22.153042
-3.6032686 -15.939896 -3.7192287 -22.137384 -10.057464 153.85101
234925000 -9.8984566 164.37032 -3.6095393 -18.932377 -3.6062016 -18.909737
-3.6116319 -18.921541 -10.122484 149.11403 -3.7394404 -26.259438
-3.6076965 -18.89448 -3.7392151 -26.236372 -10.098196 149.25586
272412500 -9.9163818 162.11467 -3.6145999 -21.893349 -3.6097085 -21.875732
-3.6175849 -21.885231 -10.160319 144.43637 -3.7586069 -30.376009
-3.6130126 -21.863529 -3.758677 -30.346405 -10.137393 144.61829
309900000 -9.9334335 159.86671 -3.6194406 -24.862713 -3.6117835 -24.840111
-3.6230283 -24.853865 -10.194069 139.77713 -3.7781975 -34.468716
-3.6167495 -24.831684 -3.7810142 -34.453503 -10.177083 139.96594
347387500 -9.9486341 157.60944 -3.6243455 -27.827635 -3.6156518 -27.810198
-3.6281016 -27.812454 -10.230676 135.12271 -3.7997041 -38.564697
-3.6215172 -27.7938 -3.8020005 -38.550941 -10.219755 135.32245
384875000 -9.9610329 155.3632 -3.6280293 -30.792433 -3.6214476 -30.776003
-3.6326604 -30.764917 -10.268275 130.46196 -3.8235955 -42.646778
-3.6261837 -30.758829 -3.8239696 -42.641594 -10.260936 130.67793
422362500 -9.9726429 153.10919 -3.6333456 -33.752743 -3.6266882 -33.745804
-3.6385705 -33.718052 -10.306811 125.80054 -3.8483715 -46.735943
-3.630424 -33.731392 -3.8465831 -46.739449 -10.302488 126.02924
459850000 -9.981905 150.86415 -3.6389327 -36.712292 -3.6317842 -36.714935
-3.643295 -36.6819 -10.346058 121.15831 -3.8738077 -50.809357
-3.6348121 -36.705914 -3.8712189 -50.816818 -10.343189 121.39117
497337500 -9.9898634 148.63028 -3.6444578 -39.672237 -3.6355693 -39.675018
-3.6481173 -39.642857 -10.385392 116.54497 -3.8998723 -54.877872
-3.6380336 -39.672646 -3.8974879 -54.892918 -10.386251 116.76844
534825000 -9.999753 146.39371 -3.6486099 -42.626789 -3.6404014 -42.640057
-3.6541779 -42.601723 -10.423317 111.93311 -3.9291904 -58.952633
-3.6422515 -42.63689 -3.9240024 -58.965065 -10.432096 112.14748
572312500 -10.004136 144.15482 -3.6515634 -45.58601 -3.6459367 -45.609634
-3.658241 -45.560078 -10.460842 107.29671 -3.9590049 -63.020702
-3.646661 -45.605675 -3.9519475 -63.038494 -10.473921 107.50346
609800000 -10.010081 141.90462 -3.6558881 -48.531662 -3.6507566 -48.572525
-3.6625299 -48.513603 -10.505759 102.65668 -3.989208 -67.084335
-3.6512721 -48.57095 -3.981962 -67.103333 -10.516567 102.8314
647287500 -10.013895 139.64917 -3.6592965 -51.470917 -3.6580145 -51.533913
-3.6669016 -51.456696 -10.554344 98.010468 -4.0220509 -71.16069
-3.656765 -51.522797 -4.012619 -71.166458 -10.556402 98.182182
684775000 -10.015401 137.37398 -3.6632588 -54.41724 -3.6635277 -54.502079
-3.6703725 -54.406445 -10.599902 93.339333 -4.0544767 -75.224411
-3.6612191 -54.492222 -4.0452065 -75.226578 -10.595246 93.526611
722262500 -10.015612 135.1087 -3.667968 -57.366608 -3.6673975 -57.457027
-3.6738117 -57.365032 -10.643886 88.673164 -4.0867715 -79.288048
-3.666579 -57.450512 -4.0798507 -79.290459 -10.635713 88.870956
759750000 -10.014769 132.83611 -3.6714566 -60.311085 -3.6706913 -60.409397
-3.6782289 -60.312565 -10.687504 83.985168 -4.1215234 -83.345055
-3.6702669 -60.408611 -4.1145921 -83.352974 -10.6789 84.215996
797237500 -10.013004 130.54819 -3.675735 -63.25676 -3.6749761 -63.359692
-3.6826248 -63.259655 -10.730138 79.291664 -4.1570382 -87.403259
-3.6747444 -63.363571 -4.1494956 -87.4133 -10.722969 79.524399
834725000 -10.013474 128.24496 -3.6790669 -66.202087 -3.6792324 -66.318993
-3.6858602 -66.207535 -10.773287 74.571571 -4.1947279 -91.465744
-3.6794608 -66.318428 -4.1880088 -91.465637 -10.763738 74.821754
872212500 -10.009266 125.94097 -3.6828551 -69.160629 -3.6846409 -69.269531
-3.6880224 -69.159233 -10.815722 69.858223 -4.2326159 -95.51165
-3.6839931 -69.267853 -4.2256227 -95.520088 -10.800874 70.114716
909700000 -10.009251 123.63384 -3.6871424 -72.110603 -3.6879504 -72.208992
-3.6918311 -72.112053 -10.859833 65.148041 -4.2726774 -99.557571
-3.6874955 -72.207451 -4.2664008 -99.565277 -10.843 65.405441
947187500 -10.007603 121.31435 -3.6901195 -75.066864 -3.69261 -75.153969
-3.6946933 -75.061501 -10.899559 60.436996 -4.3148422 -103.59657
-3.6904783 -75.150764 -4.3076105 -103.6071 -10.886238 60.71455
984675000 -10.004088 118.98853 -3.6933157 -78.022369 -3.6954813 -78.092911
-3.6964428 -78.016022 -10.938134 55.725719 -4.3572555 -107.62492
-3.6938279 -78.104301 -4.3501229 -107.64118 -10.929329 56.008083
1022162500 -10.000845 116.67982 -3.6961229 -80.966095 -3.6984673 -81.031464
-3.6988945 -80.9589 -10.977561 51.036228 -4.4020972 -111.65862
-3.6963797 -81.037766 -4.3944573 -111.66849 -10.972821 51.291389
1059650000 -9.9971972 114.34406 -3.6992159 -83.91301 -3.7020478 -83.979332
-3.7016165 -83.901054 -11.018559 46.323483 -4.4481907 -115.68349
-3.699141 -83.983154 -4.4398398 -115.69038 -11.013937 46.559277
1097137500 -9.9967251 112.00729 -3.7013836 -86.86087 -3.7052319 -86.922249
-3.702435 -86.844032 -11.059439 41.627422 -4.4960551 -119.70886
-3.7024474 -86.923973 -4.4879766 -119.7103 -11.052758 41.845112
1134625000 -9.9959116 109.66655 -3.7037218 -89.812424 -3.7078812 -89.865227
-3.7038519 -89.797371 -11.098645 36.930367 -4.5452232 -123.71825
-3.7052743 -89.865814 -4.5382023 -123.71753 -11.090227 37.129131
1172112500 -9.9929476 107.32388 -3.7066655 -92.761856 -3.7104931 -92.803375
-3.7068946 -92.749718 -11.137553 32.246677 -4.5943279 -127.72032
-3.7094941 -92.804092 -4.5883579 -127.72272 -11.128709 32.411053
1209600000 -9.9884825 104.9751 -3.7091761 -95.701439 -3.7118073 -95.745041
-3.7091391 -95.686218 -11.178544 27.541073 -4.6439142 -131.72112
-3.7122042 -95.745338 -4.6406693 -131.72408 -11.168484 27.692444
1247087500 -9.9834986 102.60521 -3.7111194 -98.640831 -3.7149198 -98.690735
-3.7103469 -98.626968 -11.218146 22.843307 -4.6944823 -135.72586
-3.7164562 -98.695023 -4.6927519 -135.72482 -11.203829 22.974527
1284575000 -9.97824 100.22736 -3.713378 -101.57778 -3.7185366 -101.63316
-3.7122931 -101.57178 -11.258865 18.144268 -4.746973 -139.72424
-3.7203526 -101.63398 -4.7458873 -139.71397 -11.23626 18.262995
1322062500 -9.9741144 97.862083 -3.715246 -104.52523 -3.7211337 -104.58331
-3.7152832 -104.51001 -11.299596 13.44041 -4.8006024 -143.71208
-3.7237892 -104.5751 -4.799757 -143.70374 -11.271054 13.564796
1359550000 -9.970542 95.477562 -3.7171793 -107.47578 -3.7235196 -107.51999
-3.7173924 -107.46261 -11.340837 8.737834 -4.8552928 -147.68951
-3.7274606 -107.51849 -4.8557377 -147.69151 -11.303944 8.8697205
1397037500 -9.9712296 93.08046 -3.7181406 -110.4204 -3.7255208 -110.45917
-3.7192152 -110.41611 -11.378707 4.0322485 -4.9117436 -151.66753
-3.7309363 -110.45815 -4.913034 -151.66481 -11.338649 4.1707907
1434525000 -9.9687004 90.677292 -3.720907 -113.3597 -3.7267525 -113.39687
-3.7222829 -113.36512 -11.415393 -0.67147458 -4.9678183 -155.63559
-3.733777 -113.39432 -4.9709949 -155.62404 -11.375664 -0.55603981
1472012500 -9.9634933 88.256859 -3.7216191 -116.29797 -3.7289801 -116.33148
-3.7237215 -116.30399 -11.452771 -5.3769979 -5.0260797 -159.61165
-3.7368624 -116.32738 -5.0302997 -159.59579 -11.406436 -5.2550893
1509500000 -9.9612465 85.821037 -3.7215505 -119.24129 -3.73104 -119.26983
-3.7240796 -119.24625 -11.489206 -10.097675 -5.0868821 -163.57108
-3.7382231 -119.26972 -5.0900016 -163.5547 -11.434834 -9.952282
1546987500 -9.9625826 83.37104 -3.722147 -122.18575 -3.7333157 -122.20461
-3.7249293 -122.19651 -11.522932 -14.812613 -5.1499567 -167.52588
-3.7400663 -122.20344 -5.1516953 -167.50121 -11.461276 -14.630747
1584475000 -9.9646339 80.926025 -3.7240777 -125.12877 -3.7350657 -125.14011
-3.7263589 -125.14312 -11.557013 -19.515369 -5.2132139 -171.46173
-3.7408929 -125.13299 -5.2146511 -171.43391 -11.490156 -19.292692
1621962500 -9.9673996 78.482368 -3.725256 -128.07977 -3.7353113 -128.06506
-3.7278275 -128.08757 -11.588177 -24.189665 -5.2773409 -175.38513
-3.7424817 -128.06111 -5.2791643 -175.36801 -11.518383 -23.949842
1659450000 -9.9722662 76.007599 -3.7246845 -131.01837 -3.7371783 -130.99129
-3.7282567 -131.03265 -11.616965 -28.854527 -5.3439746 -179.31516
-3.7429008 -130.98631 -5.3450046 -179.29428 -11.544909 -28.602154
1696937500 -9.9762774 73.526237 -3.7257106 -133.95757 -3.7378013 -133.92528
-3.7297809 -133.9716 -11.6438 -33.512051 -5.4099512 176.76614
-3.7441204 -133.91666 -5.4102607 176.79364 -11.570601 -33.240852
1734425000 -9.9784908 71.04705 -3.7264321 -136.90613 -3.7378619 -136.85802
-3.7292302 -136.92168 -11.670225 -38.137962 -5.4769764 172.85832
-3.7436178 -136.84471 -5.4779439 172.8936 -11.593184 -37.852898
1771912500 -9.9851799 68.571869 -3.7263885 -139.85442 -3.7395666 -139.79182
-3.7296345 -139.86821 -11.69529 -42.749146 -5.5455694 168.96603
-3.7435896 -139.7757 -5.5462999 168.99892 -11.616441 -42.429092
1809400000 -9.9923191 66.079849 -3.7274969 -142.80209 -3.7391796 -142.72958
-3.7305522 -142.82008 -11.718288 -47.341812 -5.6144619 165.07649
-3.7430427 -142.71074 -5.6145058 165.10921 -11.643646 -47.000435
1846887500 -9.9989071 63.600681 -3.7285573 -145.74677 -3.7381542 -145.66356
-3.7318704 -145.76472 -11.739589 -51.889034 -5.6836934 161.18649
-3.7424576 -145.63989 -5.683496 161.22479 -11.669181 -51.559864
1884375000 -10.004176 61.095161 -3.729784 -148.68849 -3.737222 -148.59749
-3.7332962 -148.70584 -11.761208 -56.417679 -5.7541604 157.31445
-3.7411127 -148.57341 -5.7544479 157.35202 -11.694642 -56.120876
1921862500 -10.012885 58.573994 -3.7299311 -151.6337 -3.7363615 -151.53441
-3.734252 -151.64734 -11.779481 -60.939426 -5.8259759 153.4456
-3.740829 -151.51067 -5.8252673 153.48236 -11.715545 -60.664265
1959350000 -10.020876 56.05006 -3.7298567 -154.57741 -3.7362049 -154.4747
-3.7340693 -154.59099 -11.798858 -65.447731 -5.8981876 149.58176
-3.7396164 -154.44629 -5.8973203 149.62187 -11.734315 -65.173721
1996837500 -10.031346 53.527279 -3.7312796 -157.52678 -3.7352734 -157.41267
-3.7348883 -157.54099 -11.818957 -69.945946 -5.969676 145.7368
-3.739408 -157.38969 -5.9689198 145.77718 -11.753204 -69.658409
2034325000 -10.042745 51.015717 -3.7319376 -160.47618 -3.7348537 -160.34708
-3.734946 -160.48795 -11.8403 -74.414787 -6.0421562 141.89413
-3.7377388 -160.32797 -6.0412931 141.93425 -11.776729 -74.115875
2071812500 -10.05545 48.495995 -3.7327552 -163.41704 -3.7347691 -163.28534
-3.736536 -163.42197 -11.86032 -78.848351 -6.1152163 138.05528
-3.7370892 -163.27199 -6.1145039 138.08546 -11.798519 -78.547821
2109300000 -10.066628 45.961369 -3.7331052 -166.36778 -3.7332482 -166.22574
-3.7368996 -166.3696 -11.880087 -83.268188 -6.1893606 134.22285
-3.7357879 -166.21367 -6.1880226 134.24365 -11.817643 -82.976906
2146787500 -10.080512 43.443455 -3.7336111 -169.31242 -3.7322521 -169.16089
-3.737273 -169.3107 -11.90248 -87.670204 -6.2631464 130.40469
-3.7345607 -169.15805 -6.2630754 130.42404 -11.838465 -87.360168
2184275000 -10.09328 40.904499 -3.7337356 -172.25673 -3.7328818 -172.10034
-3.738307 -172.25443 -11.923836 -92.067604 -6.3381262 126.5974
-3.7346237 -172.10345 -6.3374691 126.61226 -11.860723 -91.722778
2221762500 -10.109574 38.381611 -3.7335958 -175.2038 -3.73121 -175.04114
-3.7384999 -175.20432 -11.945552 -96.429688 -6.4125896 122.78312
-3.7349775 -175.04468 -6.4126258 122.79477 -11.886307 -96.061462
2259250000 -10.122858 35.846554 -3.734283 -178.15268 -3.7290814 -177.97626
-3.7391212 -178.14514 -11.969402 -100.75872 -6.4874921 118.98497
-3.7322836 -177.98492 -6.4872932 118.98872 -11.914465 -100.38293
2296737500 -10.138736 33.309849 -3.7358615 178.90404 -3.7273679 179.07634
-3.7406249 178.9095 -11.992197 -105.06976 -6.5635734 115.19312
-3.7305002 179.06712 -6.5635991 115.19231 -11.943785 -104.70253
2334225000 -10.153723 30.781771 -3.736542 175.96336 -3.7263765 176.13245
-3.7403128 175.9655 -12.01561 -109.3597 -6.6409216 111.39713
-3.7286627 176.12923 -6.6408687 111.40252 -11.969331 -108.99055
2371712500 -10.172165 28.23522 -3.7368667 173.01753 -3.7245798 173.18854
-3.7406781 173.01877 -12.036554 -113.62119 -6.7191982 107.61859
-3.7275949 173.18773 -6.7203808 107.62459 -11.993591 -113.24345
2409200000 -10.190971 25.687159 -3.7369225 170.06618 -3.7219615 170.24966
-3.7413864 170.06554 -12.059193 -117.87053 -6.7982116 103.85771
-3.7255969 170.24957 -6.7977633 103.86076 -12.021795 -117.47742
2446687500 -10.212568 23.137545 -3.7380404 167.12424 -3.719455 167.31436
-3.7426579 167.12115 -12.080449 -122.09889 -6.8760848 100.10854
-3.7242947 167.31172 -6.8767681 100.11022 -12.051078 -121.67779
2484175000 -10.234556 20.576345 -3.7379918 164.18184 -3.7167161 164.37434
-3.7437837 164.17194 -12.100075 -126.28259 -6.9563832 96.356987
-3.7210507 164.37502 -6.954854 96.361031 -12.08003 -125.87263
2521662500 -10.260646 18.001787 -3.7390816 161.23254 -3.7135949 161.43024
-3.743504 161.22229 -12.124959 -130.43811 -7.0354705 92.618546
-3.7173126 161.44206 -7.0350175 92.615479 -12.110314 -130.04929
2559150000 -10.285887 15.434221 -3.7392037 158.28415 -3.7116599 158.48473
-3.7439198 158.2796 -12.147161 -134.58279 -7.1157751 88.900818
-3.7136855 158.4951 -7.1143723 88.891571 -12.140412 -134.19885
2596637500 -10.310853 12.891214 -3.7389202 155.33965 -3.708663 155.53519
-3.7435889 155.32692 -12.170043 -138.69733 -7.1947579 85.174286
-3.7119281 155.54266 -7.1953192 85.169098 -12.172659 -138.30504
2634125000 -10.336146 10.356642 -3.7380683 152.39143 -3.7048061 152.59023
-3.7430778 152.37979 -12.194086 -142.77541 -7.2723141 81.455086
-3.7090707 152.60104 -7.273221 81.457664 -12.208479 -142.4006
2671612500 -10.362219 7.7965107 -3.7375886 149.43991 -3.7000592 149.64966
-3.7433271 149.42993 -12.21874 -146.80295 -7.3507204 77.749939
-3.705158 149.64948 -7.3517933 77.746407 -12.248358 -146.47496
2709100000 -10.386996 5.2299485 -3.7383375 146.49359 -3.696718 146.70187
-3.7440412 146.48222 -12.247297 -150.83653 -7.42875 74.042297
-3.7019322 146.69493 -7.4310088 74.041794 -12.289211 -150.56349
2746587500 -10.412506 2.6677036 -3.7389541 143.55557 -3.6938701 143.74815
-3.745018 143.54341 -12.277493 -154.84296 -7.5082231 70.339577
-3.7000895 143.74429 -7.5115418 70.352463 -12.329623 -154.63126
2784075000 -10.438496 0.12226626 -3.7387018 140.60919 -3.6905992 140.78786
-3.7441785 140.60147 -12.309612 -158.82394 -7.5887709 66.648338
-3.6958604 140.78445 -7.5911951 66.663277 -12.370516 -158.65884
2821562500 -10.465539 -2.4314301 -3.7393079 137.66057 -3.6885695 137.8311
-3.7433076 137.6604 -12.34504 -162.79005 -7.6684465 62.970261
-3.6939228 137.82845 -7.6723399 62.978653 -12.415946 -162.68127
2859050000 -10.492382 -4.9650769 -3.7391663 134.72017 -3.6848345 134.87711
-3.7424562 134.72408 -12.380434 -166.74232 -7.7485919 59.296486
-3.6912303 134.87173 -7.7525315 59.310223 -12.464456 -166.68011
2896537500 -10.518559 -7.4998169 -3.7400758 131.77713 -3.6814609 131.92061
-3.7423251 131.77361 -12.420248 -170.66124 -7.8266573 55.620773
-3.6874609 131.91402 -7.8318963 55.640602 -12.515979 -170.66893
2934025000 -10.546979 -10.056965 -3.7407372 128.83818 -3.679657 128.96413
-3.7415197 128.83275 -12.462619 -174.57529 -7.9074683 51.959652
-3.6840785 128.95882 -7.9121323 51.974689 -12.568696 -174.6505
2971512500 -10.576766 -12.605179 -3.7403164 125.89559 -3.6780138 126.00358
-3.7400756 125.89478 -12.507819 -178.4812 -7.9874716 48.309776
-3.6820714 126.00139 -7.993495 48.32085 -12.619927 -178.61003
3009000000 -10.606136 -15.124899 -3.740479 122.94971 -3.6760125 123.04066
-3.7395313 122.95277 -12.555676 177.61893 -8.0683365 44.663643
-3.6799881 123.0437 -8.0747986 44.671314 -12.675936 177.44766
3046487500 -10.639131 -17.644846 -3.7386413 120.01104 -3.6731563 120.07458
-3.7385342 120.00808 -12.602784 173.75432 -8.1491423 41.025223
-3.6773703 120.08617 -8.1528988 41.036453 -12.733406 173.53844
3083975000 -10.669307 -20.151299 -3.7371526 117.06425 -3.6698949 117.11121
-3.7367749 117.05883 -12.651356 169.89001 -8.2266321 37.394638
-3.6737452 117.12149 -8.2309666 37.395645 -12.796028 169.61063
3121462500 -10.699457 -22.667986 -3.7351415 114.1192 -3.668673 114.15172
-3.7347844 114.10806 -12.703674 166.04251 -8.3053122 33.766613
-3.6721122 114.16216 -8.3103466 33.766426 -12.859441 165.67442
3158950000 -10.730281 -25.173489 -3.7325387 111.1708 -3.6658089 111.18793
-3.7333851 111.1625 -12.757351 162.19583 -8.384244 30.150881
-3.669194 111.19054 -8.3876009 30.143145 -12.919503 161.75255
3196437500 -10.762078 -27.690071 -3.7305334 108.22145 -3.6639519 108.22474
-3.7330279 108.20987 -12.813063 158.3631 -8.4628401 26.530859
-3.6668484 108.22516 -8.4655199 26.520123 -12.984277 157.85344
3233925000 -10.795147 -30.194084 -3.7284405 105.27653 -3.661782 105.254
-3.7328668 105.26759 -12.869653 154.53357 -8.5425854 22.91716
-3.665859 105.25708 -8.5435352 22.913071 -13.049852 153.97205
3271412500 -10.827911 -32.679657 -3.7262118 102.32102 -3.659487 102.28854
-3.7318094 102.32203 -12.927961 150.71941 -8.6203947 19.314289
-3.6635997 102.29606 -8.6213865 19.31238 -13.119745 150.09357
3308900000 -10.860299 -35.170654 -3.7257497 99.371788 -3.656986 99.327179
-3.7311833 99.364586 -12.987208 146.91806 -8.7005806 15.711703
-3.6599481 99.325729 -8.6990423 15.706491 -13.194393 146.21115
3346387500 -10.894064 -37.682224 -3.723774 96.427032 -3.6553707 96.360298
-3.7298031 96.416092 -13.050525 143.13205 -8.778717 12.114385
-3.6575828 96.354805 -8.7755623 12.107288 -13.267959 142.32048
3383875000 -10.926888 -40.160542 -3.7222774 93.469078 -3.6532187 93.392097
-3.7289586 93.464172 -13.117303 139.34369 -8.8563204 8.5202923
-3.6549485 93.381996 -8.8532944 8.5057573 -13.343315 138.42819
3421362500 -10.961013 -42.642792 -3.7213206 90.514053 -3.6516905 90.42469
-3.7271209 90.513153 -13.187667 135.57283 -8.9347439 4.931221
-3.6515865 90.409645 -8.9297085 4.9149132 -13.42043 134.56075
3458850000 -10.995974 -45.111824 -3.7204127 87.56237 -3.6481164 87.453583
-3.7268736 87.564674 -13.263061 131.80495 -9.0111485 1.3400695
-3.6488678 87.437729 -9.0051985 1.3250611 -13.505548 130.68942
3496337500 -11.029918 -47.565586 -3.7200394 84.610825 -3.6449714 84.478333
-3.724575 84.613487 -13.336275 128.06122 -9.087533 -2.2465453
-3.6464398 84.470032 -9.0837765 -2.255589 -13.59341 126.82685
3533825000 -11.060975 -50.00317 -3.7187326 81.659378 -3.6426096 81.506706
-3.7228839 81.658066 -13.413416 124.3169 -9.1631899 -5.83178
-3.6439631 81.49736 -9.1599741 -5.8347402 -13.682495 122.92686
3571312500 -11.093735 -52.427433 -3.7177486 78.702843 -3.6399462 78.539612
-3.719573 78.701736 -13.495541 120.57594 -9.2384996 -9.4002457
