! MARKI MICROWAVE INC.
! Email:             	info@markimicrowave.com   				Phone:   408-778-4200
! Model Number:      	PD0R426							Date:    07/11
! Filename:		PD-0R426.S3P						Version: 1.0
! Description:       	3-port S-parameter data for Power Divider PD0R426
! Frequency Range: 	0.4 GHz to 26 GHz		
! Port Configuration:	PORT 1: COMMON, PORT 2 and Port 3: Output


! S3P File: Measurements: Mag<S11> Ang<S11> Mag<S12> Ang<S12> Mag<S13> Ang<S13>! row 1 
!			  Mag<S21> Ang<S21> Mag<S22> Ang<S22> Mag<S23> Ang<S23>! row 2 
!			  Mag<S31> Ang<S31> Mag<S32> Ang<S32> Mag<S33> Ang<S33>! row 3 


# GHz S DB R 50

0.4	-16.9488	46.988		-3.2912		-112.952	-3.30193	-112.945
	-3.2929		-112.947	-21.1408	95.3581		-12.579		-114.622
	-3.30231	-112.946	-12.5792	-114.603	-21.0204	94.1478
0.5	-22.624		-6.521		-3.19778	-141.901	-3.21133	-141.878
	-3.19995	-141.887	-20.8241	83.1671		-15.4212	-131.769	
	-3.21233	-141.87		-15.422		-131.747	-20.6985	81.5914
0.6	-25.8535	-83.3792	-3.19671	-170.945	-3.21273	-170.902
	-3.19925	-170.928	-20.5578	64.7619		-18.101		-140.796
	-3.2141		-170.891	-18.1016	-140.767	-20.4116	62.9551
0.7	-26.1769	-162.308	-3.21712	160.128		-3.2352		160.195
	-3.21969	160.15		-20.9829	43.2201		-19.8788	-144.909
	-3.23674	160.212		-19.8802	-144.872	-20.7914	41.1204
0.8	-23.1221	126.901		-3.21791	131.348		-3.23769	131.443	
	-3.2203		131.374		-22.3286	21.5795		-20.6207	-149.355
	-3.23933	131.464		-20.6224	-149.313	-22.0743	19.0146
0.9	-20.3532	85.8912		-3.25975	102.692		-3.28054	102.818
	-3.26165	102.715		-24.7687	4.37735		-20.8459	-158.909
	-3.28159	102.837		-20.8479	-158.873	-24.4584	0.902798
1	-20.3472	49.6164		-3.27905	74.0838		-3.29998	74.2353
	-3.28049	74.1051		-27.6785	-3.11155	-21.546		-172.819
	-3.3007		74.2535		-21.5477	-172.792	-27.4149	-7.84982
1.1	-22.2732	6.57082		-3.26141	45.4275		-3.28369	45.5893
	-3.26257	45.4498		-29.7971	-1.75319	-23.0945	174.53	
	-3.28407	45.6085		-23.0953	174.556		-29.6927	-7.43553
1.2	-24.8758	-53.5529	-3.29383	16.7572		-3.31838	16.9696	
	-3.29445	16.782		-30.4364	1.41053		-24.9116	169.33	
	-3.31809	16.9899		-24.9116	169.375		-30.5094	-3.85737
1.3	-25.6605	-122.269	-3.31845	-11.8887	-3.34228	-11.6472
	-3.31937	-11.8615	-29.8494	-2.95189	-25.8336	169.716
	-3.34188	-11.6257	-25.8337	169.759		-29.9547	-7.41083
1.4	-24.29		171.171		-3.31367	-40.5076	-3.33714	-40.2322
	-3.31489	-40.4834	-29.3784	-19.4636	-25.5843	169.499	
	-3.33712	-40.2146	-25.5855	169.541		-29.3738	-23.0255
1.5	-21.693		118.419		-3.34755	-69.1025	-3.36684	-68.8101
	-3.34912	-69.0806	-29.9861	-45.5996	-24.5827	162.805
	-3.36667	-68.7937	-24.5838	162.842		-29.7653	-48.5125
1.6	-20.2029	78.9261		-3.37062	-97.6781	-3.39042	-97.3733
	-3.37187	-97.6594	-31.7407	-78.6477	-24.0144	148.988
	-3.39025	-97.3583	-24.0156	149.021		-31.4452	-80.0926
1.7	-20.4321	41.1065		-3.35454	-126.254	-3.374		-125.927
	-3.35618	-126.236	-34.1447	-118.346	-24.3937	134.023
	-3.37439	-125.914	-24.3954	134.059		-34.1122	-116.861
1.8	-22.5027	-2.5983		-3.37578	-154.875	-3.39486	-154.53
	-3.37789	-154.855	-36.9666	-161.735	-25.418		123.584	
	-3.39566	-154.515	-25.4204	123.614		-38.0174	-157.514
1.9	-24.9069	-61.5372	-3.39034	176.472		-3.4093		176.831	
	-3.39315	176.492		-41.3719	155.371		-26.1935	118.942
	-3.41086	176.845		-26.1968	118.97		-44.4478	136.606
2	-25.5236	-129.721	-3.37927	147.772		-3.39927	148.145
	-3.38269	147.792		-46.0439	155.504		-26.1404	116.527
	-3.40087	148.16		-26.1432	116.557		-46.0757	46.7042
2.1	-24.3808	163.046		-3.42413	119.063		-3.44777	119.447	
	-3.4277		119.086		-45.8389	172.536		-25.2438	111.302	
	-3.44945	119.465		-25.2463	111.341		-44.6468	-41.7006
2.2	-21.8841	107.757		-3.47273	90.4778		-3.49882	90.925
	-3.47629	90.5021		-42.749		-167.358	-24.1774	100.07
	-3.50061	90.9441		-24.1802	100.113		-39.051		-116.816
2.3	-20.2764	65.294		-3.47709	62.001		-3.49945	62.486
	-3.48064	62.0266		-35.4802	-165.813	-23.6113	84.9865
	-3.50141	62.5075		-23.6146	85.0282		-34.0742	-149.386
2.4	-20.3603	26.4597		-3.50502	33.5483		-3.5241		34.0618
	-3.5088		33.5762		-31.6054	166.601		-23.7031	69.3368
	-3.52618	34.0849		-23.7062	69.386		-31.5554	-177.694
2.5	-21.9811	-13.6378	-3.50717	5.05768		-3.52013	5.56857
	-3.51084	5.089		-29.6714	141.677		-24.3098	56.2701
	-3.52232	5.5952		-24.3131	56.3262		-30.1797	156.976
2.6	-24.7171	-64.0416	-3.47364	-23.5812	-3.48895	-23.0798
	-3.47725	-23.5464	-29.0813	117.713		-24.9299	47.577	
	-3.49137	-23.0504	-24.9334	47.6378		-30.1644	132.575
2.7	-26.6748	-128.462	-3.49248	-52.2981	-3.50967	-51.7776
	-3.49593	-52.2596	-30.3159	98.0846		-25.0327	41.8138
	-3.51194	-51.7441	-25.0357	41.8757		-31.9064	116.564
2.8	-26.6267	163.6		-3.5165		-81.0009	-3.53448	-80.4594
	-3.51946	-80.9609	-32.5713	93.8337		-24.4043	35.3621
	-3.536		-80.4234	-24.4058	35.4313		-33.6966	117.309
2.9	-24.5106	102.319		-3.51507	-109.675	-3.53323	-109.114
	-3.51801	-109.632	-33.4111	102.37		-23.3213	24.4836
	-3.53436	-109.077	-23.3202	24.548		-33.7546	126.081
3	-22.1824	56.8427		-3.5554		-138.299	-3.57395	-137.726
	-3.55804	-138.25		-32.2476	112.224		-22.4724	7.82605	
	-3.57475	-137.685	-22.4719	7.89567		-31.888		132.824
3.1	-21.2544	21.0983		-3.58555	-166.861	-3.60615	-166.273
	-3.58731	-166.81		-29.3565	111.84		-22.4098	-11.7508
	-3.60667	-166.233	-22.4101	-11.6828	-28.9931	125.619
3.2	-21.8624	-12.4237	-3.57495	164.581		-3.59853	165.204	
	-3.57595	164.632		-27.0742	95.5902		-23.3103	-30.2231
	-3.59828	165.243		-23.3107	-30.1476	-27.4399	106.534
3.3	-24.8194	-48.9014	-3.5956		135.996		-3.61835	136.655
	-3.59637	136.042		-26.7461	73.3419		-24.8624	-41.449
	-3.61794	136.691		-24.8618	-41.3768	-27.8422	85.2326
3.4	-29.06		-110.77		-3.60827	107.378		-3.62923	108.064
	-3.60908	107.421		-28.5383	53.3617		-25.7995	-45.173	
	-3.62841	108.097		-25.7976	-45.104		-30.2855	71.0858
3.5	-30.0429	174.612		-3.59012	78.7078		-3.60787	79.4052
	-3.59113	78.7489		-32.0939	50.9627		-25.5672	-47.1912	
	-3.6074		79.4368		-25.5651	-47.1279	-32.9062	76.8273
3.6	-28.5663	101.425		-3.61669	50.0065		-3.6343		50.6978
	-3.61766	50.045		-33.5812	66.3987		-24.2565	-54.3504
	-3.634		50.7278		-24.2556	-54.2906	-33.183		91.4915
3.7	-24.0901	46.7473		-3.64557	21.3507		-3.66471	22.0504
	-3.64678	21.3873		-32.6145	83.1332		-23.0515	-70.6974
	-3.66486	22.0791		-23.0513	-70.639		-31.1246	103.374
3.8	-21.406		15.5106		-3.64017	-7.26802	-3.66112	-6.55732
	-3.64134	-7.23394	-29.2018	89.9701		-22.89		-91.6597
	-3.66135	-6.53017	-22.8912	-91.6027	-27.5813	99.072
3.9	-20.9411	-12.9356	-3.66529	-35.8826	-3.68946	-35.1541
	-3.66738	-35.855		-26.411		74.5005		-24.0937	-110.658
	-3.69035	-35.1339	-24.0958	-110.608	-25.5879	80.0551
4	-22.4913	-42.1396	-3.68288	-64.5083	-3.71066	-63.7446
	-3.68561	-64.4831	-25.8065	56.3176		-25.9064	-119.923
	-3.71211	-63.726		-25.9086	-119.871	-25.3504	60.1697
4.1	-26.7555	-88.7523	-3.6672		-93.1828	-3.6946		-92.3654
	-3.67019	-93.1552	-26.6592	44.1329		-26.7606	-120.632
	-3.69673	-92.3447	-26.7614	-120.571	-26.4917	45.9283
4.2	-28.7965	-160.731	-3.69291	-121.899	-3.71613	-121.042	
	-3.6961		-121.872	-27.5863	43.5037		-26.0585	-121.062
	-3.71876	-121.022	-26.0597	-121.008	-27.8294	43.4305
4.3	-28.1191	125.257		-3.72284	-150.584	-3.74033	-149.712	
	-3.72584	-150.557	-27.256		48.642		-24.2648	-129.807	
	-3.74275	-149.693	-24.2663	-129.756	-27.9559	47.9421
4.4	-24.1582	58.7932		-3.72239	-179.237	-3.7361		-178.377
	-3.72565	-179.214	-25.5409	51.715		-22.9464	-149.597
	-3.73855	-178.364	-22.9483	-149.549	-26.6195	51.5446
4.5	-20.2722	23.9174		-3.75401	152.151		-3.76819	152.991
	-3.75768	152.168		-23.1643	45.1402		-23.26		-173.374
	-3.7705		152.999		-23.2632	-173.336	-24.4408	46.1207
4.6	-19.2624	-3.88639	-3.77491	123.568		-3.79167	124.401	
	-3.77938	123.581		-21.6832	30.6073		-25.1765	168.863	
	-3.79469	124.405		-25.1816	168.898		-23.0336	32.2159
4.7	-20.4676	-31.4814	-3.75166	94.9349		-3.77209	95.7681	
	-3.75715	94.9524		-21.4406	15.0148		-27.1633	164.904
	-3.77625	95.7771		-27.1682	164.925		-22.896		16.8375
4.8	-25.6993	-74.9786	-3.7612		66.1987		-3.78636	67.0449
	-3.76731	66.223		-22.3148	4.23203		-27.4894	167.638	
	-3.79121	67.0615		-27.4941	167.665		-23.9634	6.77425
4.9	-28.0533	-153.107	-3.7812		37.4099		-3.81012	38.2845	
	-3.78728	37.4428		-23.3815	2.40697		-26.0719	167.372	
	-3.81531	38.3108		-26.0767	167.4		-25.1432	6.98948
5	-27.2844	128.136		-3.78252	8.62152		-3.81275	9.53424
	-3.78832	8.66131		-23.5764	6.78747		-23.8328	154.494
	-3.81777	9.56827		-23.8377	154.543		-25.2204	13.6513
5.1	-23.019		51.5746		-3.82792	-20.0868	-3.8566		-19.1457
	-3.83272	-20.0454	-22.5539	10.8497		-22.9182	130.724
	-3.86089	-19.1079	-22.9239	130.779		-23.8938	19.196
5.2	-18.6158	18.6267		-3.86705	-48.6742	-3.89414	-47.7175
	-3.87188	-48.6302	-20.8695	8.15358		-23.8501	106.927
	-3.89789	-47.6776	-23.8561	106.982		-21.8612	16.3996
5.3	-17.7382	-9.68499	-3.8559		-77.2334	-3.88269	-76.2732
	-3.86116	-77.1864	-19.6578	-1.46697	-26.2148	93.3206
	-3.88647	-76.2307	-26.2201	93.3767		-20.4667	5.80275
5.4	-19.5283	-39.9626	-3.86129	-105.877	-3.89005	-104.908
	-3.86634	-105.826	-19.5151	-12.6936	-27.719		94.1098
	-3.89337	-104.862	-27.7238	94.1715		-20.2648	-6.08821
5.5	-24.193		-94.2961	-3.86676	-134.639	-3.89742	-133.651
	-3.87122	-134.582	-20.1778	-19.5686	-27.3549	97.8035	
	-3.90026	-133.6		-27.3582	97.8779		-20.8847	-13.2326
5.6	-25.583		-170.14		-3.8525		-163.5		-3.88416	-162.49	
	-3.85576	-163.442	-20.8173	-19.9329	-25.2444	95.1018	
	-3.88618	-162.437	-25.2469	95.1809		-21.4695	-13.7498
5.7	-24.5699	113.462		-3.8932		167.635		-3.92544	168.664
	-3.89533	167.692		-20.6503	-16.8182	-23.0636	76.7151	
	-3.92676	168.717		-23.0642	76.7917		-21.2395	-10.8335
5.8	-20.1225	49.0308		-3.94867	138.916		-3.98217	139.966	
	-3.94995	138.97		-19.6265	-15.8979	-22.6134	51.9203
	-3.98274	140.015		-22.6145	51.9883		-20.1565	-10.1914
5.9	-17.051		16.5976		-3.9645		110.341		-3.99916	111.417
	-3.96545	110.393		-18.3387	-21.0767	-23.7956	29.5063	
	-3.99934	111.464		-23.7969	29.5685		-18.8164	-15.7484
6	-16.9187	-12.6327	-3.98784	81.8168		-4.02323	82.9228
	-3.98882	81.8685		-17.6742	-31.5311	-25.9411	18.9373	
	-4.02321	82.9686		-25.9435	18.9992		-18.1127	-26.6735
6.1	-19.6386	-43.2614	-3.99207	53.2207		-4.02606	54.3594
	-3.99323	53.2711		-17.9806	-42.3285	-26.9546	19.1628	
	-4.02634	54.403		-26.9559	19.2274		-18.4049	-38.1857
6.2	-24.5168	-107.737	-3.95748	24.456		-3.98894	25.6157
	-3.95902	24.5029		-19.0061	-48.732		-26.2717	20.5143	
	-3.98971	25.6555		-26.2731	20.5779		-19.5013	-45.4509
6.3	-25.7363	173.854		-3.97084	-4.45324	-4.00051	-3.2811	
	-3.97315	-4.40908	-19.9163	-48.3022	-24.1161	13.7349
	-4.00163	-3.24476	-24.1174	13.7985		-20.5745	-45.3902
6.4	-24.3822	95.2965		-4.01297	-33.3187	-4.04137	-32.1456
	-4.01645	-33.2746	-19.9707	-45.0153	-22.3405	-6.30318
	-4.04302	-32.1106	-22.3431	-6.24144	-20.7984	-41.7717
6.5	-19.1804	36.8023		-4.03273	-62.051		-4.06129	-60.8818
	-4.03707	-62.0038	-19.1612	-44.3114	-22.0249	-31.0334
	-4.06401	-60.8443	-22.0283	-30.9626	-20.0944	-40.2753
6.6	-17.0278	6.55331		-4.07182	-90.649		-4.10197	-89.4793
	-4.07673	-90.5956	-18.1457	-50.5261	-23.2319	-53.4034
	-4.10593	-89.4363	-23.2368	-53.3274	-19.0966	-45.8337
6.7	-17.644		-22.1298	-4.0897		-119.212	-4.12243	-118.03
	-4.09535	-119.149	-17.8852	-61.9137	-25.2897	-65.8886
	-4.12748	-117.979	-25.2959	-65.8086	-18.864		-57.2115
6.8	-22.013		-53.9549	-4.05581	-147.897	-4.09053	-146.692
	-4.06224	-147.822	-18.7386	-73.4083	-26.5861	-68.0317
	-4.09587	-146.632	-26.5933	-67.9379	-19.8917	-68.977
6.9	-26.0664	-134.191	-4.05394	-176.772	-4.08873	-175.545
	-4.06085	-176.684	-20.5057	-78.3542	-26.3064	-67.8093
	-4.09399	-175.472	-26.3134	-67.7083	-22.0266	-72.6615
7	-26.5864	143.981		-4.07952	154.295		-4.11369	155.528
	-4.08616	154.393		-21.9149	-74.1043	-24.6752	-73.9132
	-4.11893	155.611		-24.6818	-73.7925	-23.5632	-65.0376
7.1	-24.0302	62.4068		-4.09228	125.419		-4.12736	126.647
	-4.09897	125.525		-22.1064	-66.4079	-23.0753	-91.2349
	-4.13299	126.739		-23.0807	-91.1027	-23.5595	-54.1095
7.2	-18.657		15.8985		-4.13874	96.6892		-4.17782	97.9139
	-4.14513	96.8039		-21.0669	-62.4391	-22.7459	-114.445
	-4.18378	98.0155		-22.7501	-114.3		-22.0441	-48.2785
7.3	-17.4057	-14.1823	-4.17373	68.0912		-4.2184		69.3343	
	-4.1799		68.215		-19.825		-67.7809	-23.7994	-136.429
	-4.22403	69.4446		-23.803		-136.27		-20.3816	-54.6758
7.4	-18.4962	-46.3581	-4.15107	39.4728		-4.20025	40.7542
	-4.15698	39.6067		-19.5388	-78.419		-25.8702	-150.746
	-4.2057		40.8743		-25.8723	-150.586	-19.9828	-67.0906
7.5	-22.3824	-91.6945	-4.1421		10.6942		-4.19244	12.0203	
	-4.1481		10.8391		-20.456		-87.0983	-27.5185	-153.65
	-4.19804	12.1487		-27.5206	-153.482	-20.9945	-77.0463
7.6	-25.1642	-162.741	-4.1483		-18.2186	-4.1974		-16.8622
	-4.15359	-18.0595	-21.7751	-88.149		-27.696		-152.602
	-4.20238	-16.7196	-27.698		-152.421	-22.51		-78.1807
7.7	-25.1799	121.588		-4.14105	-47.1829	-4.18904	-45.8151
	-4.14623	-47.0094	-22.4169	-83.1089	-26.4661	-155.515
	-4.19364	-45.6575	-26.4689	-155.312	-23.2682	-72.2442
7.8	-22.6976	50.306		-4.17827	-76.0819	-4.22716	-74.7114
	-4.18277	-75.8976	-21.9709	-78.0279	-24.8917	-169.216
	-4.23096	-74.5424	-24.8947	-168.993	-22.8339	-66.0262
7.9	-19.5667	4.83712		-4.22138	-104.831	-4.27294	-103.451
	-4.22602	-104.636	-20.8974	-78.9804	-24.4459	170.698	
	-4.27676	-103.271	-24.4488	170.931		-21.6815	-66.3257
8	-19.1761	-32.0061	-4.21366	-133.53		-4.26792	-132.131
	-4.21834	-133.319	-20.3071	-86.6184	-25.2417	151.969		
	-4.27179	-131.938	-25.2434	152.219		-21.1152	-73.8208
8.1	-21.2324	-75.2716	-4.21487	-162.307	-4.27056	-160.89
	-4.21887	-162.082	-20.8845	-95.0408	-26.6767	141.034
	-4.27365	-160.682	-26.677		141.308		-21.8687	-80.9394
8.2	-23.7812	-137.356	-4.22366	168.806		-4.28059	170.231	
	-4.22719	169.053		-22.1823	-97.154		-27.4458	137.405
	-4.28331	170.457		-27.4448	137.705		-23.1294	-79.683
8.3	-24.202		151.415		-4.21206	139.839		-4.27235	141.259
	-4.21466	140.105		-23.1009	-91.9595	-27.0351	134.703
	-4.27428	141.506		-27.0339	135.032		-23.6035	-71.6207
8.4	-22.7135	81.7689		-4.24295	110.892		-4.30963	112.315	
	-4.244		111.182		-22.9645	-84.9103	-25.7025	126.154
	-4.31039	112.585		-25.7012	126.508		-22.8395	-63.7446
8.5	-19.9476	27.6546		-4.28616	82.0779		-4.36084	83.5263
	-4.28517	82.3909		-22.0127	-82.3451	-24.6551	108.949
	-4.35948	83.8185		-24.6522	109.322		-21.337		-62.9734
8.6	-18.7307	-13.0103	-4.28213	53.3385		-4.3634		54.8355
	-4.27821	53.6766		-21.2549	-87.1521	-24.7425	88.3496	
	-4.35931	55.1518		-24.7351	88.7506		-20.4324	-70.1186
8.7	-19.7929	-54.1713	-4.28375	24.5476		-4.36826	26.1001	
	-4.27626	24.9143		-21.6711	-94.1673	-26.078		71.5545
	-4.36037	26.4436		-26.0672	71.9797		-20.8344	-77.6436
8.8	-22.3649	-108.127	-4.28953	-4.35653	-4.37482	-2.76403	
	-4.27713	-3.96403	-23.0555	-95.2274	-27.6017	64.5905
	-4.36232	-2.39434	-27.5852	65.0475		-21.9725	-78.1554
8.9	-23.7151	-177.52		-4.27264	-33.3798	-4.35956	-31.7663
	-4.25382	-32.9674	-24.1359	-88.238		-28.054		63.639	
	-4.34089	-31.3744	-28.0295	64.113		-22.6182	-71.845
9	-23.2799	111.705		-4.303		-62.4262	-4.39406	-60.7927	
	-4.2764		-62.0013	-24.113		-78.27		-27.1442	61.3314
	-4.3685		-60.3887	-27.1102	61.8181		-22.2001	-64.1733
9.1	-21.1192	48.692		-4.35674	-91.3393	-4.454		-89.6669
	-4.32192	-90.9153	-23.1771	-72.4772	-25.5421	50.3416
	-4.42068	-89.2614	-25.498		50.8224		-21.0701	-61.8116
9.2	-19.1921	2.87089		-4.36927	-120.121	-4.47133	-118.385
	-4.32495	-119.706	-22.3881	-74.3944	-24.6785	31.3259	
	-4.42892	-117.988	-24.6229	31.7924		-20.3313	-66.5658
9.3	-19.5522	-40.3601	-4.38415	-148.88		-4.48722	-147.075
	-4.33117	-148.495	-22.7328	-78.3212	-25.1648	11.7421
	-4.43606	-146.703	-25.1011	12.1718		-20.7359	-72.4922
9.4	-21.5727	-92.053		-4.39601	-177.725	-4.49637	-175.863
	-4.33461	-177.383	-23.7587	-75.1846	-26.4466	-0.641192
	-4.4369		-175.531	-26.3736	-0.265529	-21.8501	-71.7159
9.5	-22.8553	-157.943	-4.37698	153.311		-4.47461	155.205
	-4.30948	153.591		-24.2238	-66.1698	-27.1974	-5.26072	
	-4.40904	155.478		-27.1205	-4.95356	-22.5234	-64.7007
9.6	-22.5176	133.649		-4.39842	124.289		-4.495		126.205
	-4.3274		124.503		-23.6634	-56.7487	-26.729		-8.31538	
	-4.42611	126.412		-26.6499	-8.08757	-22.2282	-56.5447
9.7	-20.6995	71.6546		-4.44413	95.3746		-4.54205	97.3153	
	-4.37143	95.52		-22.4776	-53.8284	-25.2609	-17.2266
	-4.47131	97.4581		-25.1811	-17.0752	-21.2785	-53.8578
9.8	-18.9532	26.111		-4.45048	66.5607		-4.54945	68.542
	-4.37878	66.6388		-21.9496	-57.1822	-23.9701	-35.5
	-4.47948	68.6192		-23.8933	-35.4361	-20.8434	-57.4681
9.9	-19.4255	-11.9788	-4.45882	37.7486		-4.55717	39.7771
	-4.38878	37.7692		-22.7086	-58.9906	-23.9639	-58.7432
	-4.48854	39.7968		-23.8898	-58.7398	-21.7125	-60.6091
10	-23.4158	-58.0218	-4.46852	8.85278		-4.56386	10.9164	
	-4.40253	8.82187		-23.6201	-51.294		-25.5249	-78.7003	
	-4.49915	10.8847		-25.456		-78.7465	-22.9863	-54.0246
10.1	-26.0508	-135.851	-4.44954	-20.1796	-4.54214	-18.0955
	-4.38682	-20.2494	-23.4295	-39.4097	-27.6634	-86.2334
	-4.48039	-18.1655	-27.5939	-86.318		-23.2088	-41.7845
10.2	-25.9425	143.755		-4.47314	-49.2738	-4.56429	-47.177	
	-4.41629	-49.385		-21.9682	-29.9911	-28.3973	-84.4752
	-4.50817	-47.29		-28.332		-84.598		-22.1021	-30.8329
10.3	-23.0326	67.3737		-4.52949	-78.2446	-4.62045	-76.1327
	-4.47753	-78.3919	-20.0598	-30.8852	-27.3455	-83.4111
	-4.56877	-76.2804	-27.2838	-83.5769	-20.3281	-29.614
10.4	-18.8201	24.3088		-4.55026	-107.057	-4.6407		-104.925
	-4.50377	-107.239	-19.1271	-39.0548	-25.0275	-92.6938
	-4.59369	-105.104	-24.9741	-92.889		-19.4839	-36.6264
10.5	-18.1023	-7.68653	-4.56898	-135.792	-4.65709	-133.643
	-4.52772	-136.005	-19.5869	-47.1922	-23.4654	-115.155
	-4.61495	-133.851	-23.4187	-115.379	-20.1951	-43.3449
10.6	-20.2365	-39.0013	-4.5789		-164.567	-4.6638		-162.419	
	-4.54315	-164.803	-20.8322	-48.4539	-23.5991	-141.198
	-4.62743	-162.648	-23.5584	-141.438	-21.6572	-41.0656
10.7	-26.045		-96.4301	-4.54618	166.501		-4.62976	168.636	
	-4.51578	166.24		-21.6584	-42.7806	-25.4019	-163.579
	-4.59918	168.38		-25.3674	-163.842	-22.3668	-31.2249
10.8	-27.9389	-177.406	-4.54475	137.425		-4.6307		139.543	
	-4.52126	137.152		-21.4825	-35.5534	-27.9939	-171.478
	-4.60681	139.272		-27.9673	-171.754	-21.8264	-20.7352
10.9	-27.3567	101.885		-4.5801		108.365		-4.67147	110.474
	-4.56285	108.083		-20.5156	-33.6756	-29.0574	-168.777
	-4.65346	110.192		-29.0402	-169.06		-20.4253	-17.4364
11	-22.2958	32.3213		-4.59124	79.3999		-4.68887	81.5208	
	-4.58169	79.118		-19.8452	-39.7036	-28.2457	-165.901
	-4.67791	81.235		-28.2366	-166.192	-19.5983	-22.6737
11.1	-19.6842	1.76727		-4.6133		50.5322		-4.71628	52.6758
	-4.6106		50.2517		-20.4488	-49.5344	-25.89		-173.485
	-4.71194	52.39		-25.8894	-173.778	-20.1893	-29.0076
11.2	-20.1108	-25.735		-4.63519	21.7029		-4.74213	23.8726
	-4.63874	21.4399		-22.4223	-54.8974	-24.3146	164.764	
	-4.74381	23.6027		-24.3186	164.483		-21.5761	-27.9933
11.3	-23.1676	-49.8869	-4.61113	-7.19461	-4.72193	-5.00426
	-4.62023	-7.43675	-24.6226	-49.437		-24.3627	139.4	
	-4.72911	-5.25306	-24.3703	139.149		-22.4199	-19.5465
11.4	-28.3656	-47.1873	-4.60543	-36.1978	-4.72127	-33.9885
	-4.61806	-36.4138	-25.6088	-38.0022	-26.0793	117.494	
	-4.7318		-34.2104	-26.0907	117.28		-22.1056	-10.0839
11.5	-30.441		-27.8868	-4.62648	-65.2145	-4.74824	-62.974
	-4.64174	-65.4031	-25.2484	-29.0663	-28.539		108.348
	-4.76183	-63.1661	-28.5518	108.188		-20.9425	-6.63386
11.6	-29.9747	-9.09448	-4.61609	-94.2074	-4.74271	-91.917
	-4.63202	-94.368		-24.3618	-30.1984	-29.8992	109.132
	-4.75743	-92.0808	-29.9137	108.993		-20.1478	-11.4298
11.7	-26.3521	-6.55522	-4.6198		-123.2		-4.74834	-120.85	
	-4.63611	-123.338	-24.5893	-40.1922	-29.631		111.928	
	-4.76401	-120.992	-29.6447	111.817		-20.4781	-18.5968
11.8	-24.7775	-33.5208	-4.63617	-152.188	-4.76412	-149.787
	-4.651		-152.305	-26.3958	-50.723		-27.9472	107.167	
	-4.77848	-149.909	-27.9594	107.068		-21.6281	-22.2608
11.9	-25.4175	-67.3091	-4.61573	178.781		-4.74242	-178.785
	-4.62967	178.675		-29.3141	-55.5917	-26.6443	91.9973	
	-4.75578	-178.897	-26.6564	91.9055		-22.8064	-20.8296
12	-27.2719	-108.776	-4.61338	149.695		-4.7408		152.148	
