! MARKI MICROWAVE INC.
! Email:             	info@markimicrowave.com   				Phone:   408-778-4200
! Model Number:      	PD0165							Date:    07/11
! Filename:		PD-0165.S3P						Version: 1.0
! Description:       	3-port S-parameter data for Power Divider PD0165
! Frequency Range: 	1 GHz to 65 GHz		
! Port Configuration:	PORT 1: COMMON, PORT 2 and Port 3: Output


! S3P File: Measurements: Mag<S11> Ang<S11> Mag<S12> Ang<S12> Mag<S13> Ang<S13>! row 1 
!			  Mag<S21> Ang<S21> Mag<S22> Ang<S22> Mag<S23> Ang<S23>! row 2 
!			  Mag<S31> Ang<S31> Mag<S32> Ang<S32> Mag<S33> Ang<S33>! row 3 


# GHz S DB R 50



1	-13.4573	109.335		-3.32492	-99.1668	-3.31717	-99.0182	
	-3.31892	-99.1181	-20.2029	66.9892		-10.7854	-145.86	
	-3.31097	-98.9663	-10.7821	-145.804	-20.0489	65.4342
1.16	-14.8847	97.3678		-3.27029	-115.317	-3.26272	-115.146	
	-3.26432	-115.268	-20.301		60.3794		-12.1175	-164.817	
	-3.25631	-115.094	-12.1143	-164.762	-20.1716	58.2768
1.32	-16.7857	84.5798		-3.21804	-131.562	-3.21054	-131.368	
	-3.21186	-131.515	-20.1623	52.3423		-13.6119	177.52
	-3.20376	-131.318	-13.6089	177.57		-20.0699	49.7183
1.48	-19.4515	69.9692		-3.18536	-147.888	-3.17765	-147.67
	-3.17908	-147.841	-20.037		42.2149		-15.258		161.971
	-3.17061	-147.621	-15.2543	162.016		-19.9794	39.0728
1.64	-23.3102	47.3171		-3.15902	-164.26		-3.15115	-164.02
	-3.15326	-164.215	-20.1461	30.1235		-16.9444	149.139
	-3.14438	-163.973	-16.9408	149.182		-20.1149	26.3368
1.8	-26.4839	8.21799		-3.1442		179.349		-3.1361		179.613	
	-3.13877	179.394		-20.6502	16.4402		-18.4727	139.459
	-3.12986	179.66		-18.4695	139.5		-20.6346	11.7331
1.96	-27.9437	-35.1267	-3.14982	162.974		-3.14117	163.26	
	-3.14511	163.022		-21.6613	1.88153		-19.6		132.321
	-3.13572	163.309		-19.5973	132.365		-21.6554	-4.25415
2.12	-27.945		-78.7184	-3.15866	146.633		-3.15007	146.944
	-3.15483	146.687		-23.2875	-12.9729	-20.198		126.111	
	-3.14535	146.996		-20.1958	126.163		-23.2827	-21.5061
2.28	-26.3623	-119.617	-3.17355	130.341		-3.1648		130.675
	-3.16998	130.399		-25.7507	-27.1424	-20.2703	119.094
	-3.16042	130.732		-20.2681	119.149		-25.7301	-40.3177
2.44	-23.3088	-147.521	-3.19713	114.101		-3.18813	114.461
	-3.19338	114.167		-29.5051	-36.0515	-19.9701	109.671
	-3.18341	114.527		-19.9675	109.734		-29.5574	-63.0008
2.6	-21.1721	-162.682	-3.21463	97.9032		-3.20513	98.2908
	-3.21029	97.9761		-33.3061	-29.3894	-19.5616	97.2092	
	-3.19974	98.3622		-19.558		97.2782		-34.2911	-103.466
2.76	-19.993		-175.09		-3.23065	81.7381		-3.22031	82.1523	
	-3.22527	81.8164		-35.476		-16.3171	-19.2975	82.1069
	-3.2139		82.2291		-19.2927	82.1808		-37.0999	-155.52
2.92	-19.4323	173.102		-3.2477		65.5929		-3.23617	66.0337
	-3.24115	65.6748		-36.2746	-2.96746	-19.3358	65.4512	
	-3.22871	66.1137		-19.3299	65.5295		-38.4922	150.573
3.08	-19.3505	161.169		-3.25487	49.4515		-3.24218	49.9181
	-3.24745	49.5374		-35.6651	7.99866		-19.714		48.4048
	-3.23358	50.0004		-19.7075	48.49		-38.4469	96.272
3.24	-19.7339	148.481		-3.2605		33.3016		-3.24668	33.7923
	-3.25217	33.3853		-33.4285	8.84908		-20.4412	32.1283
	-3.23728	33.8728		-20.4341	32.2108		-36.4048	47.6815
3.4	-20.6214	134.219		-3.26692	17.1323		-3.25219	17.6472	
	-3.25828	17.2135		-31.7153	-6.82598	-21.4347	17.85
	-3.24245	17.7252		-21.4281	17.9337		-34.624		17.6189
3.56	-22.0618	116.781		-3.26663	0.939827	-3.25112	1.47745	
	-3.25746	1.01023		-31.1342	-27.4138	-22.4984	6.41377
	-3.2407		1.54509		-22.492		6.48669		-34.3409	-8.89272
3.72	-23.926		93.1109		-3.27097	-15.2799	-3.25417	-14.717
	-3.26169	-15.2201	-31.3326	-50.1063	-23.3694	-2.12641
	-3.24377	-14.6601	-23.3636	-2.0685		-35.029		-36.0389
3.88	-25.4679	61.6231		-3.27965	-31.5183	-3.26189	-30.931
	-3.27048	-31.4768	-32.2079	-73.9177	-23.8369	-8.93239	
	-3.2515		-30.8912	-23.8309	-8.89288	-36.6198	-64.7182
4.04	-26.0675	25.6315		-3.28603	-47.7706	-3.26699	-47.1589	
	-3.27716	-47.7435	-33.9928	-98.946		-23.8322	-15.6306	
	-3.25679	-47.1331	-23.8264	-15.6013	-39.6128	-100.115
4.2	-25.6548	-11.1228	-3.30217	-64.0261	-3.28145	-63.3872
	-3.29273	-64.0157	-37.6883	-132.059	-23.4211	-23.8293	
	-3.27073	-63.378		-23.414		-23.8173	-42.2232	-155.295
4.36	-24.2441	-45.1617	-3.32246	-80.2691	-3.30009	-79.604	
	-3.31381	-80.28		-40.1799	171.839		-22.8094	-34.5578
	-3.29011	-79.6156	-22.8018	-34.5658	-42.6181	145.032
4.52	-22.215		-72.4707	-3.3396		-96.4921	-3.31514	-95.8006
	-3.33288	-96.5188	-40.4694	114.451		-22.2204	-47.7177
	-3.30703	-95.8289	-22.2147	-47.7379	-41.3806	86.8131
4.68	-20.4152	-92.8983	-3.36424	-112.69		-3.3374		-111.972	
	-3.3602		-112.721	-39.3372	58.044		-21.8075	-62.5961	
	-3.33201	-112.005	-21.8042	-62.6274	-38.549		31.5422
4.84	-19.1684	-109.609	-3.38701	-128.861	-3.35706	-128.119	
	-3.38563	-128.894	-36.4152	4.20792		-21.6074	-78.2924	
	-3.35423	-128.155	-21.6063	-78.3279	-33.7761	-8.70107
5	-18.4339	-124.721	-3.40053	-145.013	-3.36793	-144.253	
	-3.4027		-145.038	-31.5015	-30.809		-21.5992	-94.1922
	-3.36838	-144.283	-21.6022	-94.2249	-30.162		-31.3307
5.16	-18.1691	-139.268	-3.4182		-161.158	-3.38249	-160.386
	-3.42308	-161.166	-28.5122	-49.8278	-21.7754	-109.89	
	-3.38568	-160.398	-21.7813	-109.903	-27.9475	-49.9161
5.32	-18.3176	-153.908	-3.42909	-177.308	-3.39118	-176.527	
	-3.43533	-177.296	-26.7672	-66.6891	-22.0982	-125.058	
	-3.39563	-176.519	-22.1054	-125.048	-26.5515	-66.6216
5.48	-18.8631	-169.343	-3.4305		166.522		-3.39095	167.312	
	-3.43796	166.552		-25.8143	-82.1127	-22.5316	-139.401
	-3.3966		167.338		-22.5402	-139.373	-25.8		-81.7543
5.64	-19.8181	173.449		-3.43854	150.324		-3.39836	151.123	
	-3.44726	150.374		-25.5203	-96.1804	-23.0401	-152.554	
	-3.40522	151.169		-23.0502	-152.506	-25.6372	-95.2867
5.8	-21.1087	152.93		-3.44275	134.095		-3.40189	134.909
	-3.45174	134.169		-25.8009	-108.451	-23.536		-164.339
	-3.40899	134.979		-23.5449	-164.261	-26.0105	-106.749
5.96	-22.4577	127.452		-3.44239	117.833		-3.40096	118.666	
	-3.45091	117.93		-26.5863	-118.211	-23.9161	-174.776	
	-3.40775	118.758		-23.924		-174.68		-26.8528	-115.312
6.12	-23.4537	97.2343		-3.45598	101.548		-3.41383	102.401	
	-3.46446	101.666		-27.7407	-124.358	-24.0803	175.735	
	-3.42023	102.515		-24.0876	175.853		-27.9843	-119.745
6.28	-23.7526	64.4834		-3.46904	85.2524		-3.42524	86.1251
	-3.47676	85.3948		-28.9459	-126.719	-23.9724	166.378
	-3.43093	86.2613		-23.9788	166.521		-29.0249	-120.186
6.44	-23.2792	31.8747		-3.4808		68.955		-3.43501	69.8456
	-3.48663	69.119		-29.8808	-126.388	-23.6053	156.305	
	-3.43894	70.0029		-23.6104	156.469		-29.6633	-118.229
6.6	-22.2056	2.00775		-3.50762	52.6717		-3.45979	53.5791	
	-3.51066	52.8567		-30.3907	-125.608	-23.0644	144.732
	-3.46104	53.7566		-23.0684	144.913		-29.7772	-116.351
6.76	-20.8533	-23.1885	-3.53047	36.4101		-3.4808		37.334	
	-3.53087	36.6081		-30.4909	-126.827	-22.4717	131.413	
	-3.47953	37.5228		-22.4736	131.607		-29.4277	-117.058
6.92	-19.6681	-44.1675	-3.54895	20.1719		-3.49798	21.1107	
	-3.54711	20.3786		-30.334		-132.318	-21.9417	116.485
	-3.49442	21.3072		-21.9422	116.689		-28.8385	-122.465
7.08	-18.8786	-62.6578	-3.57575	3.95546		-3.52376	4.9108
	-3.57194	4.16645		-30.1925	-143.572	-21.5758	100.32	
	-3.51838	5.11317		-21.5749	100.532		-28.3375	-133.44
7.24	-18.4697	-79.9175	-3.59322	-12.2492	-3.54066	-11.2768	
	-3.58866	-12.0374	-30.1621	-160.298	-21.3971	83.5193	
	-3.53451	-11.0739	-21.3955	83.7339		-28.0415	-149.098
7.4	-18.4163	-96.7442	-3.60417	-28.4498	-3.55107	-27.4587	
	-3.60013	-28.2339	-30.1394	178.7		-21.4207	66.5673
	-3.54542	-27.2534	-21.4186	66.7844		-27.8653	-168.393
7.56	-18.7001	-113.744	-3.6202		-44.6587	-3.56615	-43.6465
	-3.61691	-44.4327	-30.0239	155.446		-21.6524	49.9801	
	-3.56152	-43.4319	-21.65		50.2034		-27.6948	170.225
7.72	-19.275		-131.521	-3.62749	-60.8856	-3.57201	-59.8502
	-3.62505	-60.6439	-29.719		131.673		-22.0411	34.2047
	-3.56865	-59.6217	-22.0391	34.4393		-27.4143	148.057
7.88	-20.1087	-150.853	-3.63152	-77.1364	-3.57455	-76.0768
	-3.63027	-76.8704	-29.2924	109.44		-22.5358	19.6717	
	-3.57233	-75.8257	-22.535		19.9187		-27.0232	126.689
8.04	-21.1597	-172.673	-3.64224	-93.4114	-3.58337	-92.3276	
	-3.642		-93.1167	-28.9586	90.0739		-23.0481	6.70481
	-3.58206	-92.0498	-23.0482	6.96972		-26.6417	107.329
8.2	-22.2121	162.258		-3.64774	-109.711	-3.58644	-108.603	
	-3.64787	-109.378	-28.9005	74.5267		-23.452		-4.81387	
	-3.58542	-108.289	-23.4537	-4.51772	-26.3808	90.856
8.36	-22.9987	134.009		-3.65539	-126.031	-3.59145	-124.903
	-3.65476	-125.655	-29.2657	63.9486		-23.6477	-15.3296	
	-3.58943	-124.546	-23.6499	-14.9945	-26.3496	77.9832
8.52	-23.3119	103.815		-3.67177	-142.362	-3.60483	-141.217
	-3.66886	-141.937	-30.0089	59.6563		-23.5799	-25.6676	
	-3.60055	-140.812	-23.58		-25.2828	-26.5933	69.264
8.68	-23.0288	73.4249		-3.68517	-158.695	-3.61515	-157.538
	-3.67781	-158.217	-30.7059	62.0489		-23.2641	-36.7062	
	-3.6068		-157.082	-23.2605	-36.262		-26.9959	65.0057
8.84	-22.2478	44.551		-3.70342	-175.022	-3.63032	-173.856	
	-3.68801	-174.498	-30.8727	69.1509		-22.7866	-49.1416
	-3.61467	-173.354	-22.7752	-48.6418	-27.3008	64.886
9	-21.2066	18.5072		-3.72847	168.671		-3.65271	169.841
	-3.70214	169.231		-30.3318	77.7899		-22.2717	-63.2884	
	-3.62701	170.38		-22.2491	-62.747		-27.2686	67.3871
9.16	-20.1738	-4.48848	-3.74832	152.384		-3.67071	153.559
	-3.70794	152.956		-29.1463	84.7423		-21.8273	-78.9494
	-3.63152	154.112		-21.7911	-78.3938	-26.8514	70.25
9.32	-19.3695	-25.1383	-3.77		136.119		-3.69137	137.301
	-3.71435	136.671		-27.6282	87.4379		-21.5402	-95.7418
	-3.63739	137.837		-21.4894	-95.2058	-26.155		71.6017
9.48	-18.8758	-44.2686	-3.79176	119.875		-3.71229	121.067
	-3.72184	120.37		-26.3228	85.3917		-21.4534	-113.139	
	-3.64432	121.551		-21.3887	-112.652	-25.4337	70.1579
9.64	-18.7046	-62.6829	-3.80295	103.637		-3.7229		104.845	
	-3.7219		104.047		-25.6148	80.7193		-21.5624	-130.647	
	-3.6437		105.247		-21.4863	-130.242	-25.0244	65.9891
9.8	-18.8946	-81.1039	-3.81323	87.3944		-3.73317	88.6207
	-3.72579	87.7045		-25.6176	75.754		-21.8735	-147.822
	-3.64688	88.9277		-21.7902	-147.512	-25.2105	60.195
9.96	-19.4612	-100.228	-3.82107	71.1295		-3.74024	72.378
	-3.73065	71.3365		-26.2842	72.7662		-22.3545	-164.241
	-3.65043	72.5822		-22.267		-164.03		-26.1944	54.6328
10.12	-20.426		-120.933	-3.82046	54.8339		-3.73829	56.1034
	-3.73037	54.9395		-27.3734	74.1383		-22.9549	-179.592
	-3.64822	56.2066		-22.8675	-179.486	-28.1198	52.8503
10.28	-21.8064	-144.213	-3.82478	38.5041		-3.74114	39.7912	
	-3.73677	38.5116		-28.3513	80.7034		-23.6281	166.471
	-3.65275	39.7985		-23.543		166.485		-30.3962	60.5351
10.44	-23.3413	-171.498	-3.83105	22.1428		-3.74612	23.4464
	-3.7473		22.0545		-28.7508	90.4649		-24.2845	154.119
	-3.66156	23.3585		-24.2045	154.037		-31.7488	75.7362
10.6	-24.5882	156.868		-3.83506	5.75966		-3.74839	7.0789	
	-3.75711	5.57303		-28.4596	100.412		-24.8231	143.294
	-3.66959	6.89376		-24.7482	143.115		-32.0085	92.7065
10.76	-25.2098	123.002		-3.85045	-10.6329	-3.76235	-9.29823
	-3.78256	-10.9107	-27.5546	107.669		-25.1376	133.653	
	-3.69335	-9.57238	-25.0733	133.388		-31.195		108.316
10.92	-25.0872	89.2706		-3.86837	-27.0218	-3.77916	-25.6682
	-3.81358	-27.3762	-26.4781	109.719		-25.1562	124.436		
	-3.72287	-26.0187	-25.1043	124.094		-29.4715	117.494
11.08	-24.327		58.1966		-3.88332	-43.3934	-3.7932		-42.0185
	-3.8433		-43.802		-25.8003	107.081		-24.8677	114.722	
	-3.75134	-42.4231	-24.8292	114.326		-27.9929	117.08
11.24	-23.2442	32.3388		-3.90831	-59.7419	-3.81665	-58.3409
	-3.88435	-60.1749	-25.8829	101.961		-24.3287	103.564
	-3.79097	-58.7724	-24.3067	103.148		-27.665		112.058
11.4	-22.2388	11.9461		-3.93009	-76.0644	-3.83647	-74.635
	-3.92056	-76.4895	-26.9322	97.1966		-23.6602	90.3791
	-3.8249		-75.061		-23.6526	89.9714		-28.5985	108.134
11.56	-21.531		-4.47034	-3.94348	-92.3658	-3.84748	-90.9081
	-3.94507	-92.7631	-28.9324	97.6492		-22.9989	75.0121
	-3.84713	-91.3073	-23.0022	74.6297		-30.4182	111.665
11.72	-21.1555	-18.5166	-3.9628		-108.655	-3.86398	-107.167
	-3.97026	-109.011	-30.8042	108.409		-22.4985	57.5617	
	-3.86978	-107.526	-22.5068	57.2251		-31.6959	124.382
11.88	-21.1385	-31.0333	-3.97355	-124.941	-3.87095	-123.426	
	-3.98227	-125.253	-31.5837	123.269		-22.2499	38.5895	
	-3.8782		-123.741	-22.2591	38.2941		-31.9426	139.453
12.04	-21.5774	-42.3146	-3.97389	-141.237	-3.86714	-139.7
	-3.97914	-141.519	-31.3183	137.726		-22.33		18.6604
	-3.87085	-139.985	-22.3363	18.3909		-31.2		153.334
12.2	-22.5929	-51.3424	-3.98212	-157.556	-3.87128	-156.001
	-3.98139	-157.839	-29.9128	148.067		-22.8564	-1.44073	
	-3.86918	-156.285	-22.857		-1.71796	-29.3877	161.462
12.36	-24.1807	-57.0866	-3.98311	-173.902	-3.86808	-172.33
	-3.97463	-174.217	-27.8109	148.335		-23.8745	-20.5966	
	-3.85827	-172.644	-23.8673	-20.9054	-27.3586	158.457
12.52	-26.1381	-56.3482	-3.97869	169.72		-3.85905	171.305	
	-3.96477	169.352		-26.1891	137.642		-25.4171	-36.7599	
	-3.84359	170.938		-25.4041	-37.1197	-26.1679	146.642
12.68	-28.2476	-50.7849	-3.98695	153.318		-3.86278	154.915
	-3.96953	152.871		-25.4387	120.893		-27.1709	-46.6537	
	-3.84392	154.471		-27.1544	-47.0985	-25.9117	130.041
12.84	-29.754		-35.6511	-3.99181	136.896		-3.86294	138.509
	-3.97299	136.368		-25.2338	100.598		-28.4019	-50.6764
	-3.84296	137.984		-28.3844	-51.1925	-26.2864	109.667
13	-30.062		-17.3098	-3.99585	120.463		-3.86248	122.092
	-3.97922	119.858		-25.315		77.9144		-28.7436	-52.0856	
	-3.84442	121.489		-28.729		-52.6781	-27.0076	85.9736
13.16	-29.0343	0.283351	-4.01245	104.031		-3.8743		105.672
	-4.00051	103.36		-25.5257	54.1072		-28.1341	-54.0472
	-3.86099	105.003		-28.1246	-54.7037	-27.8555	60.064
13.32	-26.9133	10.2388		-4.02479	87.6071		-3.88173	89.2572
	-4.01901	86.8855		-25.7516	30.9038		-26.7085	-59.8713	
	-3.87461	88.5351		-26.7046	-60.5799	-28.6543	33.9749
13.48	-25.3595	12.5511		-4.03545	71.1917		-3.88784	72.8493
	-4.03776	70.4299		-26		10.3502		-25.0046	-72.2993	
	-3.88828	72.0856		-25.0086	-73.048		-29.4197	10.8197
13.64	-24.2018	12.1858		-4.0541		54.7891		-3.90139	56.4491
	-4.06494	54.0169		-26.3601	-5.28509	-23.6938	-90.0402
	-3.91033	55.6743		-23.7065	-90.8035	-30.2288	-5.1194
13.8	-23.5961	10.426		-4.06585	38.3901		-3.90846	40.0497
	-4.08333	37.6161		-26.6284	-14.7203	-22.9136	-109.992
	-3.92383	39.2719		-22.9332	-110.759	-30.5778	-11.7051
13.96	-23.4609	8.80088		-4.07583	21.9911		-3.91402	23.6469
	-4.0991		21.2346		-26.5941	-17.8192	-22.6141	-130.579
	-3.93489	22.8888		-22.6391	-131.325	-30.138		-10.3563
14.12	-23.7483	8.79099		-4.09243	5.58608		-3.92605	7.23713
	-4.12125	4.84961		-26.0771	-16.8159	-22.7378	-150.824
	-3.95242	6.49871		-22.769		-151.549	-28.884		-5.24714
14.28	-24.1383	11.5605		-4.10314	-10.8201	-3.9327		-9.17531
	-4.13613	-11.5192	-24.9775	-14.9209	-23.197		-170.096
	-3.96318	-9.87837	-23.2313	-170.785	-26.8179	-0.79695
14.44	-24.3123	16.3338		-4.11557	-27.2285	-3.94126	-25.5935
	-4.15176	-27.8864	-23.3705	-14.4424	-23.9445	172.217
	-3.97522	-26.2569	-23.9815	171.567		-24.1412	-0.567177
14.6	-24.1571	20.8473		-4.13395	-43.6313	-3.95638	-42.0062
	-4.17125	-44.2441	-21.6487	-17.8053	-24.8961	156.81
	-3.99132	-42.626		-24.9355	156.205		-21.7035	-6.74575
14.76	-23.8875	23.8282		-4.14633	-60.0244	-3.96615	-58.4092
	-4.18432	-60.5945	-20.1709	-24.6219	-25.9087	144.162	
	-4.00184	-58.9892	-25.9485	143.597		-19.862		-16.4579
14.92	-23.6744	25.4106		-4.15967	-76.4098	-3.97763	-74.8049
	-4.19773	-76.9347	-19.1108	-33.3263	-26.7884	134.517
	-4.01339	-75.3417	-26.8293	133.996		-18.6032	-27.5146
15.08	-23.566		25.6324		-4.17532	-92.7842	-3.99181	-91.1878
	-4.21365	-93.2711	-18.5301	-42.566		-27.3125	127.262	
	-4.02799	-91.6865	-27.354		126.774		-17.8821	-38.6835
15.24	-23.762		24.1559		-4.18213	-109.155	-3.99739	-107.564	
	-4.22216	-109.604	-18.395		-51.3739	-27.3437	120.995	
	-4.03535	-108.023	-27.3863	120.544		-17.6347	-49.3055
15.4	-24.5764	21.8431		-4.18985	-125.535	-4.00355	-123.945
	-4.23182	-125.935	-18.6318	-58.8923	-26.8596	114.056	
	-4.04377	-124.356	-26.9027	113.652		-17.7932	-58.7941
15.56	-26.3902	22.0815		-4.19782	-141.929	-4.00955	-140.339
	-4.24076	-142.27		-19.0991	-64.4474	-25.9767	104.907		
	-4.05076	-140.69		-26.0204	104.56		-18.2581	-66.5468
15.72	-28.6817	34.6056		-4.19874	-158.344	-4.00783	-156.753
	-4.24189	-158.624	-19.5907	-67.8102	-24.9086	92.7591	
	-4.04939	-157.043	-24.952		92.4792		-18.8659	-72.1288
15.88	-29.5702	53.9577		-4.20489	-174.779	-4.01096	-173.189
	-4.24615	-175.006	-19.898		-69.5385	-23.8844	77.5628	
	-4.05065	-173.425	-23.9264	77.3381		-19.4158	-75.6131
16.04	-29.2597	74.4399		-4.21442	168.771		-4.01692	170.357	
	-4.2534		168.597		-19.885		-71.0112	-23.07		59.9831	
	-4.05422	170.172		-23.11		59.8099		-19.7162	-77.9744
16.2	-27.7493	93.0297		-4.2202		152.318		-4.01956	153.894	
	-4.25695	152.186		-19.5446	-73.6887	-22.5409	40.8425	
	-4.0546		153.748		-22.5786	40.709		-19.6888	-80.5422
16.36	-25.2464	105.506		-4.23485	135.874		-4.03133	137.436
	-4.26908	135.777		-18.9846	-78.9517	-22.3674	20.818	
	-4.06388	137.324		-22.4017	20.7182		-19.3604	-84.8174
16.52	-22.3778	106.692		-4.2503		119.453		-4.04446	120.996	
	-4.28244	119.39		-18.3895	-87.34		-22.572		0.688434	
	-4.07488	120.919		-22.6047	0.614448	-18.8695	-91.7751
16.68	-20.5661	100.996		-4.25864	103.056		-4.05148	104.581
	-4.28974	103.023		-17.9153	-98.4309	-23.1702	-18.74	
	-4.08081	104.532		-23.2013	-18.7857	-18.3853	-101.451
16.84	-19.6011	93.0672		-4.27137	86.6815		-4.0638		88.1881
	-4.30155	86.6724		-17.6697	-111.482	-24.1895	-36.1173
	-4.09214	88.1615		-24.2199	-36.1366	-18.0552	-113.325
17	-19.3202	84.0527		-4.27662	70.319		-4.06924	71.8073
	-4.30457	70.338		-17.6804	-125.579	-25.4773	-49.6909
	-4.09543	71.8106		-25.5051	-49.682		-17.9482	-126.461
17.16	-19.7156	73.9535		-4.2691		53.9481		-4.06284	55.4227	
	-4.29637	53.9865		-17.954		-139.949	-26.6393	-58.3539
	-4.08781	55.4472		-26.6661	-58.3175	-18.0885	-139.993
17.32	-20.9696	62.2789		-4.26503	37.5463		-4.06002	39.0107	
	-4.29		37.6045		-18.4998	-153.575	-27.2105	-63.3117
	-4.08283 	39.0571		-27.2347	-63.2483	-18.4886	-152.87
17.48	-23.533		45.7379		-4.25489	21.0996		-4.05136	22.5582	
	-4.27767	21.1743		-19.2561	-165.537	-27.0109	-67.3416
	-4.07197	22.6236		-27.034		-67.2549	-19.0807	-164.14
17.64	-26.5642	12.0666		-4.23875	4.59668		-4.03664	6.0556	
	-4.25953	4.68092		-20.1296	-174.924	-26.0615	-73.0653	
	-4.05512	6.13011		-26.0838	-72.9766	-19.7658	-172.979
17.8	-27.8947	-30.5143	-4.23812	-11.9577	-4.03702	-10.4924
	-4.25783	-11.8626	-20.9313	178.636		-24.5976	-83.2295
	-4.05446	-10.4073	-24.6192	-83.1252	-20.3633	-179.147
17.96	-27.8165	-74.8118	-4.24015	-28.5348	-4.04008	-27.0612
	-4.25849	-28.435		-21.473		174.467		-23.1197	-98.591	
	-4.05596	-26.9726	-23.1394	-98.4796	-20.7041	176.637
18.12	-26.344		-118.224	-4.24444	-45.1124	-4.04494	-43.6274
	-4.26231	-45.0105	-21.6695	171.093		-21.9832	-117.706
	-4.05992	-43.5382	-22.0021	-117.6		-20.7201	172.998
18.28	-23.2008	-154.271	-4.26807	-61.6612	-4.06827	-60.1643
	-4.28522	-61.5604	-21.5441	166.69		-21.3437	-138.967	
	-4.08245	-60.0768	-21.3609	-138.858	-20.448		168.247
18.44	-20.3761	-173.484	-4.28866	-78.1596	-4.08809	-76.6539
	-4.30577	-78.0527	-21.2544	159.812		-21.18		-160.965
	-4.10229	-76.5595	-21.1969	-160.854	-20.0408	161.137
18.6	-18.9723	172.049		-4.30282	-94.6128	-4.10144	-93.0968
	-4.31933	-94.4984	-21.026		149.697		-21.5075	177.212
	-4.11507	-92.9954	-21.5238	177.324		-19.7051	151.092
18.76	-18.5795	158.449		-4.32234	-111.036	-4.11984	-109.508
	-4.33797	-110.908	-21.0622	136.285		-22.3842	156.936	
	-4.13319	-109.395	-22.4009	157.06		-19.628		138.162
18.92	-19.0607	144.839		-4.32842	-127.455	-4.12455	-125.917
	-4.34414	-127.321	-21.4349	120.052		-23.712		140.145
	-4.13816	-125.801	-23.7282	140.279		-19.8803	122.863
19.08	-20.5628	130.135		-4.32486	-143.905	-4.11982	-142.358
	-4.34047	-143.757	-22.1206	101.332		-25.1187	129.059
	-4.13314	-142.227	-25.134		129.209		-20.4612	105.578
19.24	-23.6574	110.064		-4.328		-160.406	-4.12168	-158.848
	-4.34333	-160.255	-23.0499	80.8157		-25.9753	122.949
	-4.13483	-158.716	-25.991		123.105		-21.3348	86.9639
19.4	-26.8507	71.7752		-4.32704	-176.952	-4.11874	-175.389
