! MARKI MICROWAVE INC.
! Email:             	info@markimicrowave.com   				Phone:   408-778-4200
! Model Number:      	PD0450							Date:    05/15
! Filename:		PD-0450.S3P						Version: 1.0
! Description:       	3-port S-parameter data for Power Divider PD-0450
! Measured Frequency: 	10 MHz to 55 GHz		
! Port Configuration:	PORT 1: COMMON, PORT 2 and Port 3: Output


! S3P File: Measurements: Mag<S11> Ang<S11> Mag<S12> Ang<S12> Mag<S13> Ang<S13>! row 1 
!			  Mag<S21> Ang<S21> Mag<S22> Ang<S22> Mag<S23> Ang<S23>! row 2 
!			  Mag<S31> Ang<S31> Mag<S32> Ang<S32> Mag<S33> Ang<S33>! row 3 

# Hz S  dB   R 50
10000000 -9.5035639 176.70827 -3.5799806 -5.2876053 -3.5371766 -4.9145813
-3.5671184 -5.4239435 -9.6087637 171.38722 -3.5614374 -7.1510205
-3.5319159 -5.2356706 -3.5525167 -7.3620219 -9.6251345 171.21944
78737500 -9.5337257 174.02341 -3.5710902 -7.7630982 -3.5379584 -7.4643588
-3.5617321 -7.8756967 -9.6689539 166.66689 -3.5980358 -10.767366
-3.5351515 -7.7290225 -3.5917935 -10.942307 -9.6775427 166.52245
147475000 -9.5661192 170.89041 -3.5614614 -10.711317 -3.5395072 -10.504532
-3.5556977 -10.806627 -9.7433815 161.09625 -3.646034 -15.072035
-3.5396638 -10.711168 -3.6418469 -15.196106 -9.7460136 160.97118
216212500 -9.6013136 167.31863 -3.5531821 -14.162825 -3.5405509 -14.027183
-3.550303 -14.227955 -9.8348398 154.67581 -3.7079194 -20.031736
-3.5432866 -14.182152 -3.7057192 -20.122423 -9.8307495 154.55479
284950000 -9.6426773 163.31378 -3.5446062 -18.084799 -3.5415297 -18.03956
-3.5452302 -18.125423 -9.9429731 147.42264 -3.7842999 -25.655972
-3.5474429 -18.138298 -3.7845933 -25.708155 -9.9339371 147.31471
353687500 -9.6876612 158.86813 -3.5369833 -22.484173 -3.5427096 -22.604654
-3.5397017 -22.504387 -10.075266 139.35559 -3.8766184 -32.011124
-3.551367 -22.581715 -3.8793256 -31.952837 -10.060688 139.18826
422425000 -9.7191572 154.86523 -3.5378747 -26.832851 -3.5449846 -26.981289
-3.5416312 -26.849054 -10.214195 131.65822 -3.9813237 -38.100052
-3.5527985 -26.961327 -3.983068 -38.050228 -10.194791 131.45892
491162500 -9.7519493 150.88326 -3.5378582 -31.175606 -3.5482318 -31.350811
-3.5416322 -31.193422 -10.370821 124.03712 -4.0991712 -44.116482
-3.5545642 -31.32445 -4.0996766 -44.062702 -10.344242 123.8213
559900000 -9.7870197 146.91342 -3.5375738 -35.526669 -3.5508406 -35.714333
-3.5409005 -35.543945 -10.546524 116.46819 -4.2286263 -50.078785
-3.55616 -35.685822 -4.2296982 -50.024326 -10.511437 116.24593
628637500 -9.8228216 142.93776 -3.5358052 -39.872665 -3.5513051 -40.080788
-3.5402424 -39.895187 -10.736941 108.93342 -4.3724818 -55.981133
-3.5571339 -40.046375 -4.3716955 -55.93066 -10.692945 108.72296
697375000 -9.8595448 138.98392 -3.5352423 -44.220173 -3.5532632 -44.44659
-3.5392616 -44.243454 -10.944963 101.45214 -4.5268908 -61.824837
-3.5581467 -44.418186 -4.5249596 -61.772968 -10.889578 101.24191
766112500 -9.8998642 135.03848 -3.5343843 -48.574093 -3.5542634 -48.799587
-3.5374236 -48.593292 -11.168998 94.023529 -4.692935 -67.610825
-3.5581064 -48.771217 -4.6913614 -67.566101 -11.099041 93.829582
834850000 -9.9426765 131.08757 -3.5323849 -52.917191 -3.5555646 -53.152714
-3.5359962 -52.941349 -11.406285 86.620598 -4.8695245 -73.338562
-3.5589328 -53.1199 -4.8682141 -73.286095 -11.323236 86.459465
903587500 -9.9827433 127.1263 -3.5297747 -57.265545 -3.555577 -57.502613
-3.533282 -57.294857 -11.659479 79.259239 -5.0552616 -79.010162
-3.5573182 -57.469738 -5.0528822 -78.953094 -11.563482 79.130936
972325000 -10.024629 123.16595 -3.5261259 -61.622787 -3.5566242 -61.779472
-3.5312276 -61.647942 -11.923169 71.91082 -5.250926 -84.536346
-3.5565388 -61.811661 -5.2469487 -84.547165 -11.812079 71.901733
1041062500 -10.066767 119.2096 -3.5230258 -65.982193 -3.5551598 -66.128044
-3.5276084 -66.010178 -12.198518 64.616562 -5.4543223 -90.061226
-3.5547724 -66.158562 -5.4502239 -90.073456 -12.075583 64.674591
1109800000 -10.113837 115.24882 -3.5207267 -70.337601 -3.5524588 -70.473526
-3.524832 -70.36422 -12.488733 57.338436 -5.6656189 -95.523666
-3.5520389 -70.510201 -5.6619315 -95.540718 -12.354885 57.469429
1178537500 -10.165546 111.29554 -3.5173533 -74.696434 -3.5483921 -74.820602
-3.5213001 -74.722313 -12.788213 50.106991 -5.8835335 -100.91732
-3.5482905 -74.864891 -5.8807554 -100.93658 -12.645781 50.298752
1247275000 -10.217928 107.35593 -3.5135736 -79.058495 -3.5443673 -79.170326
-3.517453 -79.074768 -13.102654 42.922913 -6.1068778 -106.24648
-3.5445364 -79.218178 -6.1070156 -106.26674 -12.949164 43.189438
1316012500 -10.271742 103.41536 -3.5087852 -83.413292 -3.5395017 -83.527077
-3.5134561 -83.430908 -13.425107 35.782089 -6.338016 -111.51305
-3.540978 -83.566925 -6.338388 -111.52504 -13.265299 36.126282
1384750000 -10.325434 99.478821 -3.5057173 -87.778099 -3.5343661 -87.888153
-3.5100529 -87.793343 -13.763784 28.661182 -6.5753946 -116.69939
-3.5363355 -87.926964 -6.5757136 -116.7115 -13.595098 29.078693
1453487500 -10.381811 95.559128 -3.5008686 -92.134766 -3.5295069 -92.255554
-3.5052643 -92.154182 -14.118546 21.556679 -6.8172755 -121.83088
-3.5315304 -92.299194 -6.8163981 -121.84541 -13.943236 22.094862
1522225000 -10.441151 91.662285 -3.4965968 -96.50412 -3.5253077 -96.617607
-3.5012424 -96.518402 -14.487394 14.441271 -7.0646906 -126.88053
-3.5270581 -96.665848 -7.0631881 -126.90412 -14.30357 15.110862
1590962500 -10.503815 87.75547 -3.4921916 -100.8719 -3.5189128 -100.98369
-3.4959538 -100.8893 -14.870347 7.2720203 -7.3155384 -131.87234
-3.5220811 -101.03391 -7.3159404 -131.89574 -14.676613 8.124754
1659700000 -10.567615 83.834442 -3.4884508 -105.23714 -3.5141916 -105.35293
-3.4914408 -105.2501 -15.26484 0.070540644 -7.5716629 -136.80862
-3.5172558 -105.39622 -7.5726213 -136.83537 -15.063479 1.1572993
1728437500 -10.631074 79.905045 -3.4837413 -109.60893 -3.5081441 -109.71909
-3.4866107 -109.62256 -15.664989 -7.1367612 -7.8313961 -141.68069
-3.5120723 -109.76396 -7.833972 -141.71022 -15.464398 -5.7766242
1797175000 -10.698116 75.98114 -3.4786894 -113.97503 -3.503211 -114.08896
-3.48171 -113.99625 -16.076918 -14.436627 -8.0954809 -146.4912
-3.5070908 -114.13252 -8.0981026 -146.51059 -15.879109 -12.745454
1865912500 -10.768616 72.056824 -3.4725463 -118.34406 -3.498112 -118.46271
-3.4755387 -118.36877 -16.495579 -21.811071 -8.3635159 -151.23001
-3.500747 -118.50919 -8.3641529 -151.25443 -16.313213 -19.754725
1934650000 -10.842663 68.144897 -3.4669771 -122.71851 -3.4918017 -122.83868
-3.4690337 -122.73913 -16.929544 -29.216572 -8.632843 -155.91512
-3.4935327 -122.88779 -8.6339283 -155.94098 -16.767057 -26.780085
2003387500 -10.919938 64.269836 -3.4596224 -127.09509 -3.4857903 -127.21924
-3.4621532 -127.1159 -17.370338 -36.778858 -8.9022932 -160.52998
-3.4864836 -127.2726 -8.9025393 -160.56133 -17.238121 -33.892593
2072125000 -10.999763 60.368824 -3.4534481 -131.47075 -3.4791729 -131.59805
-3.4557974 -131.49257 -17.821487 -44.370338 -9.1749506 -165.0929
-3.4799712 -131.65065 -9.1764479 -165.114 -17.723637 -41.042694
2140862500 -11.082205 56.491402 -3.4477403 -135.84433 -3.4728055 -135.9886
-3.4485185 -135.87332 -18.280802 -52.04504 -9.4505634 -169.60114
-3.4737597 -136.0383 -9.4537039 -169.60803 -18.225445 -48.272846
2209600000 -11.165052 52.633659 -3.4408624 -140.22446 -3.4666352 -140.3856
-3.441689 -140.25929 -18.752375 -59.796879 -9.7287292 -174.04364
-3.4672742 -140.43941 -9.7318001 -174.05602 -18.755348 -55.563164
2278337500 -11.250732 48.797787 -3.4323511 -144.61267 -3.4597044 -144.77393
-3.4347215 -144.64996 -19.241852 -67.673019 -10.009062 -178.43164
-3.4607084 -144.83392 -10.010815 -178.44035 -19.305807 -62.997929
2347075000 -11.338493 44.988186 -3.4244785 -149.00328 -3.4538782 -149.17732
-3.4278808 -149.03886 -19.747406 -75.733978 -10.291982 177.24284
-3.4544368 -149.23509 -10.29136 177.2285 -19.882996 -70.616013
2415812500 -11.424047 41.201035 -3.4170833 -153.40363 -3.4482551 -153.57915
-3.4211876 -153.43259 -20.255447 -84.001129 -10.575484 172.97144
-3.448374 -153.63965 -10.573756 172.95261 -20.478861 -78.408539
2484550000 -11.508518 37.39373 -3.4117947 -157.79903 -3.4424317 -157.98384
-3.4143257 -157.83205 -20.770916 -92.476387 -10.859396 168.75458
-3.4435685 -158.04257 -10.860104 168.75058 -21.085999 -86.433861
2553287500 -11.592685 33.601753 -3.4064415 -162.2036 -3.4384623 -162.38982
-3.408041 -162.24605 -21.284731 -101.25167 -11.147408 164.59532
-3.4387627 -162.44505 -11.145842 164.60381 -21.710997 -94.738266
2622025000 -11.674385 29.75849 -3.4016066 -166.6048 -3.434037 -166.79543
-3.4031253 -166.65057 -21.792206 -110.25641 -11.4373 160.48634
-3.4339554 -166.84808 -11.435677 160.50323 -22.356668 -103.46122
2690762500 -11.754877 25.956194 -3.3970051 -171.01823 -3.4297383 -171.20183
-3.398026 -171.05823 -22.276642 -119.61121 -11.727149 156.46599
-3.4285235 -171.25323 -11.725269 156.45714 -22.992571 -112.57089
2759500000 -11.83602 22.130753 -3.3921201 -175.42998 -3.4253469 -175.60561
-3.3933513 -175.46666 -22.739912 -129.23293 -12.01881 152.47873
-3.4247513 -175.65858 -12.016203 152.46628 -23.645054 -122.1141
2828237500 -11.916229 18.284952 -3.387985 -179.8446 -3.4209988 179.99475
-3.3894861 -179.87128 -23.173788 -139.10785 -12.311878 148.56631
-3.4199951 179.94139 -12.307863 148.55368 -24.267828 -132.16965
2896975000 -11.997587 14.449369 -3.3842762 175.74554 -3.4181254 175.58859
-3.3852723 175.71793 -23.5511 -149.31609 -12.603222 144.71443
-3.415184 175.53072 -12.598282 144.70142 -24.851255 -142.81387
2965712500 -12.077121 10.565159 -3.3803647 171.33452 -3.4131079 171.17751
-3.3799341 171.30069 -23.873243 -159.62643 -12.892159 140.91331
-3.4103231 171.12527 -12.890223 140.91579 -25.377506 -153.91711
3034450000 -12.161768 6.6680322 -3.3762887 166.92958 -3.4081175 166.77312
-3.3757687 166.888 -24.159346 -170.12482 -13.185267 137.1825
-3.4055359 166.71843 -13.182265 137.18515 -25.826626 -165.49564
3103187500 -12.245654 2.7797134 -3.3724318 162.51852 -3.4024894 162.3692
-3.3723557 162.47679 -24.382271 179.25188 -13.479897 133.51871
-3.4003203 162.30949 -13.475581 133.513 -26.196991 -177.4473
3171925000 -12.333475 -1.1175597 -3.3686543 158.11002 -3.396647 157.96599
-3.3688312 158.07216 -24.531586 168.65143 -13.769541 129.94498
-3.3960998 157.89798 -13.767254 129.91125 -26.460428 170.33232
3240662500 -12.419957 -5.0196643 -3.3651924 153.70357 -3.3913393 153.56055
-3.3650572 153.66209 -24.613585 158.01019 -14.060409 126.43655
-3.3910058 153.48856 -14.058105 126.38879 -26.596848 158.08524
3309400000 -12.514378 -8.9508123 -3.361428 149.30504 -3.3866599 149.15262
-3.3611267 149.25314 -24.635569 147.45532 -14.3507 122.96185
-3.3858821 149.08022 -14.347594 122.94033 -26.629093 145.80936
3378137500 -12.607161 -12.887014 -3.3576887 144.89996 -3.3815994 144.74481
-3.357651 144.84483 -24.59519 137.09502 -14.640236 119.59129
-3.3806367 144.66937 -14.637437 119.57723 -26.526176 133.74272
3446875000 -12.706221 -16.830462 -3.3546133 140.49785 -3.3776429 140.33084
-3.3539186 140.43912 -24.480343 126.88364 -14.926087 116.27461
-3.375658 140.25993 -14.922744 116.26804 -26.328762 121.9837
3515612500 -12.807014 -20.790102 -3.3513341 136.09103 -3.371469 135.91473
-3.35026 136.03294 -24.316282 117.05582 -15.210277 113.03867
-3.3715968 135.84808 -15.208133 113.02911 -26.031876 110.73519
3584350000 -12.91098 -24.760727 -3.3488812 131.688 -3.3681445 131.51149
-3.3476498 131.63242 -24.116327 107.393 -15.493185 109.88902
-3.3675313 131.43999 -15.489715 109.88949 -25.669775 100.00727
3653087500 -13.016809 -28.731422 -3.3468471 127.27987 -3.3651469 127.0968
-3.3452532 127.22916 -23.853354 98.157898 -15.766824 106.79175
-3.3637028 127.03018 -15.765054 106.79659 -25.248781 89.864708
3721825000 -13.129133 -32.725559 -3.3439348 122.87603 -3.3636136 122.69276
-3.3426256 122.82481 -23.572771 89.332329 -16.038563 103.78038
-3.3604348 122.61894 -16.034523 103.77936 -24.792707 80.311554
3790562500 -13.244066 -36.749668 -3.3412676 118.47755 -3.3613987 118.28413
-3.3413329 118.42122 -23.28196 80.765404 -16.308716 100.8237
-3.3570693 118.21236 -16.305033 100.84364 -24.318407 71.294594
3859300000 -13.365792 -40.773312 -3.339237 114.0737 -3.3589873 113.87788
-3.3392961 114.01944 -22.977345 72.698906 -16.570124 97.95417
-3.3550866 113.80042 -16.567028 97.980103 -23.842285 62.839905
3928037500 -13.488274 -44.781151 -3.3370233 109.66991 -3.3566275 109.46941
-3.3362193 109.61786 -22.682167 64.948746 -16.830198 95.173042
-3.3525848 109.38915 -16.825474 95.175537 -23.381323 54.850468
3996775000 -13.620953 -48.808125 -3.3343859 105.26475 -3.3540492 105.05915
-3.3342285 105.21423 -22.374388 57.388283 -17.079142 92.424232
-3.3499768 104.9781 -17.073191 92.417427 -22.935993 47.248272
4065512500 -13.757428 -52.848137 -3.3313012 100.85938 -3.3506622 100.65051
-3.3324447 100.80709 -22.084072 50.196671 -17.318047 89.748161
-3.3486059 100.56561 -17.312206 89.736191 -22.50156 40.01667
4134250000 -13.898505 -56.888897 -3.3289218 96.459572 -3.3494322 96.245605
-3.330478 96.404526 -21.810106 43.141888 -17.551243 87.124123
-3.34623 96.157547 -17.542139 87.125999 -22.097702 33.087788
4202987500 -14.047312 -60.926407 -3.3269339 92.054092 -3.3473268 91.831406
-3.3284543 91.99617 -21.542627 36.366329 -17.772978 84.575897
-3.3445461 91.739784 -17.764299 84.581299 -21.711603 26.390661
4271725000 -14.202748 -64.981071 -3.3242302 87.652588 -3.3447402 87.425903
-3.3249662 87.588417 -21.301908 29.747473 -17.989227 82.112648
-3.3414216 87.328903 -17.978888 82.085884 -21.352287 19.943836
4340462500 -14.36456 -69.059921 -3.3212216 83.241302 -3.3408682 83.005951
-3.3217974 83.17836 -21.059198 23.274281 -18.185455 79.683952
-3.3383942 82.916679 -18.177752 79.652824 -21.009359 13.688982
4409200000 -14.525321 -73.117775 -3.317893 78.832733 -3.3389409 78.594635
-3.3182483 78.768799 -20.835875 16.906624 -18.383986 77.32634
-3.3353136 78.503098 -18.37484 77.286377 -20.70034 7.5784168
4477937500 -14.694315 -77.184097 -3.3144267 74.421539 -3.3367143 74.175018
-3.3146036 74.358147 -20.620914 10.662468 -18.562569 74.966614
-3.3316684 74.085823 -18.551735 74.936615 -20.404766 1.6330918
4546675000 -14.867826 -81.288322 -3.3104632 70.010185 -3.3334961 69.75412
-3.3129675 69.941658 -20.399324 4.5620399 -18.72846 72.643349
-3.329169 69.666496 -18.716024 72.632759 -20.120934 -4.1797185
4615412500 -15.040822 -85.403603 -3.3070576 65.59687 -3.3318017 65.334984
-3.3094473 65.529274 -20.202635 -1.3905503 -18.883173 70.348984
-3.325815 65.253433 -18.869455 70.332268 -19.849899 -9.883153
4684150000 -15.22103 -89.505646 -3.3033955 61.185558 -3.3289227 60.918663
-3.304985 61.115032 -20.022627 -7.2618017 -19.025551 68.125984
-3.3226807 60.836414 -19.011868 68.100914 -19.605925 -15.457944
4752887500 -15.404221 -93.646683 -3.2997675 56.768074 -3.326004 56.498371
-3.3010988 56.697422 -19.848331 -12.982676 -19.153952 65.893929
-3.3198206 56.416653 -19.141869 65.878845 -19.377249 -20.934072
4821625000 -15.597119 -97.782143 -3.2952461 52.35125 -3.322788 52.082302
-3.2974925 52.284153 -19.692074 -18.644009 -19.269533 63.681377
-3.3159165 52.003025 -19.255373 63.649693 -19.163063 -26.328281
4890362500 -15.794218 -101.92696 -3.2917757 47.931686 -3.3195655 47.658577
-3.294373 47.867512 -19.544113 -24.225487 -19.373959 61.463139
-3.3132691 47.587128 -19.356821 61.457565 -18.971355 -31.672865
4959100000 -15.995305 -106.11951 -3.2886333 43.511711 -3.3172803 43.238014
-3.2917473 43.446026 -19.414143 -29.716961 -19.465115 59.241482
-3.3101656 43.165482 -19.445499 59.253311 -18.795109 -36.925007
5027837500 -16.205727 -110.31716 -3.2859449 39.086105 -3.3132226 38.811012
-3.2887285 39.025017 -19.287989 -35.089237 -19.529903 56.971004
-3.3076823 38.742931 -19.510275 56.99242 -18.62085 -42.073223
5096575000 -16.420839 -114.54295 -3.2823389 34.66301 -3.3086016 34.389935
-3.2862544 34.598095 -19.180624 -40.442528 -19.588219 54.725548
-3.3054035 34.32188 -19.571882 54.745419 -18.469954 -47.223236
5165312500 -16.649551 -118.77876 -3.2797694 30.238337 -3.3039141 29.972548
-3.2821689 30.175512 -19.094305 -45.747772 -19.637125 52.467964
-3.3013458 29.899836 -19.623426 52.502792 -18.33531 -52.303337
5234050000 -16.888767 -123.07085 -3.276526 25.81637 -3.2986443 25.549305
-3.2794807 25.746092 -19.016972 -51.025139 -19.673506 50.223408
-3.2977045 25.474363 -19.662132 50.267223 -18.219597 -57.355751
5302787500 -17.132948 -127.39513 -3.2743616 21.387484 -3.2952917 21.119135
-3.2772918 21.318205 -18.94705 -56.266422 -19.697304 47.908966
-3.293083 21.048845 -19.685905 47.968201 -18.116817 -62.387524
5371525000 -17.38563 -131.74698 -3.2720428 16.959547 -3.2915766 16.694574
-3.2748623 16.888294 -18.89109 -61.488914 -19.716047 45.58094
-3.2888725 16.618168 -19.701962 45.616871 -18.02145 -67.37249
5440262500 -17.651123 -136.14772 -3.2703762 12.53026 -3.2878859 12.25989
-3.2728651 12.454941 -18.837067 -66.669868 -19.718428 43.179913
-3.2852807 12.180537 -19.705153 43.210907 -17.939888 -72.309586
5509000000 -17.915529 -140.61122 -3.2677391 8.0989542 -3.284616 7.824472
-3.2714949 8.0208778 -18.794933 -71.807831 -19.714701 40.731255
-3.2821665 7.7429833 -19.706043 40.773373 -17.869741 -77.215645
5577737500 -18.201309 -145.14612 -3.265362 3.6732459 -3.2812212 3.3893435
-3.2689848 3.5948255 -18.76339 -76.969406 -19.709068 38.269867
-3.2785089 3.3128011 -19.699984 38.303459 -17.815584 -82.140625
5646475000 -18.493773 -149.69263 -3.2631972 -0.75332403 -3.2778463 -1.0447381
-3.2670243 -0.83369154 -18.740046 -82.057777 -19.693293 35.76482
-3.2744353 -1.1232188 -19.685154 35.767723 -17.767464 -87.027351
5715212500 -18.804214 -154.35709 -3.2612813 -5.1814556 -3.2765648 -5.4835367
-3.2658989 -5.2605462 -18.731497 -87.123131 -19.676384 33.206821
-3.2711825 -5.5630045 -19.663071 33.214691 -17.740641 -91.866837
5783950000 -19.120169 -159.07846 -3.259198 -9.6122408 -3.2752726 -9.9267826
-3.2644432 -9.6918297 -18.730221 -92.16304 -19.645662 30.597172
-3.2677119 -10.000527 -19.631235 30.577873 -17.721931 -96.676926
5852687500 -19.457422 -163.91376 -3.2590253 -14.042964 -3.2740467 -14.37129
-3.2624743 -14.124404 -18.742559 -97.121445 -19.607025 27.917393
-3.2659302 -14.446714 -19.592289 27.872122 -17.716867 -101.43805
5921425000 -19.817923 -168.8454 -3.2576692 -18.468264 -3.2723186 -18.812857
-3.2605619 -18.555956 -18.771742 -102.0803 -19.571356 25.185646
-3.2639318 -18.887096 -19.555485 25.125992 -17.715897 -106.20735
5990162500 -20.189878 -173.89355 -3.2566423 -22.899496 -3.2709336 -23.256666
-3.2601335 -22.987707 -18.814653 -107.04357 -19.522432 22.42063
-3.2624047 -23.327469 -19.510181 22.381554 -17.741716 -110.96687
6058900000 -20.581041 -179.08112 -3.2555456 -27.328756 -3.270484 -27.693092
-3.2594223 -27.420767 -18.869938 -111.95483 -19.478781 19.607817
-3.2609231 -27.768373 -19.463589 19.56233 -17.770634 -115.73752
6127637500 -20.991186 175.57436 -3.2556741 -31.758936 -3.2697451 -32.129929
-3.2582712 -31.855467 -18.946373 -116.88312 -19.425179 16.760159
-3.2596481 -32.214703 -19.408201 16.694782 -17.814075 -120.46932
6196375000 -21.419748 170.16997 -3.2553723 -36.190231 -3.2686005 -36.571552
-3.2581398 -36.290665 -19.028664 -121.8169 -19.36644 13.830635
-3.2587757 -36.65789 -19.352798 13.773973 -17.865208 -125.13895
6265112500 -21.87126 164.4841 -3.2553096 -40.627647 -3.2684908 -41.014496
-3.2578537 -40.730549 -19.127087 -126.71431 -19.307192 10.852501
-3.2584634 -41.104149 -19.292809 10.815523 -17.936058 -129.80743
6333850000 -22.341288 158.59479 -3.2557132 -45.062996 -3.2675173 -45.451763
-3.2569461 -45.168274 -19.234097 -131.65489 -19.248266 7.8320131
-3.2578571 -45.549259 -19.233141 7.7883658 -18.00845 -134.49924
6402587500 -22.82061 152.45784 -3.2563865 -49.499584 -3.2671623 -49.89436
-3.2581849 -49.604309 -19.344677 -136.55476 -19.189505 4.7347836
-3.2593811 -49.996365 -19.175003 4.6864252 -18.091211 -139.14383
6471325000 -23.311346 146.05139 -3.2562628 -53.938797 -3.2668862 -54.332279
-3.2587121 -54.03928 -19.479719 -141.47313 -19.129606 1.6248764
-3.2585049 -54.440815 -19.119091 1.6127237 -18.188564 -143.82843
6540062500 -23.801418 139.41527 -3.2562969 -58.380249 -3.2665133 -58.774986
