! MARKI MICROWAVE INC.
! Email:             	info@markimicrowave.com   				Phone:   408-778-4200
! Model Number:      	PD-0040						Date:    10/12
! Filename:		PD_0040.S3P						Version: 1.0
! Description:       	3-port S-parameter data for Power Divider PD-0040
! Frequency Measured: 	10 MHz to 40 GHz		
! Port Configuration:	PORT 1: COMMON, PORT 2 and Port 3: Output


! S3P File: Measurements: Mag<S11> Ang<S11> Mag<S12> Ang<S12> Mag<S13> Ang<S13>! row 1 
!			  Mag<S21> Ang<S21> Mag<S22> Ang<S22> Mag<S23> Ang<S23>! row 2 
!			  Mag<S31> Ang<S31> Mag<S32> Ang<S32> Mag<S33> Ang<S33>! row 3 


# GHz S DB R 50

0.01	-47.1087	-74.6154	-5.98522	-0.0805112	-5.98522	-0.0805112
	-5.97206	-0.0914917	-44.205		-122.083	-5.987		-0.134225
	-5.97206	-0.0914917	-5.97177	-0.331866	-44.205		376.471
0.21	-47.4683	120.649		-5.99975	-8.07473	-5.99975	-8.07473
	-5.99973	-8.08315	-46.2891	109.325		-6.0177		-8.40159
	-5.99973	-8.08315	-6.01548	-8.43131	-46.2891	321.541
0.41	-44.2025	74.9465		-6.01103	-15.7791	-6.01103	-15.7791
	-6.01214	-15.7944	-42.7016	63.6307		-6.03361	-16.3687
	-6.01214	-15.7944	-6.03331	-16.3888	-42.7016	52.1899
0.61	-41.3102	61.9342		-6.01938	-23.4342	-6.01938	-23.4342
	-6.02039	-23.4529	-39.6661	48.2002		-6.04444	-24.2875
	-6.02039	-23.4529	-6.044		-24.3085	-39.6661	-86.0282
0.81	-39.8112	53.263		-6.02772	-31.0951	-6.02772	-31.0951
	-6.02871	-31.1122	-37.8594	37.8686		-6.05436	-32.2092
	-6.02871	-31.1122	-6.05413	-32.2284	-37.8594	-206.085
1.01	-38.4823	43.6661		-6.03738	-38.7482	-6.03738	-38.7482
	-6.03826	-38.7693	-36.3619	28.6032		-6.06524	-40.1219
	-6.03826	-38.7693	-6.06469	-40.1463	-36.3619	-345.733
1.21	-37.1685	37.0814		-6.0486		-46.4044	-6.0486		-46.4044
	-6.04877	-46.422		-35.1683	20.2244		-6.07698	-48.0378
	-6.04877	-46.422		-6.07595	-48.0592	-35.1683	-518.236
1.41	-36.1012	32.3573		-6.06191	-54.0539	-6.06191	-54.0539
	-6.06211	-54.0656	-34.1723	12.9586		-6.09039	-55.9491
	-6.06211	-54.0656	-6.09002	-55.9647	-34.1723	-739.763
1.61	-35.2615	27.6984		-6.07739	-61.6898	-6.07739	-61.6898
	-6.07664	-61.7028	-33.3085	6.63347		-6.10622	-63.8459
	-6.07664	-61.7028	-6.10539	-63.8665	-33.3085	-1073.01
1.81	-34.5404	22.8696		-6.09322	-69.3179	-6.09322	-69.3179
	-6.09293	-69.3291	-32.5766	0.912743	-6.12269	-71.7396
	-6.09293	-69.3291	-6.12212	-71.7574	-32.5766	-2060.1
2.01	-33.8236	18.7199		-6.11143	-76.9298	-6.11143	-76.9298
	-6.11062	-76.9402	-31.9565	-4.26493	-6.1415		-79.6171
	-6.11062	-76.9402	-6.14023	-79.6328	-31.9565	-1292.83
2.21	-33.087		14.5338		-6.13087	-84.5194	-6.13087	-84.5194
	-6.12913	-84.5328	-31.3166	-9.82295	-6.16088	-87.4715
	-6.12913	-84.5328	-6.15896	-87.4898	-31.3166	-877.635
2.41	-32.3314	9.93866		-6.14911	-92.0865	-6.14911	-92.0865
	-6.14706	-92.1045	-30.5781	-16.7105	-6.17931	-95.3022
	-6.14706	-92.1045	-6.17685	-95.3255	-30.5781	-613.217
2.61	-31.5982	4.81517		-6.16503	-99.6417	-6.16503	-99.6417
	-6.16361	-99.6588	-29.8718	-24.0439	-6.1958		-103.124
	-6.16361	-99.6588	-6.19464	-103.145	-29.8718	-432.146
2.81	-30.9014	-0.706537	-6.18041	-107.183	-6.18041	-107.183
	-6.17909	-107.206	-29.1958	-31.5185	-6.21148	-110.932
	-6.17909	-107.206	-6.20989	-110.959	-29.1958	-297.43
3.01	-30.2385	-6.47239	-6.19387	-114.719	-6.19387	-114.719
	-6.19263	-114.744	-28.5466	-39.1714	-6.22614	-118.736
	-6.19263	-114.744	-6.22448	-118.768	-28.5466	-189.251
3.21	-29.6178	-12.5291	-6.20553	-122.247	-6.20553	-122.247
	-6.20481	-122.27		-27.9198	-46.8895	-6.23915	-126.53	
	-6.20481	-122.27		-6.23766	-126.566	-27.9198	-99.7482
3.41	-29.045		-18.8736	-6.21619	-129.772	-6.21619	-129.772
	-6.21559	-129.794	-27.336		-54.6416	-6.25062	-134.322
	-6.21559	-129.794	-6.24935	-134.351	-27.336		-23.6053
3.61	-28.4915	-25.2617	-6.2253		-137.294	-6.2253		-137.294
	-6.22423	-137.315	-26.8151	-62.5282	-6.25968	-142.107
	-6.22423	-137.315	-6.25896	-142.137	-26.8151	43.4911
3.81	-27.9941	-31.6874	-6.23307	-144.818	-6.23307	-144.818
	-6.23128	-144.835	-26.3428	-70.5148	-6.26808	-149.897
	-6.23128	-144.835	-6.26629	-149.925	-26.3428	103.313
4.01	-27.5676	-38.4522	-6.23939	-152.341	-6.23939	-152.341
	-6.23766	-152.362	-25.8917	-78.5636	-6.27512	-157.688
	-6.23766	-152.362	-6.27339	-157.714	-25.8917	157.104
4.21	-27.1515	-45.4555	-6.24486	-159.865	-6.24486	-159.865
	-6.2438		-159.893	-25.4664	-86.6452	-6.28131	-165.478
	-6.2438		-159.893	-6.28035	-165.513	-25.4664	205.832
4.41	-26.7514	-52.454		-6.24986	-167.396	-6.24986	-167.396
	-6.24846	-167.42		-25.093		-94.6782	-6.28755	-173.283
	-6.24846	-167.42		-6.28637	-173.312	-25.093		249.955
4.61	-26.3895	-59.3951	-6.25462	-174.932	-6.25462	-174.932
	-6.25324	-174.954	-24.7846	-102.834	-6.29347	178.911	
	-6.25324	-174.954	-6.29134	178.892		-24.7846	291.079
4.81	-26.0511	-66.3663	-6.25778	177.533		-6.25778	177.533	
	-6.25701	177.513		-24.5137	-111.088	-6.29753	171.107	
	-6.25701	177.513		-6.29481	171.098		-24.5137	329.502
5.01	-25.7408	-73.1887	-6.26039	169.985		-6.26039	169.985	
	-6.25953	169.969		-24.2756	-119.362	-6.30075	163.29	
	-6.25953	169.969		-6.29721	163.283		-24.2756	365.253
5.21	-25.4346	-79.7903	-6.26441	162.428		-6.26441	162.428	
	-6.26299	162.406		-24.0727	-127.713	-6.30502	155.459	
	-6.26299	162.406		-6.3015		155.45		-24.0727	398.909
5.41	-25.1589	-86.2515	-6.27033	154.871		-6.27033	154.871	
	-6.26779	154.843		-23.877		-136.142	-6.31083	147.627	
	-6.26779	154.843		-6.3067		147.616		-23.877		430.715
5.61	-24.9225	-92.5806	-6.27613	147.311		-6.27613	147.311	
	-6.27377	147.285		-23.699		-144.471	-6.31766	139.794	
	-6.27377	147.285		-6.31339	139.779		-23.699		460.265
5.81	-24.705		-98.9083	-6.28262	139.754		-6.28262	139.754	
	-6.28033	139.727		-23.5368	-152.805	-6.32592	131.961	
	-6.28033	139.727		-6.32086	131.941		-23.5368	488.176
6.01	-24.4858	-105.181	-6.29023	132.199		-6.29023	132.199	
	-6.28839	132.175		-23.3814	-161.225	-6.33539	124.13	
	-6.28839	132.175		-6.3299		124.106		-23.3814	514.871
6.21	-24.2792	-111.389	-6.29904	124.649		-6.29904	124.649	
	-6.29697	124.628		-23.2351	-169.567	-6.34606	116.304	
	-6.29697	124.628		-6.3403		116.275		-23.2351	539.976
6.41	-24.0827	-117.603	-6.30795	117.11		-6.30795	117.11	
	-6.30616	117.09		-23.0967	-178.07		-6.3571		108.485	
	-6.30616	117.09		-6.35161	108.453		-23.0967	564.326
6.61	-23.8722	-123.87		-6.31682	109.584		-6.31682	109.584	
	-6.31506	109.56		-22.9569	173.24		-6.36843	100.676	
	-6.31506	109.56		-6.36399	100.639		-22.9569	550.642
6.81	-23.6467	-130.158	-6.32629	102.063		-6.32629	102.063	
	-6.32462	102.039		-22.8034	164.333		-6.38102	92.8719	
	-6.32462	102.039		-6.37734	92.8299		-22.8034	524.373
7.01	-23.4244	-136.439	-6.33566	94.5526		-6.33566	94.5526	
	-6.334		94.5266		-22.6348	155.177		-6.39495	85.0772	
	-6.334		94.5266		-6.39142	85.0319		-22.6348	495.842
7.21	-23.1895	-142.915	-6.34411	87.0539		-6.34411	87.0539	
	-6.34265	87.026		-22.4134	145.879		-6.4089		77.2956	
	-6.34265	87.026		-6.40574	77.2488		-22.4134	465.092
7.41	-22.9408	-149.629	-6.35108	79.564		-6.35108	79.564	
	-6.34972	79.5347		-22.1752	136.644		-6.42209	69.5279	
	-6.34972	79.5347		-6.41885	69.4767		-22.1752	432.546
7.61	-22.6739	-156.29		-6.3568		72.0837		-6.3568		72.0837	
	-6.35537	72.0568		-21.9258	127.101		-6.43433	61.7702	
	-6.35537	72.0568		-6.43177	61.7211		-21.9258	396.518
7.81	-22.4023	-163.006	-6.36006	64.6063		-6.36006	64.6063	
	-6.35891	64.5789		-21.6336	117.423		-6.44435	54.0191	
	-6.35891	64.5789		-6.44311	53.9728		-21.6336	357.101
8.01	-22.1352	-169.895	-6.36093	57.1284		-6.36093	57.1284	
	-6.3605		57.1021		-21.2974	107.894		-6.45272	46.2738	
	-6.3605		57.1021		-6.45173	46.2338		-21.2974	314.982
8.21	-21.8753	-176.905	-6.35965	49.6457		-6.35965	49.6457	
	-6.35905	49.6204		-20.9691	98.3245		-6.45976	38.5328	
	-6.35905	49.6204		-6.45793	38.4959		-20.9691	268.762
8.41	-21.6113	176.051		-6.35626	42.1572		-6.35626	42.1572
	-6.35571	42.1344		-20.6189	88.6871		-6.46529	30.7936	
	-6.35571	42.1344		-6.46318	30.7574		-20.6189	217.424
8.61	-21.3603	168.967		-6.3515		34.6632		-6.3515		34.6632	
	-6.35018	34.6422		-20.2571	79.1762		-6.46935	23.0516	
	-6.35018	34.6422		-6.46616	23.0164		-20.2571	160.969
8.81	-21.1194	161.797		-6.3452		27.1583		-6.3452		27.1583	
	-6.34341	27.1355		-19.8971	69.7489		-6.47165	15.3068	
	-6.34341	27.1355		-6.46673	15.2674		-19.8971	97.8782
9.01	-20.8817	154.57		-6.33805	19.6429		-6.33805	19.6429	
	-6.33649	19.6147		-19.5413	60.4358		-6.47141	7.55809	
	-6.33649	19.6147		-6.4668		7.51688		-19.5413	26.5528
9.21	-20.6586	147.414		-6.3295		12.1102		-6.3295		12.1102	
	-6.32875	12.0819		-19.1905	51.1606		-6.46973	-0.200643
	-6.32875	12.0819		-6.46526	-0.243435	-19.1905	-56.3641
9.41	-20.4489	140.226		-6.32196	4.55939		-6.32196	4.55939	
	-6.32067	4.53113		-18.8391	42.0259		-6.46723	-7.97594
	-6.32067	4.53113		-6.46266	-8.01863	-18.8391	-154.247
9.61	-20.2587	132.991		-6.31478	-2.99901	-6.31478	-2.99901
	-6.31262	-3.03035	-18.4945	33.0826		-6.46384	-15.7593
	-6.31262	-3.03035	-6.45928	-15.8082	-18.4945	-273.327
9.81	-20.0638	125.782		-6.30773	-10.5668	-6.30773	-10.5668
	-6.30572	-10.5965	-18.1582	24.3645		-6.46032	-23.5497
	-6.30572	-10.5965	-6.45684	-23.6013	-18.1582	-425.553
10.01	-19.8775	118.584		-6.30092	-18.1449	-6.30092	-18.1449
	-6.29945	-18.1755	-17.8366	15.7777		-6.45693	-31.3539
	-6.29945	-18.1755	-6.45516	-31.4052	-17.8366	-641.802
10.21	-19.7031	111.319		-6.29448	-25.733		-6.29448	-25.733	
	-6.29335	-25.764		-17.5207	7.33737		-6.45382	-39.1671
	-6.29335	-25.764		-6.4539		-39.2185	-17.5207	-1022.82
10.41	-19.5323	104.029		-6.28935	-33.3348	-6.28935	-33.3348
	-6.28858	-33.3625	-17.2038	-0.934485	-6.45119	-46.9907
	-6.28858	-33.3625	-6.45241	-47.0376	-17.2038	-2048.38
10.61	-19.3549	96.7117		-6.28527	-40.9429	-6.28527	-40.9429
	-6.28534	-40.9683	-16.8998	-8.98358	-6.44979	-54.8255	
	-6.28534	-40.9683	-6.45191	-54.8638	-16.8998	-922.088
10.81	-19.1786	89.4137		-6.28394	-48.5561	-6.28394	-48.5561
	-6.28328	-48.5847	-16.6107	-16.8758	-6.44985	-62.6676
	-6.28328	-48.5847	-6.45314	-62.6957	-16.6107	-608.319
11.01	-18.9944	82.1678		-6.28409	-56.1722	-6.28409	-56.1722
	-6.28362	-56.199		-16.3339	-24.6033	-6.45221	-70.5166
	-6.28362	-56.199		-6.45608	-70.5327	-16.3339	-420.7
11.21	-18.8035	74.8619		-6.28619	-63.7891	-6.28619	-63.7891
	-6.28558	-63.8123	-16.07		-32.1516	-6.45691	-78.366	
	-6.28558	-63.8123	-6.46024	-78.3683	-16.07		-287.533
11.41	-18.5973	67.589		-6.28894	-71.4004	-6.28894	-71.4004
	-6.28865	-71.423		-15.8266	-39.5891	-6.46245	-86.209	
	-6.28865	-71.423		-6.46529	-86.2023	-15.8266	-183.973
11.61	-18.3761	60.4412		-6.29376	-79.0031	-6.29376	-79.0031
	-6.29339	-79.0234	-15.5996	-46.9618	-6.46976	-94.0419
	-6.29339	-79.0234	-6.47081	-94.0331	-15.5996	-98.982
11.81	-18.1615	53.375		-6.29963	-86.5964	-6.29963	-86.5964
	-6.29808	-86.6203	-15.389		-54.2712	-6.47789	-101.862
	-6.29808	-86.6203	-6.47771	-101.852	-15.389		-26.9896
12.01	-17.9374	46.3579		-6.30554	-94.1757	-6.30554	-94.1757
	-6.30332	-94.2005	-15.1921	-61.5395	-6.48514	-109.66	
	-6.30332	-94.2005	-6.4851		-109.651	-15.1921	35.5594
12.21	-17.7097	39.4754		-6.31029	-101.751	-6.31029	-101.751
	-6.30871	-101.771	-15.0093	-68.7969	-6.49103	-117.452
	-6.30871	-101.771	-6.49233	-117.444	-15.0093	91.0389
12.41	-17.4974	32.737		-6.31399	-109.314	-6.31399	-109.314
	-6.31317	-109.334	-14.8461	-76.0415	-6.49483	-125.233	
	-6.31317	-109.334	-6.4979		-125.228	-14.8461	140.865
12.61	-17.2971	26.0105		-6.3176		-116.865	-6.3176		-116.865
	-6.31799	-116.89		-14.7068	-83.2811	-6.49812	-133.01	
	-6.31799	-116.89		-6.50331	-133.002	-14.7068	186.124
12.81	-17.1026	19.3785		-6.31958	-124.406	-6.31958	-124.406	
	-6.32084	-124.44		-14.5846	-90.6155	-6.50063	-140.779
	-6.32084	-124.44		-6.50752	-140.764	-14.5846	228.129
13.01	-16.9268	12.8713		-6.32042	-131.955	-6.32042	-131.955
	-6.321		-131.978	-14.4798	-97.9922	-6.50175	-148.555
	-6.321		-131.978	-6.50882	-148.526	-14.4798	267.077
13.21	-16.7748	6.41852		-6.32032	-139.511	-6.32032	-139.511
	-6.3203		-139.521	-14.3969	-105.386	-6.50182	-156.337
	-6.3203		-139.521	-6.50791	-156.284	-14.3969	303.278
13.41	-16.6472	0.0144862	-6.31837	-147.068	-6.31837	-147.068
	-6.31867	-147.077	-14.3425	-112.878	-6.50067	-164.122
	-6.31867	-147.077	-6.50564	-164.05		-14.3425	337.455
13.61	-16.5438	-6.37104	-6.31437	-154.629	-6.31437	-154.629
	-6.31434	-154.639	-14.3168	-120.412	-6.49722	-171.906
	-6.31434	-154.639	-6.50152	-171.822	-14.3168	369.612
13.81	-16.4618	-12.7647	-6.30903	-162.198	-6.30903	-162.198
	-6.30893	-162.209	-14.311		-128.065	-6.49236	-179.69	
	-6.30893	-162.209	-6.49523	-179.604	-14.311		400.277
14.01	-16.3944	-19.1796	-6.30308	-169.777	-6.30308	-169.777
	-6.30236	-169.785	-14.3292	-135.789	-6.48617	172.525	
	-6.30236	-169.785	-6.48685	172.617		-14.3292	429.423
14.21	-16.3448	-25.517		-6.2961		-177.367	-6.2961		-177.367
	-6.29396	-177.373	-14.374		-143.596	-6.47777	164.736	
	-6.29396	-177.373	-6.47685	164.829		-14.374		457.242
14.41	-16.3143	-31.835		-6.28824	175.025		-6.28824	175.025	
	-6.28576	175.015		-14.4341	-151.59		-6.46789	156.935	
	-6.28576	175.015		-6.46537	157.022		-14.4341	484.205
14.61	-16.2999	-38.1556	-6.28031	167.404		-6.28031	167.404	
	-6.27851	167.395		-14.4981	-159.621	-6.45677	149.122	
	-6.27851	167.395		-6.45347	149.203		-14.4981	509.894
14.81	-16.2912	-44.4397	-6.27365	159.77		-6.27365	159.77	
	-6.27193	159.762		-14.5746	-167.673	-6.44465	141.293	
	-6.27193	159.762		-6.44072	141.37		-14.5746	534.387
15.01	-16.3013	-50.6555	-6.26808	152.123		-6.26808	152.123	
	-6.26611	152.115		-14.6696	-175.756	-6.43192	133.444	
	-6.26611	152.115		-6.42718	133.518		-14.6696	557.817
15.21	-16.3173	-56.839		-6.26436	144.461		-6.26436	144.461	
	-6.2618		144.454		-14.7806	176.087		-6.41996	125.578	
	-6.2618		144.454		-6.41379	125.648		-14.7806	558.754
15.41	-16.3346	-62.8881	-6.2623		136.789		-6.2623		136.789	
	-6.25904	136.781		-14.9074	167.856		-6.40904	117.702	
	-6.25904	136.781		-6.40081	117.758		-14.9074	534.931
15.61	-16.3543	-68.7821	-6.26206	129.112		-6.26206	129.112	
	-6.25902	129.099		-15.039		159.481		-6.39809	109.809	
	-6.25902	129.099		-6.39024	109.851		-15.039		509.457
15.81	-16.3769	-74.557		-6.26466	121.423		-6.26466	121.423	
	-6.26126	121.413		-15.1752	151.029		-6.38901	101.897	
	-6.26126	121.413		-6.38112	101.931		-15.1752	482.357
16.01	-16.3896	-80.1915	-6.26906	113.737		-6.26906	113.737	
	-6.26623	113.723		-15.3066	142.44		-6.38189	93.9771	
	-6.26623	113.723		-6.37356	94.0023		-15.3066	453.22
16.21	-16.4013	-85.6403	-6.27528	106.055		-6.27528	106.055	
	-6.2732		106.039		-15.4355	133.718		-6.3759		86.0479	
	-6.2732		106.039		-6.36805	86.064		-15.4355	421.773
16.41	-16.4073	-90.9193	-6.28443	98.3832		-6.28443	98.3832	
	-6.28166	98.3573		-15.5626	124.895		-6.3724		78.1134	
	-6.28166	98.3573		-6.36429	78.1161		-15.5626	387.802
16.61	-16.4148	-96.067		-6.2952		90.7164		-6.2952		90.7164	
	-6.29204	90.6891		-15.6731	115.905		-6.37081	70.1735	
	-6.29204	90.6891		-6.36276	70.1744		-15.6731	350.628
16.81	-16.4278	-101.102	-6.30772	83.0581		-6.30772	83.0581	
	-6.3045		83.0335		-15.757		106.777		-6.37156	62.2314		
	-6.3045		83.0335		-6.36388	62.2334		-15.757		309.805
17.01	-16.4465	-106.155	-6.32109	75.4095		-6.32109	75.4095	
	-6.318		75.3874		-15.8149	97.5889		-6.37413	54.2905	
	-6.318		75.3874		-6.36727	54.2893		-15.8149	265.025
17.21	-16.4586	-111.212	-6.33418	67.7746		-6.33418	67.7746	
	-6.33194	67.7525		-15.8404	88.3215		-6.37863	46.3569	
	-6.33194	67.7525		-6.37237	46.3584		-15.8404	215.368
17.41	-16.4727	-116.263	-6.34825	60.1592		-6.34825	60.1592	
	-6.34523	60.1297		-15.8376	79.0646		-6.38448	38.4379	
	-6.34523	60.1297		-6.37826	38.4313		-15.8376	160.267
17.61	-16.5009	-121.345	-6.36096	52.5493		-6.36096	52.5493	
	-6.35801	52.5243		-15.809		69.8342		-6.39031	30.5252	
	-6.35801	52.5243		-6.38482	30.5194		-15.809		98.4865
17.81	-16.5356	-126.588	-6.37211	44.9472		-6.37211	44.9472	
	-6.37026	44.9244		-15.7529	60.6097		-6.39606	22.6203	
	-6.37026	44.9244		-6.39115	22.6161		-15.7529	27.9827
18.01	-16.5774	-131.93		-6.38263	37.3541		-6.38263	37.3541	
	-6.38079	37.331		-15.6648	51.4853		-6.40193	14.7279	
	-6.38079	37.331		-6.39674	14.7196		-15.6648	-53.2157
18.21	-16.6318	-137.494	-6.39123	29.7657		-6.39123	29.7657	
	-6.38935	29.7401		-15.5616	42.535		-6.40661	6.8409	
	-6.38935	29.7401		-6.40125	6.83472		-15.5616	-148.254
18.41	-16.7091	-143.181	-6.39833	22.1853		-6.39833	22.1853	
	-6.39609	22.1598		-15.4496	33.7143		-6.40948	-1.03601
	-6.39609	22.1598		-6.4035		-1.04418	-15.4496	-263.915
18.61	-16.7972	-149.093	-6.40363	14.5891		-6.40363	14.5891	
	-6.40174	14.5752		-15.3148	25.0113		-6.41109	-8.93121
	-6.40174	14.5752		-6.40519	-8.93209	-15.3148	-412.514
18.81	-16.9075	-155.213	-6.40697	6.98367		-6.40697	6.98367	
	-6.40601	6.97741		-15.1705	16.4182		-6.41289	-16.8273
	-6.40601	6.97741		-6.40737	-16.8216	-15.1705	-621.998
19.01	-17.0289	-161.569	-6.40936	-0.622727	-6.40936	-0.622727
	-6.40835	-0.632117	-15.0347	7.97237		-6.41366	-24.7152
	-6.40835	-0.632117	-6.40852	-24.7114	-15.0347	-981.517
19.21	-17.1591	-168.087	-6.41163	-8.23166	-6.41163	-8.23166
	-6.40919	-8.25063	-14.9019	-0.302843	-6.41317	-32.6001
	-6.40919	-8.25063	-6.40685	-32.6042	-14.9019	-2609.14
19.41	-17.3012	-174.729	-6.41297	-15.8687	-6.41297	-15.8687
	-6.40992	-15.8907	-14.7759	-8.40005	-6.41076	-40.5006
	-6.40992	-15.8907	-6.40378	-40.508		-14.7759	-955.511
19.61	-17.4572	178.456		-6.41434	-23.5166	-6.41434	-23.5166	
	-6.41222	-23.5403	-14.6609	-16.3093	-6.40599	-48.4094
	-6.41222	-23.5403	-6.40021	-48.4197	-14.6609	-625.312
19.81	-17.6101	171.526		-6.41723	-31.1805	-6.41723	-31.1805
	-6.41498	-31.1982	-14.5598	-24.0869	-6.40094	-56.3352
	-6.41498	-31.1982	-6.39569	-56.3403	-14.5598	-431.256
20.01	-17.7574	164.591		-6.42154	-38.8613	-6.42154	-38.8613
	-6.41933	-38.8783	-14.4614	-31.7214	-6.39586	-64.2787
	-6.41933	-38.8783	-6.39035	-64.2851	-14.4614	-294.237
20.21	-17.8866	157.642		-6.42805	-46.5538	-6.42805	-46.5538
	-6.42635	-46.5785	-14.369		-39.3065	-6.39059	-72.2435
	-6.42635	-46.5785	-6.38572	-72.2529	-14.369		-187.538
20.41	-18.0152	150.887		-6.43784	-54.2464	-6.43784	-54.2464
	-6.43592	-54.2707	-14.2996	-46.7102	-6.38564	-80.2253
	-6.43592	-54.2707	-6.38148	-80.2267	-14.2996	-101.655
20.61	-18.1604	144.26		-6.45067	-61.9382	-6.45067	-61.9382
	-6.44852	-61.9609	-14.2527	-53.9077	-6.38301	-88.2196
	-6.44852	-61.9609	-6.37862	-88.2178	-14.2527	-30.3347
20.81	-18.3237	137.665		-6.46705	-69.6283	-6.46705	-69.6283
	-6.46481	-69.6501	-14.2222	-60.9981	-6.38351	-96.2278
	-6.46481	-69.6501	-6.37852	-96.2282	-14.2222	31.1613
21.01	-18.4779	131.148		-6.48628	-77.3007	-6.48628	-77.3007
	-6.48398	-77.3301	-14.1944	-68.0028	-6.38655	-104.24	
	-6.48398	-77.3301	-6.38087	-104.244	-14.1944	85.2611
21.21	-18.6423	124.678		-6.5092		-84.9647	-6.5092		-84.9647
	-6.50587	-84.9893	-14.1737	-74.8766	-6.3918		-112.258
	-6.50587	-84.9893	-6.3859		-112.26		-14.1737	133.182
21.41	-18.8088	118.228		-6.53338	-92.6052	-6.53338	-92.6052
	-6.53019	-92.6298	-14.1738	-81.6904	-6.3994		-120.279
	-6.53019	-92.6298	-6.39311	-120.283	-14.1738	176.527
21.61	-18.9721	111.706		-6.55812	-100.224	-6.55812	-100.224
	-6.5559		-100.251	-14.17		-88.4794	-6.40881	-128.301
	-6.5559		-100.251	-6.40351	-128.309	-14.17		216.256
21.81	-19.136		105.166		-6.58469	-107.82		-6.58469	-107.82	
	-6.5822		-107.847	-14.1811	-95.188		-6.42141	-136.323
	-6.5822		-107.847	-6.41648	-136.331	-14.1811	252.628
22.01	-19.3144	98.5697		-6.61146	-115.391	-6.61146	-115.391
	-6.60775	-115.421	-14.2198	-101.884	-6.4371		-144.34	
	-6.60775	-115.421	-6.4315		-144.354	-14.2198	286.458
22.21	-19.4924	91.736		-6.63582	-122.946	-6.63582	-122.946
	-6.63269	-122.984	-14.2665	-108.71		-6.45494	-152.356
	-6.63269	-122.984	-6.44943	-152.376	-14.2665	318.735
22.41	-19.6628	84.5048		-6.65996	-130.485	-6.65996	-130.485
	-6.6574		-130.521	-14.3199	-115.617	-6.47483	-160.362
	-6.6574		-130.521	-6.4706		-160.385	-14.3199	349.39
22.61	-19.7773	77.1803		-6.68121	-137.999	-6.68121	-137.999
	-6.6796		-138.033	-14.389		-122.609	-6.49527	-168.362
	-6.6796		-138.033	-6.49333	-168.38		-14.389		378.609
22.81	-19.8699	69.7508		-6.69888	-145.495	-6.69888	-145.495
	-6.69803	-145.534	-14.4877	-129.822	-6.51705	-176.339
