! MARKI MICROWAVE INC.
! Email:             	info@markimicrowave.com   				Phone:   408-778-4200
! Model Number:      	PD0R618							Date:    07/11
! Filename:		PD-0R618.S3P						Version: 1.0
! Description:       	3-port S-parameter data for Power Divider PD0R618
! Frequency Range: 	0.6 GHz to 18 GHz		
! Port Configuration:	PORT 1: COMMON, PORT 2 and Port 3: Output


! S3P File: Measurements: Mag<S11> Ang<S11> Mag<S12> Ang<S12> Mag<S13> Ang<S13>! row 1 
!			  Mag<S21> Ang<S21> Mag<S22> Ang<S22> Mag<S23> Ang<S23>! row 2 
!			  Mag<S31> Ang<S31> Mag<S32> Ang<S32> Mag<S33> Ang<S33>! row 3 


# GHz S DB R 50


0.6	-15.8308	44.404		-3.19075	-119.139	-3.16193	-119.037
	-3.1941		-119.122	-26.7735	4.34214		-15.4713	-157.788
	-3.16584	-119.026	-15.4762	-157.776	-26.4139	4.78205
0.687	-18.3916	21.1367		-3.13305	-136.981	-3.10269	-136.873
	-3.13628	-136.965	-28.506		6.19101		-17.906		-174.081
	-3.10664	-136.865	-17.9103	-174.079	-28.0298	6.12077
0.774	-22.0413	-7.68318	-3.11265	-154.891	-3.08081	-154.778
	-3.11511	-154.874	-28.8889	9.38782		-20.9446	172.828	
	-3.08433	-154.771	-20.9473	172.831		-28.3742	8.72215
0.861	-26.2591	-53.6845	-3.10405	-172.783	-3.07096	-172.666
	-3.10657	-172.767	-28.3166	7.9133		-24.6614	167.387	
	-3.07384	-172.661	-24.663		167.404		-27.8085	7.14323
0.948	-27.9724	-115.929	-3.12773	169.401		-3.09348	169.521	
	-3.13086	169.418		-27.6407	-0.242507	-27.8255	176.481	
	-3.09652	169.526		-27.8293	176.505		-27.1569	-0.66247
1.035	-26.077		-174.843	-3.14629	151.679		-3.11029	151.8	
	-3.14978	151.696		-27.3135	-12.8963	-28.6188	-167.09
	-3.11392	151.805		-28.6238	-167.063	-26.8336	-12.4434
1.122	-22.7717	146.235		-3.18371	134.057		-3.14612	134.179
	-3.18675	134.073		-27.4901	-28.412		-26.9884	-158.054
	-3.14945	134.182		-26.9942	-158.036	-27.028		-26.8345
1.209	-20.5641	119.769		-3.20262	116.506		-3.1636		116.624	
	-3.20564	116.523		-28.0945	-45.6396	-24.907		-162.916	
	-3.1668		116.631		-24.9118	-162.899	-27.6914	-42.4598
1.296	-19.4252	96.5787		-3.23105	99.0134		-3.19092	99.1274
	-3.23406	99.0279		-29.1557	-64.3968	-23.5899	-175.615
	-3.19392	99.1343		-23.5931	-175.599	-28.8838	-59.2909
1.383	-18.9989	74.3627		-3.23762	81.5459		-3.19679	81.6554
	-3.2403		81.5604		-30.6015	-84.4429	-23.0014	169.066	
	-3.19941	81.6628		-23.0046	169.085		-30.6446	-76.9269
1.47	-19.2521	51.9405		-3.25094	64.0758		-3.20956	64.1871
	-3.25319	64.093		-32.5155	-105.34		-23.0579	153.016
	-3.21203	64.1954		-23.0616	153.035		-33.1543	-94.7814
1.557	-20.1023	28.3829		-3.24724	46.5793		-3.20387	46.6938
	-3.24918	46.5989		-34.9137	-126.011	-23.6607	137.449	
	-3.20679	46.7029		-23.6645	137.465		-36.7378	-111.315
1.644	-21.6693	2.11927		-3.25215	29.0536		-3.20642	29.1637	
	-3.25427	29.071		-38.1867	-143.003	-24.8195	123.771	
	-3.20979	29.1713		-24.823		123.786		-41.9452	-115.585
1.731	-23.7523	-30.2878	-3.24875	11.4971		-3.20158	11.5955	
	-3.25051	11.5151		-42.2306	-144.763	-26.4423	113.926
	-3.20449	11.6033		-26.4444	113.945		-45.3616	-94.4381
1.818	-25.7056	-72.4203	-3.2565		-6.07881	-3.20908	-5.99019
	-3.25843	-6.06128	-43.8896	-123.881	-28.1382	110.812
	-3.21216	-5.98601	-28.1414	110.836		-44.0123	-68.5968
1.905	-26.0799	-121.181	-3.26149	-23.6643	-3.21433	-23.5835
	-3.26304	-23.6456	-41.4616	-101.371	-29.0589	114.15	
	-3.21644	-23.58		-29.0607	114.176		-39.0831	-63.4047
1.992	-24.7804	-166.773	-3.27662	-41.2359	-3.22952	-41.164	
	-3.27809	-41.2215	-36.6789	-97.5251	-28.6083	118.319
	-3.23163	-41.1616	-28.6121	118.352		-35.0735	-77.8951
2.079	-22.7409	157.523		-3.2904		-58.7925	-3.24365	-58.7276
	-3.29175	-58.779		-32.9633	-107.551	-27.175		116.869
	-3.24604	-58.7245	-27.1793	116.899		-32.216		-95.5376
2.166	-21.1164	129.323		-3.3084		-76.3259	-3.26252	-76.2644
	-3.31027	-76.3079	-30.4397	-120.859	-25.634		108.255
	-3.26553	-76.2601	-25.6373	108.277		-30.1236	-113.451
2.253	-20.0287	105.234		-3.32349	-93.829		-3.27877	-93.7713	
	-3.32538	-93.8097	-28.5747	-135.599	-24.4953	94.9601
	-3.28125	-93.7664	-24.4968	94.985		-28.4992	-131.664
2.34	-19.4992	83.1498		-3.33639	-111.311	-3.29254	-111.253
	-3.33839	-111.291	-27.2123	-150.647	-23.8798	79.2972
	-3.29503	-111.249	-23.8818	79.3145		-27.2277	-149.513
2.427	-19.4475	62.0766		-3.34579	-128.782	-3.30268	-128.722
	-3.34779	-128.766	-26.2912	-165.815	-23.7945	62.723
	-3.30526	-128.72		-23.7969	62.7247		-26.308		-167.004
2.514	-19.8936	41.2877		-3.34902	-146.258	-3.30666	-146.193
	-3.35135	-146.243	-25.8019	179.295		-24.247		46.384	
	-3.30971	-146.195	-24.2483	46.3941		-25.7537	176.185
2.601	-20.8566	20.1812		-3.35174	-163.753	-3.3093		-163.68
	-3.35355	-163.74		-25.7652	164.718		-25.2665	31.6395	
	-3.31228	-163.683	-25.2668	31.6572		-25.6056	160.039
2.688	-22.463		-2.31518	-3.34857	178.727		-3.30543	178.807
	-3.35021	178.742		-26.2127	150.937		-26.8193	20.7196	
	-3.30836	178.807		-26.8196	20.737		-25.9011	144.95
2.775	-24.8574	-28.6963	-3.35078	161.174		-3.30622	161.259
	-3.35267	161.189		-27.243		138.543		-28.541		17.0756
	-3.30936	161.258		-28.5416	17.09		-26.7455	131.394
2.862	-27.9335	-65.3288	-3.34846	143.598		-3.30263	143.675
	-3.35068	143.615		-28.999		129.328		-29.4398	21.071	
	-3.30637	143.677		-29.4412	21.0859		-28.2628	120.934
2.949	-29.849		-116.984	-3.3568		125.997		-3.3109		126.062
	-3.35944	126.013		-31.5054	128.359		-28.7507	26.3211	
	-3.3143		126.064		-28.7536	26.3289		-30.5571	117.563
3.036	-28.9603	-172.161	-3.36141	108.385		-3.3161		108.442
	-3.36427	108.401		-33.4814	140.93		-26.9076	24.9909	
	-3.31951	108.443		-26.9099	25.0027		-32.6637	127.223
3.123	-25.9158	144.549		-3.38144	90.7787		-3.33707	90.8323	
	-3.38477	90.7923		-33.0801	159.936		-24.9615	15.0893	
	-3.34132	90.8312		-24.9645	15.0938		-32.6849	145.876
3.21	-22.965		115.623		-3.3948		73.194		-3.3517		73.2477
	-3.39818	73.2073		-30.4725	171.006		-23.5004	-0.00754153
	-3.35621	73.2467		-23.5022	0.00530764	-30.3554	159.617
3.297	-20.901		93.1075		-3.42332	55.6428		-3.38135	55.6988
	-3.42653	55.6603		-27.5808	168.08		-22.6386	-17.8634
	-3.38562	55.6999		-22.641		-17.8444	-27.3447	159.653
3.384	-19.5052	73.0571		-3.43733	38.1327		-3.39667	38.1929	
	-3.4402		38.1557		-25.4586	157.525		-22.3145	-36.8656
	-3.40039	38.1983		-22.3168	-36.8429	-24.991		150.921
3.471	-18.6982	54.1884		-3.46278	20.6626		-3.42303	20.7249	
	-3.46521	20.6847		-24.0844	143.875		-22.5796	-56.2052
	-3.42613	20.7308		-22.5824	-56.1843	-23.4165	138.662
3.558	-18.3425	35.7812		-3.46675	3.21019		-3.42751	3.27761
	-3.46916	3.23213		-23.3015	128.831		-23.4286	-75.097
	-3.43063	3.28322		-23.4318	-75.0795	-22.4632	124.902
3.645	-18.5027	17.6965		-3.47942	-14.2479	-3.44058	-14.1741
	-3.48203	-14.2225	-23.0774	113.116		-25.0441	-91.9454
	-3.4442		-14.1666	-25.0474	-91.9305	-22.095		110.493
3.732	-19.1887	-0.573685	-3.4701		-31.7347	-3.4318		-31.6503
	-3.4727		-31.707		-23.3633	97.1328		-27.5378	-103.595
	-3.43547	-31.6423	-27.5394	-103.581	-22.2524	95.9738
3.819	-20.6344	-19.2078	-3.47085	-49.2684	-3.43232	-49.1753	
	-3.4729		-49.2417	-24.2376	81.6717		-30.3244	-101.876
	-3.43571	-49.1682	-30.3256	-101.859	-22.9995	82.2261
3.906	-23.2059	-39.8492	-3.45962	-66.8669	-3.42081	-66.7661
	-3.46174	-66.84		-25.8035	67.4824		-31.2625	-88.0142
	-3.4239		-66.7591	-31.2648	-87.9962	-24.3963	70.1864
3.993	-28.1204	-70.4637	-3.46497	-84.5153	-3.42575	-84.4099
	-3.4682		-84.4834	-28.3112	57.8149		-29.4492	-76.5102
	-3.42936	-84.3989	-29.4553	-76.4896	-26.5492	62.9695
4.08	-31.8792	-137.017	-3.46937	-102.2		-3.42988	-102.092
	-3.4736		-102.161	-31.5597	60.7505		-26.401		-79.5783
	-3.43436	-102.075	-26.4073	-79.54		-29.0523	66.1379
4.167	-30.7124	149.301		-3.49371	-119.878	-3.45423	-119.768
	-3.49854	-119.833	-33.1491	80.1047		-24.0134	-93.8644
	-3.45938	-119.743	-24.0192	-93.8126	-30.2253	80.8918
4.254	-24.9878	98.1494		-3.52032	-137.526	-3.48107	-137.411
	-3.52567	-137.48		-31.6292	100.327		-22.4936	-112.268
	-3.48665	-137.383	-22.4992	-112.22		-29.0703	96.004
4.341	-20.9404	74.4413		-3.55959	-155.104	-3.5201		-154.98
	-3.56474	-155.057	-28.1358	105.451		-21.6964	-132.291
	-3.52572	-154.951	-21.7018	-132.246	-26.4353	100.101
4.428	-18.5898	55.2161		-3.59381	-172.609	-3.55386	-172.478	
	-3.59961	-172.557	-25.2741	96.8184		-21.4923	-152.735	
	-3.56003	-172.444	-21.4989	-152.686	-24.0808	93.248
4.515	-17.215		37.1174		-3.62595	169.961		-3.58465	170.098	
	-3.63179	170.024		-23.3807	83.3555		-21.8663	-172.881
	-3.5913		170.14		-21.8726	-172.826	-22.4715	81.3291
4.602	-16.5246	19.4882		-3.64388	152.575		-3.60161	152.715
	-3.64944	152.647		-22.2398	68.4414		-22.8301	168.057
	-3.60762	152.761		-22.8352	168.119		-21.54		67.4948
4.689	-16.4571	1.95103		-3.65033	135.191		-3.60714	135.331	
	-3.65479	135.263		-21.7123	53.3067		-24.4563	151.596
	-3.61195	135.378		-24.4615	151.658		-21.1966	53.1052
4.776	-17.0031	-15.8541	-3.6451		117.757		-3.60165	117.896
	-3.64898	117.828		-21.7652	38.6875		-26.7352	140.981
	-3.60527	117.944		-26.7393	141.04		-21.4203	39.0034
4.863	-18.2947	-34.2324	-3.63402	100.246		-3.59014	100.383	
	-3.63773	100.32		-22.411		25.5218		-28.9704	141.006	
	-3.59339	100.437		-28.9756	141.067		-22.237		26.2283
4.95	-20.6435	-54.2065	-3.62696	82.651		-3.58245	82.7862
	-3.63054	82.7222		-23.6987	15.2955		-29.6687	149.433
	-3.58565	82.8373		-29.6725	149.489		-23.6989	16.4789
5.037	-25.006		-80.8547	-3.62428	64.9975		-3.57946	65.1307
	-3.62683	65.0649		-25.588		11.1508		-28.3583	155.418	
	-3.58195	65.1765		-28.3604	155.483		-25.7414	13.203
5.124	-29.7441	-139.781	-3.63787	47.3203		-3.59307	47.4495
	-3.6396		47.3821		-27.357		17.2065		-26.1415	150.735
	-3.59514	47.4897		-26.1426	150.803		-27.5214	20.5284
5.211	-29.6628	147.212		-3.65662	29.6636		-3.61218	29.7927
	-3.6579		29.7269		-27.6788	30.6593		-24.3263	137.622	
	-3.61393	29.8314		-24.3281	137.697		-27.6827	34.432
5.298	-24.8249	88.6379		-3.6903		12.0649		-3.64605	12.1937	
	-3.69114	12.1289		-26.1905	41.7405		-23.2065	120.627	
	-3.64761	12.2354		-23.2085	120.703		-26.025		44.6593
5.385	-20.4593	62.3665		-3.71711	-5.45532	-3.67309	-5.32207
	-3.71767	-5.39016	-23.9378	43.4227		-22.6925	102.287
	-3.67423	-5.27973	-22.6938	102.361		-23.7472	44.9275
5.472	-18.079		42.742		-3.74797	-22.9037	-3.70347	-22.7642
	-3.74744	-22.8432	-22.0434	37.5356		-22.7389	83.7573
	-3.704		-22.7263	-22.7385	83.828		-21.9128	38.0317
5.559	-16.7321	24.4771		-3.75777	-40.3035	-3.71269	-40.1578
	-3.75745	-40.2472	-20.7458	28.3154		-23.2702	65.9028
	-3.71347	-40.1242	-23.2699	65.9681		-20.6826	28.1263
5.646	-16.1424	6.67014		-3.76726	-57.6955	-3.72123	-57.5457
	-3.76751	-57.6422	-20.0438	17.7384		-24.3081	49.8104	
	-3.72225	-57.5166	-24.3085	49.8726		-20.0471	17.0858
5.733	-16.1706	-11.2714	-3.75307	-75.1173	-3.70574	-74.9683	
	-3.75442	-75.0644	-19.8303	7.04971		-25.7811	36.7742	
	-3.70755	-74.9394	-25.7823	36.8347		-19.8978	6.11052
5.82	-16.8532	-29.6361	-3.74557	-92.6072	-3.69696	-92.4648
	-3.74731	-92.5553	-20.1067	-2.94425	-27.4898	29.2683	
	-3.6992		-92.4363	-27.4923	29.333		-20.2418	-3.92421
5.907	-18.2547	-49.3372	-3.72094	-110.173	-3.67149	-110.041
	-3.72274	-110.127	-20.7974	-11.3701	-28.8354	28.2582	
	-3.67388	-110.017	-28.8396	28.3101		-20.996		-12.0108
5.994	-20.6874	-71.6587	-3.71704	-127.816	-3.66794	-127.695
	-3.71902	-127.771	-21.8665	-16.8588	-29.0793	30.9042
	-3.67035	-127.673	-29.0845	30.9534		-22.0931	-16.561
6.081	-24.4811	-103.827	-3.70545	-145.499	-3.65772	-145.388
	-3.70722	-145.454	-23.0624	-18.227		-28.2046	31.1379	
	-3.66029	-145.364	-28.2072	31.1899		-23.1927	-16.3876
6.168	-27.8191	-157.866	-3.71767	-163.198	-3.67199	-163.088
	-3.71896	-163.153	-23.9671	-14.942		-26.8302	25.1444	
	-3.67424	-163.067	-26.8315	25.1964		-23.795		-11.7758
6.255	-27.561		138.677		-3.72438	179.124		-3.68094	179.239
	-3.72539	179.164		-24.158		-9.37895	-25.6139	14.0464	
	-3.6829		179.257		-25.6141	14.0927		-23.5504	-6.17704
6.342	-24.153		88.0505		-3.74824	161.491		-3.70647	161.62
	-3.74932	161.531		-23.5785	-5.08784	-24.8104	-0.0738532
	-3.70833	161.635		-24.8102	-0.0262875	-22.6002	-3.38259
6.429	-20.8193	58.3079		-3.76212	143.906		-3.72116	144.051	
	-3.76297	143.949		-22.6264	-4.85996	-24.4225	-15.4203
	-3.72287	144.071		-24.4217	-15.3754	-21.4535	-5.22186
6.516	-18.8605	35.5688		-3.78148	126.362		-3.73986	126.526	
	-3.78197	126.404		-21.7259	-8.45552	-24.4488	-30.991
	-3.7415		126.545		-24.4494	-30.9444	-20.5031	-10.6678
6.603	-17.7751	14.6977		-3.7869		108.836		-3.74333	109.019	
	-3.78701	108.876		-21.0904	-14.5676	-24.8395	-45.959
	-3.7449		109.035		-24.8411	-45.916		-19.8856	-18.2282
6.69	-17.4093	-5.7684		-3.79272	91.308		-3.74572	91.502
	-3.79282	91.3409		-20.7926	-21.6898	-25.572		-59.3997
	-3.74774	91.5119		-25.5732	-59.3635	-19.6467	-26.509
6.777	-17.605		-26.8408	-3.78751	73.7568		-3.73726	73.9526	
	-3.78792	73.7885		-20.8173	-28.9942	-26.5458	-70.3485
	-3.73931	73.9615		-26.5469	-70.3081	-19.7624	-34.7741
6.864	-18.4		-49.0039	-3.7839		56.1677		-3.73052	56.3562	
	-3.78413	56.1958		-21.1157	-35.5125	-27.5598	-77.7525
	-3.73211	56.3603		-27.56		-77.7241	-20.2009	-42.0753
6.951	-19.7604	-73.8252	-3.77713	38.5299		-3.72119	38.7052	
	-3.77752	38.5578		-21.593		-40.8554	-28.2656	-81.6439
	-3.72257	38.7065		-28.2648	-81.6254	-20.8747	-47.8634
7.038	-21.7203	-102.99		-3.77526	20.8576		-3.71764	21.0122	
	-3.77563	20.8864		-22.1057	-44.3927	-28.3508	-83.8906
	-3.71873	21.0144		-28.3515	-83.8774	-21.6442	-51.2199
7.125	-23.8141	-140.681	-3.77734	3.16798		-3.71915	3.30037
	-3.77777	3.19684		-22.5193	-46.3024	-27.8028	-87.4598
	-3.72019	3.30414		-27.8043	-87.4426	-22.3267	-52.0475
7.212	-25.0779	173.258		-3.78434	-14.5176	-3.72664	-14.4059
	-3.78454	-14.4939	-22.6804	-47.1984	-26.9202	-94.3361
	-3.72789	-14.4054	-26.9218	-94.3263	-22.6817	-50.941
7.299	-24.5801	125.376		-3.79715	-32.1903	-3.74135	-32.0951
	-3.79734	-32.1697	-22.594		-48.2338	-26.0512	-104.608	
	-3.7428		-32.097		-26.0508	-104.603	-22.6426	-49.5508
7.386	-22.9086	84.2419		-3.80925	-49.8344	-3.75555	-49.7484
	-3.8093		-49.8119	-22.2798	-50.3416	-25.4038	-117.26	
	-3.7571		-49.7508	-25.4028	-117.247	-22.2449	-49.4488
7.473	-21.0677	51.7459		-3.82496	-67.4512	-3.7737		-67.3698
	-3.8248		-67.4323	-21.8962	-53.8106	-25.066		-131.232
	-3.77449	-67.376		-25.0642	-131.216	-21.7068	-51.3048
7.56	-19.749		24.1221		-3.83267	-85.0411	-3.78361	-84.9615
	-3.83214	-85.026		-21.5143	-58.4216	-25.0437	-145.573
	-3.78406	-84.9711	-25.0429	-145.556	-21.1625	-54.8597
7.647	-18.9373	-0.858212	-3.84224	-102.622	-3.79538	-102.542
	-3.84174	-102.613	-21.264		-63.8726	-25.3388	-159.512	
	-3.79553	-102.553	-25.3398	-159.507	-20.7698	-59.5909
7.734	-18.6444	-25.2002	-3.83911	-120.202	-3.79413	-120.117
	-3.83866	-120.197	-21.1444	-69.8313	-25.906		-172.329
	-3.79386	-120.13		-25.9056	-172.319	-20.5288	-64.9607
7.821	-18.7759	-49.2556	-3.84126	-137.807	-3.79766	-137.718
	-3.84066	-137.805	-21.2093	-75.8132	-26.6882	176.905	
	-3.79671	-137.735	-26.6855	176.915		-20.4679	-70.3791
7.908	-19.3732	-74.4686	-3.83076	-155.439	-3.78828	-155.346
	-3.82963	-155.439	-21.4553	-81.5383	-27.5164	168.92	
	-3.7867		-155.369	-27.511		168.92		-20.5624	-75.4971
7.995	-20.3734	-101.096	-3.83109	-173.106	-3.79026	-173.008	
	-3.82969	-173.11		-21.8924	-86.1822	-28.1161	163.942
	-3.78855	-173.035	-28.1134	163.939		-20.8013	-79.6686
8.082	-21.8031	-131.69		-3.82008	169.203		-3.78127	169.309	
	-3.81919	169.195		-22.4395	-89.4792	-28.2285	160.54
	-3.78013	169.279		-28.2274	160.544		-21.092		-82.8495
8.169	-23.2957	-166.851	-3.82618	151.481		-3.78911	151.602
	-3.82552	151.469		-22.9983	-90.5831	-27.7889	156.317
	-3.78811	151.568		-27.7877	156.328		-21.3561	-84.6286
8.256	-24.3159	150.976		-3.82108	133.752		-3.78483	133.892	
	-3.82019	133.735		-23.4198	-89.97		-27.023		149.47
	-3.78383	133.853		-27.0215	149.469		-21.5135	-85.5714
8.343	-24.2808	108.093		-3.83714	116.023		-3.80051	116.184
	-3.8358		115.998		-23.5406	-88.1139	-26.2325	139.503
	-3.7993		116.137		-26.2317	139.489		-21.5068	-85.9925
8.43	-23.2234	67.1546		-3.84052	98.3132		-3.80263	98.4941
	-3.83905	98.2776		-23.3706	-87.1501	-25.6258	127.313	
	-3.80139	98.4386		-25.6241	127.287		-21.366		-87.2132
8.517	-21.9468	33.9175		-3.86003	80.6281		-3.82019	80.8265
	-3.85868	80.5848		-22.984		-87.9277	-25.3253	113.82	
	-3.81903	80.7625		-25.3226	113.776		-21.1383	-89.4706
8.604	-20.8505	4.22449		-3.86431	62.9687		-3.82125	63.1792
	-3.86272	62.9156		-22.6951	-91.2237	-25.3382	100.084	
	-3.82032	63.1041		-25.3366	100.028		-21.0185	-93.2954
8.691	-20.3329	-21.007		-3.87703	45.3255		-3.83076	45.5368
	-3.87545	45.2591		-22.6468	-96.3729	-25.6767	87.1288
	-3.82968	45.4503		-25.6754	87.0526		-21.0911	-98.0561
8.778	-20.3912	-46.7897	-3.87337	27.6742		-3.82364	27.8814
	-3.87258	27.595		-23.1046	-102.761	-26.244		75.9631	
	-3.82329	27.7825		-26.2421	75.8856		-21.5499	-103.457
8.865	-21.0319	-70.4312	-3.87624	9.9942		-3.82392	10.1876
	-3.87642	9.90492		-24.1139	-109.456	-26.8607	67.5425
	-3.8244		10.0783		-26.86		67.4611		-22.3803	-108.446
8.952	-22.7206	-98.3973	-3.87039	-7.73384	-3.81601	-7.56124
	-3.8723		-7.8293		-26.0279	-113.793	-27.2357	61.6973
	-3.81821	-7.67998	-27.2391	61.6023		-23.7824	-110.983
9.039	-24.7958	-128.929	-3.87559	-25.4861	-3.82215	-25.3415
	-3.87967	-25.5925	-28.9102	-112.997	-27.1373	56.8942
	-3.8261		-25.4736	-27.1432	56.7888		-25.4848	-109.733
9.126	-27.839		-175.89		-3.88146	-43.2435	-3.83274	-43.1257
	-3.88899	-43.363		-31.7717	-97.1825	-26.5794	50.839	
	-3.83939	-43.2695	-26.5878	50.726		-26.9574	-101.268
9.213	-28.2639	132.035		-3.89546	-60.9817	-3.85333	-60.8663
	-3.90594	-61.1129	-32.7451	-71.4301	-25.7925	42.0026
	-3.86288	-61.0182	-25.8014	41.8673		-27.5968	-89.8271
9.3	-26.8624	76.9512		-3.90759	-78.6996	-3.8708		-78.5504
	-3.92089	-78.8335	-31.0128	-50.755		-25.0528	30.3138	
	-3.88384	-78.7059	-25.0661	30.1666		-26.9852	-80.2862
9.387	-24.103		42.4217		-3.92063	-96.4042	-3.88478	-96.2026
	-3.93724	-96.5305	-28.8134	-43.051		-24.5602	16.5094	
	-3.90156	-96.3551	-24.5771	16.3662		-26.1848	-76.5346
9.474	-22.3939	12.8898		-3.93116	-114.084	-3.89269	-113.837
	-3.95134	-114.202	-27.699		-44.9745	-24.4124	1.61263	
	-3.913		-113.983	-24.433		1.48043		-25.6842	-79.484
9.561	-21.4454	-9.78558	-3.93836	-131.756	-3.89432	-131.486
	-3.96144	-131.868	-27.6609	-47.0742	-24.6554	-13.2991
	-3.91755	-131.621	-24.6776	-13.4154	-26.0059	-84.6117
9.648	-21.6884	-32.4464	-3.94141	-149.436	-3.89172	-149.154
	-3.96786	-149.539	-28.7043	-44.7549	-25.2913	-27.0169
	-3.91842	-149.28		-25.3183	-27.1207	-27.5174	-90.8653
9.735	-22.7369	-54.9392	-3.93842	-167.145	-3.88373	-166.868
	-3.96898	-167.23		-29.8027	-33.5313	-26.2421	-38.047
	-3.91451	-166.979	-26.2753	-38.1302	-30.6187	-92.1042
9.822	-25.3615	-80.6684	-3.93939	175.099		-3.88053	175.365
	-3.97234	175.04		-29.6736	-14.7765	-27.2468	-44.7588
	-3.91423	175.279		-27.282		-44.8232	-34.9175	-70.899
9.909	-29.2178	-120.367	-3.9393		157.312		-3.87795	157.564	
	-3.97421	157.275		-27.9079	1.04084		-27.8026	-47.2089
	-3.9139		157.499		-27.8374	-47.263		-35.8237	-32.0258
9.996	-31.5729	177.24		-3.95273	139.508		-3.89004	139.75
	-3.98798	139.487		-25.4743	7.10054		-27.4902	-48.3917
	-3.92605	139.699		-27.5221	-48.4237	-32.6799	0.237434
10.083	-29.957		114.543		-3.96474	121.722		-3.90088	121.957	
	-4.00104	121.717		-23.5611	5.57992		-26.4206	-52.5306
	-3.93748	121.924		-26.4546	-52.5174	-28.7245	5.68535
10.17	-26.1696	71.3857		-3.98964	103.971		-3.92386	104.202	
	-4.02691	103.995		-22.4173	1.1904		-25.0846	-61.7249
	-3.96121	104.196		-25.1204	-61.6885	-26.6917	2.28336
10.257	-23.6622	46.9597		-4.00356	86.264		-3.93508	86.4906
	-4.04087	86.3153		-22.0256	-3.25143	-23.9254	-75.0995
	-3.97266	86.5093		-23.9624	-75.0392	-26.0233	-0.694482
10.344	-22.6832	26.9691		-4.02452	68.5876		-3.95296	68.8016
	-4.06096	68.6666		-22.2235	-5.39871	-23.1524	-91.2566
	-3.99002	68.8473		-23.1877	-91.1674	-26.1054	1.01576
10.431	-22.9418	9.83461		-4.02618	50.9169		-3.95182	51.1086	
	-4.06172	51.015		-22.7371	-3.42275	-22.7929	-108.799
	-3.98843	51.1742		-22.8286	-108.692	-26.1999	9.20081
10.518	-24.5593	-5.3404		-4.0368		33.2204		-3.96072	33.3844
	-4.07068	33.3482		-22.9913	3.11453		-22.9076	-126.879
	-3.99587	33.4796		-22.9424	-126.742	-25.3839	20.8961
