! MARKI MICROWAVE INC.
! Email:             	info@markimicrowave.com   				Phone:   408-778-4200
! Model Number:      	PD0426							Date:    05/15
! Filename:		PD-0426.S3P						Version: 1.0
! Description:       	3-port S-parameter data for Power Divider PD-0426
! Measured Frequency: 	10 MHz to 26 GHz		
! Port Configuration:	PORT 1: COMMON, PORT 2 and Port 3: Output


! S3P File: Measurements: Mag<S11> Ang<S11> Mag<S12> Ang<S12> Mag<S13> Ang<S13>! row 1 
!			  Mag<S21> Ang<S21> Mag<S22> Ang<S22> Mag<S23> Ang<S23>! row 2 
!			  Mag<S31> Ang<S31> Mag<S32> Ang<S32> Mag<S33> Ang<S33>! row 3 

# Hz S  dB   R 50

10000000 -9.5881662 171.0556 -3.5772595 -4.9291296 -3.5719876 -4.8777714
-3.5626459 -4.8848739 -9.6151428 167.63994 -3.5752034 -6.438983
-3.5342157 -4.6683321 -3.5675681 -6.2369933 -9.6761265 168.06349
47487500 -9.6105318 170.61005 -3.5713518 -6.1661897 -3.5694416 -6.1310444
-3.5611103 -6.129446 -9.6510334 166.09599 -3.5865483 -8.2440147
-3.5407329 -5.9641762 -3.5800352 -8.0857 -9.6975651 166.42552
84975000 -9.6350298 169.89766 -3.5659039 -7.6863875 -3.5666056 -7.6657662
-3.559624 -7.6602521 -9.693655 164.05869 -3.6025231 -10.446491
-3.547296 -7.5413179 -3.5977757 -10.327166 -9.7248201 164.29251
122462500 -9.6614838 168.94286 -3.5599892 -9.4952507 -3.5643439 -9.4859619
-3.5584042 -9.4760923 -9.7414389 161.52092 -3.622051 -13.045961
-3.5548029 -9.4063625 -3.6183398 -12.964671 -9.7564821 161.67125
159950000 -9.6921825 167.70972 -3.5547936 -11.585136 -3.5629253 -11.59157
-3.5575819 -11.579072 -9.7966185 158.50793 -3.6463358 -16.041969
-3.5631435 -11.558139 -3.6447511 -16.0007 -9.794095 158.55672
197437500 -9.7246246 166.22072 -3.5500479 -13.969769 -3.5607464 -13.981189
-3.5583632 -13.975608 -9.8573895 154.98849 -3.6768029 -19.434278
-3.5705979 -13.999331 -3.6764991 -19.434765 -9.8402147 154.95631
234925000 -9.7486458 163.99348 -3.5529351 -16.522106 -3.5649612 -16.539503
-3.5621066 -16.529951 -9.9139175 150.65042 -3.7122841 -23.003286
-3.574753 -16.552801 -3.7114489 -23.00964 -9.8924532 150.62503
272412500 -9.7710371 161.68439 -3.5573888 -19.101255 -3.5673084 -19.109493
-3.5655551 -19.103458 -9.9677563 146.24184 -3.7508812 -26.574787
-3.5769124 -19.123512 -3.751081 -26.588644 -9.9454842 146.2231
309900000 -9.7941427 159.36148 -3.5604198 -21.681349 -3.5699553 -21.693472
-3.5680647 -21.680956 -10.028522 141.82884 -3.7935216 -30.150005
-3.578438 -21.696669 -3.7923658 -30.15238 -10.001834 141.8304
347387500 -9.819519 157.0515 -3.5626397 -24.273933 -3.5725007 -24.283779
-3.5700109 -24.268625 -10.090243 137.43158 -3.8417139 -33.704281
-3.5796208 -24.277845 -3.8380456 -33.708614 -10.061996 137.42595
384875000 -9.8457518 154.74002 -3.5644779 -26.860456 -3.5742345 -26.860573
-3.5722616 -26.852573 -10.157537 133.05391 -3.8936019 -37.243397
-3.5817227 -26.860743 -3.8904171 -37.250011 -10.125844 133.04518
422362500 -9.8712769 152.43985 -3.5661592 -29.44067 -3.5765533 -29.451735
-3.574151 -29.437347 -10.226711 128.69133 -3.9475956 -40.775887
-3.584573 -29.456442 -3.9443731 -40.780048 -10.193189 128.67717
459850000 -9.8985634 150.11122 -3.5679226 -32.020832 -3.578758 -32.042896
-3.576052 -32.024437 -10.303641 124.34509 -4.0074682 -44.301025
-3.586709 -32.04882 -4.0042939 -44.306728 -10.263657 124.31462
497337500 -9.922266 147.811 -3.5695693 -34.605289 -3.5810695 -34.631207
-3.5773294 -34.611061 -10.38457 119.99864 -4.0698328 -47.809311
-3.5888765 -34.640728 -4.0676913 -47.815392 -10.340649 119.99365
534825000 -9.9479322 145.49823 -3.5701013 -37.184029 -3.5837808 -37.220947
-3.5775645 -37.184422 -10.472126 115.6674 -4.1354814 -51.31115
-3.5911975 -37.224285 -4.1337829 -51.321419 -10.419756 115.65666
572312500 -9.9716387 143.17149 -3.5704815 -39.76527 -3.5859437 -39.806805
-3.5776033 -39.764851 -10.561736 111.3344 -4.2043495 -54.801929
-3.593415 -39.808983 -4.2038655 -54.812691 -10.498528 111.33183
609800000 -9.9947596 140.84772 -3.5700679 -42.343357 -3.5884216 -42.394821
-3.577713 -42.35342 -10.657452 107.02479 -4.2783418 -58.28643
-3.5961175 -42.394485 -4.2769179 -58.281746 -10.582736 107.01749
647287500 -10.016762 138.53421 -3.5706787 -44.924976 -3.591779 -44.966427
-3.5785892 -44.939915 -10.757534 102.7143 -4.3562474 -61.752533
-3.600178 -44.97683 -4.3557677 -61.752724 -10.670578 102.71558
684775000 -10.037705 136.19986 -3.5702407 -47.503113 -3.5945349 -47.545593
-3.5783279 -47.519726 -10.861343 98.380836 -4.4366655 -65.212799
-3.6033483 -47.55859 -4.4374008 -65.212997 -10.759782 98.419952
722262500 -10.058401 133.87018 -3.5708563 -50.075375 -3.5957513 -50.124401
-3.5788105 -50.106647 -10.967428 94.042038 -4.5201173 -68.6605
-3.605129 -50.135479 -4.5210834 -68.648712 -10.853483 94.12796
759750000 -10.07988 131.53157 -3.5704367 -52.660213 -3.5972817 -52.6982
-3.5785701 -52.688469 -11.07904 89.706306 -4.6082401 -72.093575
-3.60624 -52.702526 -4.6093335 -72.080475 -10.949626 89.852753
797237500 -10.103304 129.19246 -3.5707424 -55.24469 -3.5978503 -55.263248
-3.5785315 -55.26807 -11.191879 85.363083 -4.6991196 -75.503609
-3.6066198 -55.269234 -4.7011032 -75.496529 -11.052733 85.581879
834725000 -10.125134 126.85402 -3.5699651 -57.831348 -3.5971696 -57.837593
-3.5778115 -57.85001 -11.304921 81.026466 -4.7939496 -78.908112
-3.6055136 -57.836525 -4.7954507 -78.897781 -11.155015 81.292641
872212500 -10.147431 124.51513 -3.569525 -60.419643 -3.597192 -60.411335
-3.5771661 -60.438465 -11.419489 76.69738 -4.8927655 -82.285477
-3.6060376 -60.414055 -4.8941898 -82.27845 -11.259842 77.045876
909700000 -10.172485 122.17271 -3.568058 -63.007069 -3.5962121 -62.984554
-3.5761147 -63.021801 -11.537071 72.376877 -4.9953766 -85.638664
-3.6047072 -62.990833 -4.9954486 -85.6381 -11.37181 72.805679
947187500 -10.197015 119.83514 -3.566817 -65.591766 -3.5952342 -65.556755
-3.5738626 -65.601929 -11.656168 68.04702 -5.0999861 -88.984276
-3.6036999 -65.565544 -5.1011677 -88.991768 -11.485945 68.574554
984675000 -10.220933 117.47697 -3.5659559 -68.179054 -3.5930572 -68.139557
-3.5721211 -68.185226 -11.775846 63.741287 -5.2087321 -92.316109
-3.6012578 -68.141212 -5.2098765 -92.31707 -11.601251 64.335732
1022162500 -10.248293 115.11605 -3.5649698 -70.766121 -3.5917792 -70.708801
-3.5712099 -70.770897 -11.900627 59.464256 -5.3209448 -95.628967
-3.5987988 -70.708107 -5.3220377 -95.622765 -11.721441 60.117386
1059650000 -10.274015 112.75307 -3.5631416 -73.360458 -3.5900493 -73.285706
-3.5695276 -73.351997 -12.027035 55.195038 -5.4348054 -98.921814
-3.5963221 -73.287552 -5.4363723 -98.927948 -11.84579 55.919426
1097137500 -10.299653 110.39442 -3.5627816 -75.950066 -3.5869577 -75.86615
-3.5681334 -75.942009 -12.152317 50.937214 -5.552948 -102.19538
-3.5933545 -75.873497 -5.5545974 -102.20349 -11.971463 51.725269
1134625000 -10.324951 108.04347 -3.5610635 -78.539162 -3.584218 -78.453911
-3.5656836 -78.531738 -12.28411 46.692303 -5.6735477 -105.45155
-3.5905781 -78.459427 -5.6751809 -105.45705 -12.098142 47.54911
1172112500 -10.35264 105.68802 -3.55899 -81.128075 -3.5818839 -81.036728
-3.563777 -81.124794 -12.419756 42.458817 -5.7966518 -108.68883
-3.5884776 -81.044556 -5.798027 -108.6967 -12.228477 43.395889
1209600000 -10.380327 103.34 -3.5572088 -83.711021 -3.578629 -83.616005
-3.5609386 -83.713219 -12.557723 38.236206 -5.9218497 -111.9135
-3.5849535 -83.626343 -5.924108 -111.91384 -12.364809 39.23674
1247087500 -10.407807 100.98992 -3.5554767 -86.306923 -3.5759308 -86.195358
-3.5593112 -86.308273 -12.697602 34.02771 -6.0498929 -115.12229
-3.5829501 -86.213219 -6.0516319 -115.12318 -12.502612 35.097694
1284575000 -10.436373 98.622246 -3.5535898 -88.900513 -3.5728893 -88.781952
-3.5575442 -88.902969 -12.842484 29.819691 -6.1808338 -118.30962
-3.5799744 -88.796249 -6.1819224 -118.30974 -12.641953 30.961279
1322062500 -10.470009 96.26535 -3.5507867 -91.489578 -3.5692277 -91.362274
-3.5548499 -91.497833 -12.994602 25.60224 -6.3120451 -121.47209
-3.5770664 -91.383598 -6.3145208 -121.48112 -12.790423 26.834904
1359550000 -10.498674 93.932327 -3.5494306 -94.08123 -3.5657053 -93.945786
-3.5530732 -94.091736 -13.147862 21.394447 -6.4459605 -124.61681
-3.5749109 -93.969536 -6.4493566 -124.62844 -12.943666 22.706518
1397037500 -10.529214 91.570747 -3.5453224 -96.669502 -3.5629141 -96.536163
-3.549839 -96.685745 -13.30224 17.173748 -6.584444 -127.74148
-3.572341 -96.558594 -6.5870495 -127.75881 -13.093846 18.593706
1434525000 -10.560181 89.200928 -3.5411284 -99.263474 -3.5604651 -99.125435
-3.5470657 -99.279961 -13.462402 12.937727 -6.7238412 -130.85616
-3.5697994 -99.143951 -6.7267141 -130.86966 -13.248851 14.474474
1472012500 -10.592563 86.830933 -3.5379381 -101.85914 -3.5583892 -101.71067
-3.544338 -101.87838 -13.620749 8.7041874 -6.8648424 -133.9498
-3.5675166 -101.72765 -6.8680263 -133.96274 -13.411346 10.356944
1509500000 -10.626666 84.45253 -3.535058 -104.45641 -3.5549314 -104.29617
-3.5413668 -104.47372 -13.78385 4.4746571 -7.0095172 -137.02768
-3.5639756 -104.31071 -7.013237 -137.03723 -13.576066 6.23668
1546987500 -10.662158 82.070984 -3.5322104 -107.05818 -3.5523386 -106.89548
-3.5383306 -107.07231 -13.951343 0.22079618 -7.1560802 -140.0829
-3.5609353 -106.9003 -7.1597114 -140.0905 -13.741348 2.1205564
1584475000 -10.698943 79.685875 -3.5291023 -109.65446 -3.5487187 -109.48714
-3.535573 -109.67286 -14.120547 -4.0334125 -7.3047915 -143.11247
-3.5579057 -109.487 -7.3088164 -143.11375 -13.909429 -1.9889257
1621962500 -10.736342 77.302467 -3.5265489 -112.25122 -3.5452852 -112.07732
-3.5332181 -112.26817 -14.290629 -8.2770739 -7.4547496 -146.12213
-3.5544119 -112.07719 -7.459393 -146.12556 -14.086306 -6.0932565
1659450000 -10.771641 74.913345 -3.5226908 -114.84804 -3.5420568 -114.66808
-3.5305598 -114.86564 -14.458312 -12.517903 -7.6087227 -149.11839
-3.5508754 -114.66958 -7.6110373 -149.11139 -14.258782 -10.198503
1696937500 -10.81411 72.492531 -3.5193846 -117.45112 -3.5383954 -117.26498
-3.5265002 -117.46468 -14.626061 -16.797775 -7.7630415 -152.08974
-3.5467308 -117.26218 -7.7647238 -152.07693 -14.434464 -14.323017
1734425000 -10.858492 70.092697 -3.5183582 -120.05006 -3.53387 -119.85292
-3.5237634 -120.06385 -14.797781 -21.045948 -7.9194255 -155.04013
-3.5429239 -119.8475 -7.9218941 -155.01961 -14.616659 -18.434727
1771912500 -10.904512 67.687592 -3.5154774 -122.65471 -3.5298572 -122.44096
-3.5203688 -122.6618 -14.970416 -25.272835 -8.0774355 -157.95976
-3.538614 -122.44328 -8.079154 -157.95616 -14.805535 -22.521612
1809400000 -10.951219 65.279953 -3.5133042 -125.25131 -3.5252779 -125.03608
-3.5171638 -125.26097 -15.147514 -29.483206 -8.236537 -160.8701
-3.5334041 -125.04081 -8.2386923 -160.86429 -14.993934 -26.641916
1846887500 -10.999629 62.858807 -3.5101132 -127.85142 -3.521162 -127.63366
-3.5143123 -127.85992 -15.322287 -33.685555 -8.3994904 -163.75717
-3.5290537 -127.64263 -8.4008503 -163.75322 -15.184971 -30.743782
1884375000 -11.047091 60.427662 -3.5068357 -130.45753 -3.5168805 -130.22224
-3.5112908 -130.46443 -15.498074 -37.867073 -8.561799 -166.62682
-3.5240464 -130.23999 -8.5632668 -166.62343 -15.37951 -34.858139
1921862500 -11.096924 58.018871 -3.5035386 -133.05768 -3.5130949 -132.82486
-3.5078723 -133.06435 -15.676322 -42.062096 -8.7249603 -169.47191
-3.5195017 -132.84004 -8.726675 -169.48164 -15.580761 -38.988228
1959350000 -11.148702 55.595932 -3.50052 -135.66385 -3.5095568 -135.42747
-3.5049429 -135.66997 -15.855237 -46.229088 -8.8913517 -172.30501
-3.5155065 -135.44632 -8.8933182 -172.31223 -15.775945 -43.099129
1996837500 -11.20215 53.182316 -3.4984641 -138.2762 -3.5055587 -138.03761
-3.5009789 -138.27078 -16.043404 -50.401188 -9.0583954 -175.11278
-3.5108705 -138.04901 -9.0609283 -175.13312 -15.986566 -47.20829
2034325000 -11.253464 50.772186 -3.4948277 -140.87679 -3.5008967 -140.6371
-3.498009 -140.88074 -16.23938 -54.550388 -9.2265406 -177.91513
-3.5063732 -140.65727 -9.2282162 -177.93361 -16.204433 -51.323555
2071812500 -11.304254 48.364384 -3.4908867 -143.48297 -3.4976768 -143.24767
-3.4944084 -143.48697 -16.44137 -58.738998 -9.3951101 179.3037
-3.5018773 -143.26987 -9.3970604 179.28795 -16.424852 -55.489922
2109300000 -11.357619 45.9552 -3.4871845 -146.08325 -3.4940166 -145.85284
-3.491612 -146.0955 -16.645481 -62.929729 -9.5663481 176.53668
-3.4975715 -145.87379 -9.5675306 176.53632 -16.647211 -59.664066
2146787500 -11.409076 43.540298 -3.4831684 -148.69344 -3.4895196 -148.46112
-3.4890525 -148.69974 -16.8536 -67.141663 -9.7394485 173.80283
-3.4937935 -148.47949 -9.7389641 173.79623 -16.875109 -63.824055
2184275000 -11.459501 41.144501 -3.4808564 -151.30573 -3.485842 -151.07175
-3.4858198 -151.30998 -17.069857 -71.390945 -9.9110861 171.08485
-3.4904542 -151.08571 -9.9117441 171.08154 -17.110533 -68.039787
2221762500 -11.512275 38.734554 -3.4784942 -153.91003 -3.4816594 -153.68593
-3.4827948 -153.91673 -17.289049 -75.631187 -10.087827 168.39029
-3.4874592 -153.6981 -10.088758 168.38605 -17.350451 -72.237587
2259250000 -11.56427 36.321281 -3.4757502 -156.51318 -3.4788611 -156.29587
-3.4802649 -156.52513 -17.514915 -79.883018 -10.266678 165.71385
-3.483882 -156.30714 -10.267851 165.72495 -17.590694 -76.431168
2296737500 -11.615768 33.908791 -3.4722562 -159.12065 -3.4751852 -158.90735
-3.4764135 -159.13402 -17.750328 -84.198608 -10.445937 163.07216
-3.4796867 -158.91214 -10.446076 163.07764 -17.847019 -80.685654
2334225000 -11.665563 31.493235 -3.4691606 -161.72804 -3.4714949 -161.51263
-3.4741218 -161.74797 -17.98435 -88.540184 -10.626808 160.44458
-3.4766366 -161.51765 -10.628642 160.46005 -18.096537 -84.993309
2371712500 -11.71575 29.060085 -3.4667056 -164.33516 -3.4692128 -164.12369
-3.4705133 -164.35324 -18.224199 -92.929054 -10.810535 157.83975
-3.4733682 -164.12701 -10.813115 157.85384 -18.352428 -89.299675
2409200000 -11.768267 26.625561 -3.4641209 -166.94507 -3.46597 -166.73114
-3.4672937 -166.96341 -18.464653 -97.330711 -10.996503 155.261
-3.4701672 -166.73666 -10.999587 155.27791 -18.615683 -93.598534
2446687500 -11.816719 24.20125 -3.4623876 -169.55502 -3.4627094 -169.3373
-3.4642801 -169.57535 -18.707031 -101.79107 -11.181599 152.72469
-3.4671626 -169.34891 -11.186966 152.72665 -18.884338 -98.006493
2484175000 -11.86748 21.781666 -3.4593523 -172.16463 -3.4608154 -171.94762
-3.460644 -172.18587 -18.955925 -106.27293 -11.370705 150.17921
-3.4639914 -171.9599 -11.375497 150.19054 -19.163597 -102.47781
2521662500 -11.918589 19.345045 -3.4558883 -174.76997 -3.4577632 -174.55403
-3.4570923 -174.79085 -19.20713 -110.76825 -11.562091 147.66414
-3.4608831 -174.56877 -11.566524 147.67921 -19.439827 -106.91833
2559150000 -11.967474 16.938507 -3.4521933 -177.38153 -3.4551449 -177.16623
-3.4538021 -177.40462 -19.460407 -115.36877 -11.751367 145.18196
-3.456378 -177.17374 -11.753573 145.188 -19.721601 -111.48121
2596637500 -12.012865 14.521545 -3.4491346 179.99924 -3.4518611 -179.77249
-3.4511018 179.98546 -19.721577 -120.03802 -11.942117 142.71068
-3.4531617 -179.78979 -11.943759 142.70874 -20.017683 -116.13306
2634125000 -12.05994 12.129912 -3.4465723 177.38826 -3.4478526 177.62042
-3.4473779 177.37549 -19.985483 -124.72424 -12.132714 140.26106
-3.4496093 177.59865 -12.135698 140.26357 -20.310833 -120.86559
2671612500 -12.1092 9.7024708 -3.4429214 174.78081 -3.4447327 175.00822
-3.4452863 174.76537 -20.243731 -129.4435 -12.326807 137.84331
-3.446759 174.98491 -12.328708 137.85384 -20.612238 -125.63188
2709100000 -12.16098 7.304131 -3.4397061 172.16888 -3.4400241 172.39705
-3.4432731 172.14769 -20.506485 -134.17958 -12.524621 135.4481
-3.4433427 172.3745 -12.525567 135.46822 -20.920017 -130.42543
2746587500 -12.209329 4.9104829 -3.4358933 169.55214 -3.4374399 169.78687
-3.4401071 169.53278 -20.764021 -139.00372 -12.723065 133.09724
-3.4399376 169.76071 -12.722283 133.11322 -21.226711 -135.37529
2784075000 -12.258673 2.5191321 -3.432358 166.93578 -3.4342136 167.17316
-3.4367826 166.92807 -21.031017 -143.89905 -12.920918 130.75713
-3.4369273 167.15088 -12.919477 130.77846 -21.522676 -140.42024
2821562500 -12.307704 0.12217665 -3.429637 164.32353 -3.4298 164.55919
-3.433845 164.31137 -21.29665 -148.86313 -13.12006 128.46696
-3.4340446 164.53658 -13.119609 128.47749 -21.82366 -145.50729
2859050000 -12.356565 -2.2505624 -3.4266496 161.70091 -3.4267743 161.93806
-3.4310558 161.69109 -21.559704 -153.95367 -13.318864 126.20267
-3.4302773 161.91687 -13.316904 126.19351 -22.134886 -150.78374
2896537500 -12.408683 -4.6351995 -3.4240673 159.08604 -3.4229312 159.327
-3.4279881 159.07861 -21.831709 -159.09776 -13.522002 123.95534
-3.4277821 159.29704 -13.520514 123.94907 -22.440544 -156.1783
2934025000 -12.461535 -6.9967632 -3.4210219 156.47572 -3.4186049 156.70862
-3.4236593 156.45905 -22.093534 -164.30724 -13.723296 121.75374
-3.4246278 156.68028 -13.723092 121.75165 -22.733215 -161.64499
2971512500 -12.512322 -9.3726282 -3.419102 153.85643 -3.4162748 154.09349
-3.4223897 153.83842 -22.34729 -169.72006 -13.924751 119.58415
-3.4221981 154.06207 -13.92489 119.57425 -23.020355 -167.312
3009000000 -12.561722 -11.702906 -3.4161468 151.23705 -3.4134309 151.47339
-3.4182494 151.2213 -22.607628 -175.22801 -14.127081 117.44717
-3.4182029 151.44077 -14.128087 117.42142 -23.302689 -173.0862
3046487500 -12.609055 -14.060076 -3.4131405 148.61909 -3.4126966 148.85527
-3.4146264 148.60857 -22.854221 179.09116 -14.329258 115.36301
-3.4156125 148.8196 -14.328849 115.31981 -23.55546 -179.13739
3083975000 -12.655765 -16.393873 -3.4106138 146.00146 -3.4083002 146.23296
-3.4109354 145.99043 -23.098064 173.27266 -14.529814 113.28563
-3.4123294 146.20753 -14.530378 113.24229 -23.795132 174.74068
3121462500 -12.70501 -18.742544 -3.406321 143.37817 -3.4051228 143.60664
-3.4080408 143.36572 -23.313028 167.39423 -14.734438 111.27547
-3.4088743 143.58424 -14.731851 111.2233 -24.015369 168.54628
3158950000 -12.749793 -21.085815 -3.4020796 140.75117 -3.4023609 140.99017
-3.4045064 140.74858 -23.506613 161.30603 -14.936537 109.28219
-3.4054446 140.96129 -14.934071 109.22616 -24.212587 162.13356
3196437500 -12.800564 -23.421734 -3.3985581 138.14127 -3.3990626 138.37544
-3.4015453 138.13097 -23.687904 155.10081 -15.138741 107.31734
-3.4023283 138.34898 -15.135357 107.27133 -24.375263 155.5891
3233925000 -12.847869 -25.772192 -3.3947663 135.52602 -3.396374 135.76053
-3.398977 135.5134 -23.836279 148.78864 -15.337582 105.40605
-3.3997686 135.73427 -15.334167 105.35974 -24.51494 148.99525
3271412500 -12.893823 -28.150564 -3.3925765 132.90514 -3.3943605 133.14441
-3.3961408 132.89655 -23.947012 142.41512 -15.535606 103.53312
-3.3971634 133.12152 -15.534735 103.48052 -24.611828 142.32898
3308900000 -12.941895 -30.52302 -3.3882787 130.28752 -3.3915651 130.52611
-3.3919296 130.27802 -24.030287 136.0208 -15.735731 101.68254
-3.3941531 130.5042 -15.733996 101.64201 -24.675558 135.6904
3346387500 -12.989306 -32.903595 -3.3861692 127.66978 -3.3890884 127.90969
-3.3883994 127.6589 -24.077576 129.60864 -15.933994 99.87661
-3.3915646 127.88783 -15.929596 99.829338 -24.700315 128.99968
3383875000 -13.03744 -35.272312 -3.383316 125.04729 -3.3856153 125.29119
-3.3859215 125.03978 -24.089586 123.23877 -16.126406 98.099129
-3.3887072 125.26753 -16.125223 98.057922 -24.699486 122.38217
3421362500 -13.091404 -37.667191 -3.3810058 122.43068 -3.383533 122.67614
-3.3833201 122.42334 -24.078184 116.8988 -16.318996 96.368294
-3.3860455 122.64613 -16.321182 96.327087 -24.66326 115.70149
3458850000 -13.14162 -40.052658 -3.3801126 119.81802 -3.381536 120.06254
-3.3802643 119.80156 -24.046133 110.54949 -16.508047 94.633698
-3.3839054 120.02798 -16.511848 94.617966 -24.595522 109.11842
3496337500 -13.194953 -42.438759 -3.3785739 117.20413 -3.3789454 117.44718
-3.3792956 117.18163 -23.98242 104.34633 -16.69553 92.971542
-3.3824894 117.41388 -16.698648 92.960564 -24.487421 102.68887
3533825000 -13.242391 -44.836632 -3.376673 114.58126 -3.3768899 114.83056
-3.3771291 114.56062 -23.894295 98.292038 -16.882242 91.381645
-3.3802845 114.79222 -16.888508 91.367416 -24.36014 96.429443
3571312500 -13.291389 -47.228237 -3.3749585 111.96452 -3.3745267 112.21724
-3.3752403 111.94046 -23.7836 92.336075 -17.069057 89.802124
