! MARKI MICROWAVE INC.
! Email:             	support@markimicrowave.com   				Phone:   408-778-4200
! Model Number:      	PD0434SM						Date:    02/15
! Filename:		PD-0434SM.S3P						Version: 1.1
! Description:       	3-port S-parameter data for Power Divider PD-0434SM
! Frequency Range: 	10 MHz to 40 GHz		
! Port Configuration:	PORT 1: COMMON, PORT 2 and Port 3: Output


! S3P File: Measurements: Mag<S11> Ang<S11> Mag<S12> Ang<S12> Mag<S13> Ang<S13>! row 1 
!			  Mag<S21> Ang<S21> Mag<S22> Ang<S22> Mag<S23> Ang<S23>! row 2 
!			  Mag<S31> Ang<S31> Mag<S32> Ang<S32> Mag<S33> Ang<S33>! row 3 
# Hz S  dB   R 50
10000000 -9.527317 173.54587 -3.5760043 -0.55554581 -3.4933007 -0.22941218
-3.5770714 0.022788301 -9.5780392 172.80879 -3.6255796 -1.1868669
-3.4418063 0.19592109 -3.5650012 -0.61249101 -9.5528479 172.79242
59987500 -9.6819773 177.29034 -3.5581341 -1.6058333 -3.5482576 -1.6555083
-3.5572963 -1.6096764 -9.7507114 173.70262 -3.5861535 -3.3212168
-3.5547693 -1.6525054 -3.6025198 -3.338016 -9.7600899 173.71323
109975000 -9.7182674 176.76877 -3.5509691 -2.7925658 -3.5435097 -2.8553441
-3.553896 -2.7931893 -9.8421917 170.47806 -3.6306713 -5.7632775
-3.5549543 -2.8751171 -3.6433771 -5.7890897 -9.8709974 170.55807
159962500 -9.7798138 175.97652 -3.5564382 -4.1091065 -3.5537994 -4.1104083
-3.5579617 -4.1067472 -10.001758 167.29314 -3.6835709 -8.2886181
-3.5600121 -4.1091757 -3.6892605 -8.3359442 -9.9974337 167.09279
209950000 -9.8125639 175.12128 -3.5488043 -5.3155289 -3.5635092 -5.3204174
-3.5580237 -5.2918763 -10.125936 163.8907 -3.7361341 -10.751799
-3.5786066 -5.328773 -3.7441177 -10.778658 -10.124868 163.82889
259937500 -9.8680182 174.45508 -3.5553775 -6.5308385 -3.5666783 -6.5539532
-3.5641177 -6.5717158 -10.262685 160.70148 -3.8069634 -13.153936
-3.5795908 -6.5865111 -3.8167207 -13.163153 -10.253958 160.561
309925000 -9.9163342 173.53764 -3.5684755 -7.7480636 -3.5665476 -7.7869205
-3.5778239 -7.7071214 -10.413048 157.37418 -3.884846 -15.557786
-3.57704 -7.7853718 -3.8974566 -15.586033 -10.402445 157.36887
359912500 -9.9381886 172.99829 -3.5641408 -9.0163774 -3.5775139 -9.0103436
-3.5761006 -9.0676374 -10.564938 154.31737 -3.9607568 -17.885948
-3.5883951 -9.0067921 -3.9683058 -17.840597 -10.547004 154.30565
409900000 -9.9748526 172.22411 -3.5692811 -10.219947 -3.5653963 -10.23161
-3.5740044 -10.239491 -10.703856 150.99013 -4.0411825 -20.149879
-3.5751014 -10.222377 -4.0449615 -20.142887 -10.732863 151.14534
459887500 -9.9920025 171.42596 -3.5737934 -11.48057 -3.5741379 -11.494128
-3.581373 -11.511198 -10.870132 147.93929 -4.1353765 -22.353626
-3.587152 -11.49495 -4.1352358 -22.331072 -10.8934 147.95787
509875000 -10.037379 170.94537 -3.589226 -12.668217 -3.5778091 -12.640402
-3.5910604 -12.642351 -11.0439 145.13834 -4.243546 -24.50271
-3.5891836 -12.638406 -4.2560234 -24.511244 -11.103181 145.20857
559862500 -10.062991 170.28043 -3.586278 -13.898517 -3.5925286 -13.920712
-3.5937254 -13.93784 -11.275042 142.15604 -4.3602586 -26.732632
-3.5919197 -13.904839 -4.3452039 -26.707876 -11.320976 142.05464
609850000 -10.100125 169.60069 -3.5968995 -15.115416 -3.5897171 -15.153432
-3.5917947 -15.136831 -11.474329 139.22923 -4.4421859 -28.842144
-3.5987339 -15.111457 -4.4633384 -28.7491 -11.50847 139.07806
659837500 -10.120159 168.91092 -3.5852432 -16.334656 -3.5913808 -16.398605
-3.5875459 -16.330267 -11.704563 136.32114 -4.5761957 -30.896877
-3.5977228 -16.356688 -4.5722322 -30.911449 -11.731061 136.23279
709825000 -10.143059 168.14378 -3.5911608 -17.523243 -3.5918624 -17.583551
-3.5921054 -17.525875 -11.950498 133.28383 -4.6875401 -32.963333
-3.5979369 -17.548658 -4.6940522 -32.884113 -11.973865 133.16658
759812500 -10.152844 167.58946 -3.5939574 -18.739798 -3.5983515 -18.812487
-3.5973952 -18.764635 -12.167406 130.35085 -4.8297462 -34.966995
-3.6045406 -18.76708 -4.8245935 -34.913429 -12.202764 130.31665
809800000 -10.178096 166.75758 -3.5897336 -20.070759 -3.591254 -20.078047
-3.5956914 -20.090494 -12.400709 127.44252 -4.9541769 -36.900021
-3.6045218 -20.066771 -4.9469271 -36.922913 -12.455112 127.34172
859787500 -10.204309 165.96747 -3.6042914 -21.278496 -3.6076121 -21.322872
-3.6047175 -21.283281 -12.703815 124.37135 -5.091279 -38.919773
-3.6146894 -21.345097 -5.0878663 -38.957859 -12.730484 124.4213
909775000 -10.195119 165.42433 -3.5992854 -22.470129 -3.6031258 -22.496019
-3.5969903 -22.450611 -12.955474 121.62396 -5.2189465 -40.780949
-3.6016204 -22.453749 -5.2140427 -40.77906 -12.962053 121.6334
959762500 -10.248053 164.66748 -3.5971367 -23.653124 -3.6042213 -23.730049
-3.5979302 -23.661652 -13.237075 118.66975 -5.3580279 -42.638344
-3.6080847 -23.652985 -5.3508401 -42.536785 -13.231064 118.61233
1009750000 -10.262722 163.81583 -3.6010778 -24.863689 -3.6064553 -24.91283
-3.6080723 -24.858551 -13.517192 115.94024 -5.495378 -44.419529
-3.6245258 -24.885748 -5.5005713 -44.435097 -13.518811 115.85938
1059737500 -10.286391 163.09833 -3.604604 -26.115143 -3.6073103 -26.121771
-3.6047442 -26.10931 -13.839684 113.05366 -5.6456614 -46.183784
-3.6079879 -26.104263 -5.6458111 -46.228039 -13.832008 113.05021
1109725000 -10.319106 162.25488 -3.6157439 -27.319605 -3.6148515 -27.367401
-3.6220655 -27.287361 -14.144575 110.08159 -5.782362 -47.969864
-3.6254766 -27.286377 -5.7823777 -47.884628 -14.121383 109.97248
1159712500 -10.304619 161.5471 -3.6075037 -28.569048 -3.6135535 -28.559332
-3.6103563 -28.511749 -14.395712 107.3925 -5.9294329 -49.661491
-3.6120751 -28.514027 -5.9310231 -49.698311 -14.416282 107.3093
1209700000 -10.360989 160.86472 -3.6031187 -29.781267 -3.6078358 -29.788439
-3.6126993 -29.728573 -14.767464 104.75842 -6.0747666 -51.412933
-3.6145225 -29.747213 -6.0736589 -51.442005 -14.795478 104.72424
1259687500 -10.368659 159.97784 -3.6057849 -30.910007 -3.6139231 -31.025974
-3.6115749 -30.936195 -15.091705 101.89605 -6.2281561 -53.104858
-3.6217051 -30.998869 -6.2302723 -53.066883 -15.09186 101.82339
1309675000 -10.412648 159.32747 -3.6239009 -32.123772 -3.6240211 -32.228458
-3.625684 -32.140949 -15.432858 99.046028 -6.378314 -54.666012
-3.6339083 -32.201622 -6.3883586 -54.666733 -15.457731 99.015015
1359662500 -10.443298 158.49271 -3.6226132 -33.342041 -3.6197038 -33.442032
-3.6241562 -33.352036 -15.791495 96.449089 -6.5369601 -56.330326
-3.6340501 -33.36721 -6.5448704 -56.265953 -15.815571 96.283974
1409650000 -10.450007 157.65953 -3.6162229 -34.548615 -3.6193039 -34.650566
-3.6237891 -34.574905 -16.187979 93.469368 -6.6777291 -57.940029
-3.6290815 -34.583344 -6.6853476 -57.886604 -16.159773 93.287315
1459637500 -10.469666 156.93648 -3.6179094 -35.814346 -3.6244667 -35.867554
-3.6248488 -35.76815 -16.56789 90.69146 -6.8403659 -59.462219
-3.6297626 -35.793831 -6.8415189 -59.386944 -16.539324 90.558601
1509625000 -10.493978 156.11462 -3.613508 -36.958504 -3.6184721 -37.066406
-3.6222324 -36.982243 -16.951401 87.779686 -6.9889259 -60.976658
-3.6236355 -37.010956 -6.9962015 -60.954441 -16.910141 87.539108
1559612500 -10.531078 155.2795 -3.621742 -38.237488 -3.6259668 -38.329216
-3.6271243 -38.192837 -17.338779 84.656105 -7.1539721 -62.46402
-3.6377928 -38.26366 -7.1635189 -62.472477 -17.282738 84.480362
1609600000 -10.536592 154.39224 -3.6213374 -39.425499 -3.6192381 -39.477379
-3.6189663 -39.398369 -17.770109 81.651199 -7.3064318 -63.984058
-3.6314609 -39.447163 -7.3167343 -63.990166 -17.652252 81.616364
1659587500 -10.548528 153.53456 -3.6098831 -40.597134 -3.6225476 -40.714272
-3.6148033 -40.602448 -18.191349 78.529404 -7.4642568 -65.537064
-3.625191 -40.664581 -7.4621792 -65.474884 -18.087883 78.541153
1709575000 -10.614001 152.69655 -3.6260762 -41.829636 -3.6205342 -41.916893
-3.6277797 -41.787529 -18.643047 75.232506 -7.6250062 -66.939629
-3.6339648 -41.867496 -7.6350708 -66.922195 -18.517645 75.340561
1759562500 -10.662274 151.71291 -3.6184065 -43.010475 -3.6217232 -43.090023
-3.6243863 -42.951443 -19.084936 71.815491 -7.785666 -68.377777
-3.6338286 -42.995522 -7.7834086 -68.304825 -18.923214 72.025711
1809550000 -10.65501 150.88618 -3.6219459 -44.22456 -3.6269331 -44.287304
-3.6175392 -44.206257 -19.459236 68.327126 -7.9437308 -69.772552
-3.6283073 -44.273495 -7.9496093 -69.767166 -19.322079 68.516068
1859537500 -10.71941 149.89404 -3.6194706 -45.421532 -3.6174123 -45.51709
-3.6111836 -45.416557 -19.891027 64.9953 -8.1148434 -71.207451
-3.6235094 -45.431473 -8.1277704 -71.179405 -19.728796 65.117592
1909525000 -10.739908 148.97025 -3.6165903 -46.637268 -3.6268859 -46.713348
-3.6181724 -46.643909 -20.352936 61.418892 -8.2710161 -72.582558
-3.6231971 -46.667927 -8.2797422 -72.541161 -20.167093 61.675373
1959512500 -10.78429 148.05821 -3.6159015 -47.877758 -3.6205311 -47.906109
-3.6232202 -47.834095 -20.779438 57.987576 -8.443696 -73.969223
-3.6331933 -47.927433 -8.4499655 -73.962967 -20.592579 58.303371
2009500000 -10.80829 147.10994 -3.608772 -49.045296 -3.6213043 -49.073757
-3.6229894 -48.998707 -21.167765 53.945122 -8.6147871 -75.208717
-3.6229384 -48.996048 -8.6056805 -75.186058 -20.967085 54.621223
2059487500 -10.873905 146.39941 -3.6059468 -50.25602 -3.6111085 -50.320854
-3.6125104 -50.248318 -21.623093 50.212029 -8.782691 -76.578453
-3.618964 -50.253128 -8.7746563 -76.550812 -21.424641 50.728859
2109475000 -10.931874 145.33768 -3.6101036 -51.511353 -3.6173141 -51.560596
-3.6208141 -51.479679 -22.085854 45.994438 -8.944993 -77.96347
-3.6217983 -51.504269 -8.9392271 -77.94838 -21.845549 46.773182
2159462500 -10.948462 144.38811 -3.6123319 -52.683659 -3.6163974 -52.721367
-3.6174092 -52.70853 -22.51083 41.696285 -9.1099529 -79.161591
-3.6215534 -52.700508 -9.117609 -79.157669 -22.316986 43.145935
2209450000 -10.966047 143.54636 -3.6008928 -53.876785 -3.6083584 -53.96085
-3.6061153 -53.872204 -22.969206 38.261761 -9.284586 -80.538689
-3.6089211 -53.879597 -9.2894812 -80.47184 -22.72188 39.031017
2259437500 -11.024335 142.4883 -3.6002171 -55.086967 -3.6003697 -55.115608
-3.611285 -55.0369 -23.502411 33.730888 -9.4470024 -81.86161
-3.6157975 -55.057346 -9.4498949 -81.866615 -23.187923 34.683613
2309425000 -11.081794 141.76181 -3.5964084 -56.344528 -3.6056561 -56.365417
-3.6014025 -56.272671 -23.952322 28.200951 -9.6116438 -83.113373
-3.6116798 -56.311855 -9.621563 -83.079567 -23.69549 30.15036
2359412500 -11.11001 140.66411 -3.6073663 -57.525131 -3.6086533 -57.614334
-3.6076565 -57.532391 -24.246933 23.624311 -9.7942305 -84.349464
-3.6103225 -57.533703 -9.80338 -84.275307 -23.926434 25.073362
2409400000 -11.153532 139.71501 -3.5974526 -58.795357 -3.5968034 -58.803894
-3.6000767 -58.756096 -24.694412 18.611887 -9.9676523 -85.661827
-3.5979602 -58.785233 -9.9649916 -85.645897 -24.437756 20.532137
2459387500 -11.208875 138.77054 -3.5969579 -59.951508 -3.6015656 -60.025139
-3.6092002 -59.935452 -25.062696 12.871732 -10.145187 -86.838234
-3.6027639 -59.955292 -10.135823 -86.780235 -24.823523 14.723002
2509375000 -11.259471 137.71545 -3.5997286 -61.144894 -3.604224 -61.16864
-3.6065855 -61.116192 -25.416056 7.4189978 -10.323891 -88.047874
-3.611331 -61.105324 -10.334382 -87.974251 -25.1064 10.216653
2559362500 -11.306444 136.82742 -3.5922279 -62.387043 -3.5910962 -62.447998
-3.5999234 -62.383472 -25.661884 1.5718793 -10.498796 -89.32206
-3.6075451 -62.339344 -10.503203 -89.192757 -25.445065 4.7537026
2609350000 -11.340859 135.54521 -3.5937705 -63.564625 -3.5927536 -63.665012
-3.597116 -63.574261 -25.8668 -4.1358914 -10.683838 -90.530342
-3.5966995 -63.581692 -10.67045 -90.495956 -25.687197 -1.0618733
2659337500 -11.362874 134.56308 -3.5840878 -64.809059 -3.585871 -64.845123
-3.5867066 -64.80722 -26.039661 -10.21828 -10.868488 -91.767143
-3.5847623 -64.805077 -10.862827 -91.694458 -25.956812 -6.9054942
2709325000 -11.445415 133.5432 -3.5874164 -66.028801 -3.5911939 -66.069458
-3.5957539 -66.023468 -26.164637 -15.741737 -11.056035 -92.917747
-3.5909271 -66.035469 -11.066923 -92.941551 -26.050035 -12.003968
2759312500 -11.475063 132.54092 -3.5795519 -67.17778 -3.5773268 -67.263748
-3.5877962 -67.180298 -26.313787 -21.23667 -11.227991 -94.088799
-3.5849369 -67.177963 -11.237535 -93.992088 -26.256559 -17.580198
2809300000 -11.541886 131.56097 -3.5777237 -68.458191 -3.5751374 -68.553871
-3.585278 -68.438072 -26.368521 -26.754856 -11.422777 -95.298752
-3.5822835 -68.424026 -11.426863 -95.225967 -26.363853 -23.018656
2859287500 -11.593638 130.12949 -3.5771735 -69.672852 -3.5822227 -69.6838
-3.5879555 -69.651466 -26.248415 -33.125553 -11.625855 -96.339493
-3.5768359 -69.65567 -11.615877 -96.409279 -26.290533 -28.617075
2909275000 -11.646899 129.23715 -3.5789433 -70.859596 -3.5709 -70.915649
-3.5759706 -70.848213 -26.22471 -36.968651 -11.815541 -97.484131
-3.5712543 -70.853348 -11.812866 -97.4851 -26.451178 -33.779018
2959262500 -11.695745 128.09114 -3.5564194 -72.046547 -3.5584269 -72.136536
-3.5675988 -72.040749 -26.310629 -41.959049 -12.02727 -98.733826
-3.5570207 -72.038422 -12.011949 -98.610435 -26.316505 -38.70702
3009250000 -11.766725 126.94331 -3.5719132 -73.280563 -3.5668671 -73.347404
-3.5717192 -73.306717 -26.193693 -46.992275 -12.205862 -99.766571
-3.5736828 -73.29837 -12.226439 -99.666695 -26.421904 -43.435253
3059237500 -11.833412 126.06894 -3.5698164 -74.573051 -3.5599945 -74.616928
-3.5706644 -74.504372 -26.101843 -52.086933 -12.414197 -100.94385
-3.5675509 -74.56678 -12.418673 -100.86666 -26.397797 -49.500271
3109225000 -11.886947 124.73894 -3.5661716 -75.721619 -3.5605512 -75.805946
-3.565666 -75.706322 -25.949093 -56.267929 -12.608264 -102.02357
-3.5563946 -75.706558 -12.603783 -101.95562 -26.245321 -53.372623
3159212500 -11.959372 123.6507 -3.5621068 -77.051559 -3.5493634 -77.029907
-3.5646853 -76.982353 -25.971573 -60.759846 -12.817492 -103.10285
-3.5581229 -76.984528 -12.83233 -103.0761 -26.267641 -58.386806
3209200000 -12.026154 122.63225 -3.5610096 -78.244492 -3.5550578 -78.246002
-3.5597796 -78.235771 -25.698776 -65.519135 -13.02774 -104.12467
-3.5537922 -78.210022 -13.02181 -104.14146 -25.950506 -62.955391
3259187500 -12.077686 121.25709 -3.5462661 -79.45385 -3.5445087 -79.503021
-3.5436332 -79.403954 -25.551764 -68.867813 -13.263401 -105.16358
-3.5358348 -79.420418 -13.242092 -105.08395 -25.975576 -67.196243
3309175000 -12.129281 120.28514 -3.5537691 -80.627762 -3.5353208 -80.715546
-3.55178 -80.61554 -25.4783 -73.22364 -13.452547 -106.38396
-3.5393679 -80.631958 -13.471293 -106.20609 -25.75836 -72.22364
3359162500 -12.208517 119.17226 -3.5486147 -81.865273 -3.5312712 -81.936493
-3.5497649 -81.881699 -25.324932 -76.8657 -13.686035 -107.2876
-3.5377953 -81.886337 -13.682341 -107.14117 -25.50425 -75.034676
3409150000 -12.263797 117.72279 -3.5362988 -83.111298 -3.5289705 -83.152802
-3.5363164 -83.080162 -24.938698 -80.462708 -13.881102 -108.27426
-3.5225308 -83.128334 -13.87072 -108.21642 -25.350893 -79.074997
3459137500 -12.340072 116.5393 -3.5398662 -84.272591 -3.5222697 -84.362366
-3.5425673 -84.263695 -24.897703 -83.588135 -14.12658 -109.30605
-3.5299015 -84.275406 -14.128289 -109.24375 -25.132196 -82.256813
3509125000 -12.432109 115.35526 -3.532603 -85.553764 -3.5232019 -85.652412
-3.5335298 -85.523972 -24.717508 -86.816811 -14.327617 -110.39311
-3.5205867 -85.552101 -14.32933 -110.29774 -24.959934 -85.660805
3559112500 -12.485324 114.19555 -3.5205586 -86.801605 -3.5125003 -86.885071
-3.5239911 -86.730835 -24.552063 -90.030678 -14.565513 -111.18149
-3.5068498 -86.785995 -14.575293 -111.21247 -24.83852 -88.995323
3609100000 -12.602368 112.89989 -3.5338035 -88.034882 -3.5131717 -88.093994
-3.5303657 -88.014656 -24.317299 -92.692451 -14.794265 -112.19026
-3.5217803 -88.036598 -14.807925 -112.16113 -24.565699 -91.835556
3659087500 -12.660078 111.67288 -3.5179319 -89.26683 -3.5071235 -89.364601
-3.5257337 -89.246117 -24.226158 -95.186821 -15.031343 -113.17187
-3.5088913 -89.287506 -15.029049 -113.07707 -24.463783 -94.75367
3709075000 -12.745527 110.40546 -3.5244653 -90.528404 -3.5043414 -90.585533
-3.5194457 -90.488304 -24.039789 -98.047478 -15.261785 -114.12753
-3.5033591 -90.563286 -15.264161 -114.14438 -24.306385 -97.764252
3759062500 -12.831862 109.25272 -3.5218487 -91.726151 -3.4959867 -91.851135
-3.513515 -91.719398 -23.916344 -100.93539 -15.497849 -114.93845
-3.5026467 -91.782005 -15.523939 -115.01511 -24.117027 -100.21288
3809050000 -12.932293 108.02628 -3.5097992 -92.947388 -3.4871645 -93.03997
-3.5129759 -92.941803 -23.802172 -103.39642 -15.741119 -115.95374
-3.4955878 -92.969887 -15.753108 -115.94693 -23.927891 -103.13651
3859037500 -13.013791 106.7888 -3.4914899 -94.197319 -3.487803 -94.302834
-3.4953046 -94.182083 -23.619665 -106.23358 -15.987358 -116.81479
-3.4780354 -94.244102 -15.970763 -116.81516 -23.765594 -105.31234
3909025000 -13.130766 105.64467 -3.5035172 -95.454826 -3.4809833 -95.551056
-3.5033042 -95.433571 -23.556171 -108.6214 -16.263519 -117.7116
-3.4922488 -95.453194 -16.249943 -117.61971 -23.698357 -108.13417
3959012500 -13.187699 104.18243 -3.5004046 -96.693581 -3.475848 -96.803627
-3.4988644 -96.66642 -23.408978 -110.97802 -16.515945 -118.57994
-3.4780357 -96.740707 -16.510239 -118.50947 -23.592783 -110.28536
4009000000 -13.344448 103.44516 -3.492065 -97.929932 -3.4753554 -98.037384
-3.5013809 -97.912651 -23.222984 -114.10138 -16.763399 -119.14381
-3.486589 -97.983894 -16.748436 -119.10091 -23.394737 -113.63631
4058987500 -13.592256 104.0053 -3.4802792 -99.26844 -3.4729409 -99.386086
-3.4922974 -99.25666 -22.589371 -120.83891 -16.884476 -119.38682
-3.4689534 -99.325722 -16.874443 -119.32412 -22.617973 -120.2037
4108975000 -13.671652 102.71741 -3.498704 -100.47821 -3.4771852 -100.57217
-3.4893088 -100.4557 -22.428732 -123.02568 -17.131689 -120.16434
-3.4765644 -100.5321 -17.123949 -120.22112 -22.531094 -121.99861
4158962500 -13.817433 101.91874 -3.4881828 -101.72567 -3.4678166 -101.82267
-3.4967542 -101.69407 -22.209902 -125.35085 -17.412901 -121.0323
-3.4749682 -101.78353 -17.424879 -120.90633 -22.294128 -124.52116
4208950000 -13.927347 100.69114 -3.4779749 -102.95703 -3.4724755 -103.06061
-3.4816165 -102.91519 -22.091013 -127.59471 -17.690239 -121.85907
-3.463876 -103.01206 -17.696955 -121.74833 -22.187071 -126.32039
4258937500 -14.003914 99.592155 -3.4828413 -104.20035 -3.4659586 -104.34811
-3.4896114 -104.17803 -21.928913 -130.09908 -17.958364 -122.6639
-3.469341 -104.27689 -17.951956 -122.69323 -22.04471 -129.02815
4308925000 -14.130909 98.559204 -3.4786682 -105.44221 -3.4620266 -105.53858
-3.4837465 -105.38839 -21.773161 -132.37607 -18.257488 -123.44543
-3.4668343 -105.4921 -18.243837 -123.50066 -21.87348 -130.99947
4358912500 -14.252648 97.432396 -3.4770055 -106.69985 -3.4528549 -106.82439
-3.4812901 -106.65504 -21.622377 -134.45921 -18.526108 -124.19476
-3.4611444 -106.75732 -18.499697 -124.20102 -21.803442 -132.98329
4408900000 -14.340567 96.840736 -3.4754755 -107.91737 -3.4601026 -108.06966
-3.4781961 -107.88095 -21.506098 -136.67043 -18.823709 -125.10693
-3.4632199 -107.94985 -18.812548 -125.05443 -21.659517 -135.69624
4458887500 -14.438796 95.476608 -3.4600217 -109.16665 -3.4483249 -109.31775
-3.4655633 -109.15309 -21.357956 -139.15349 -19.126202 -125.81401
-3.4449072 -109.25684 -19.111509 -125.56129 -21.499479 -137.74855
4508875000 -14.565219 94.556953 -3.4593146 -110.43435 -3.4488862 -110.53848
-3.4709864 -110.36887 -21.190155 -141.26744 -19.417519 -126.4082
-3.4454458 -110.48428 -19.407448 -126.4403 -21.384459 -139.77995
4558862500 -14.72611 93.722282 -3.4621124 -111.66589 -3.4484758 -111.79701
-3.4695661 -111.63301 -21.065313 -143.58682 -19.737442 -127.15605
-3.451546 -111.72346 -19.760159 -127.19368 -21.22311 -142.03568
4608850000 -14.8531 92.738968 -3.4647655 -112.89143 -3.4424593 -113.04397
-3.4691286 -112.88766 -20.912899 -145.7236 -20.03919 -127.75584
-3.4481235 -112.9726 -20.056479 -127.86105 -21.053165 -143.95122
4658837500 -14.957512 91.803261 -3.451977 -114.16937 -3.4466343 -114.3056
-3.4658382 -114.13679 -20.749083 -147.79703 -20.380558 -128.17307
-3.4449415 -114.27148 -20.360004 -128.46838 -21.017954 -146.04599
4708825000 -15.108424 90.885315 -3.4605556 -115.41745 -3.4426188 -115.53164
