! MARKI MICROWAVE INC.
! Email:             	info@markimicrowave.com   				Phone:   408-778-4200
! Model Number:      	PD0465							Date:    05/15
! Filename:		PD-0465.S3P						Version: 1.0
! Description:       	3-port S-parameter data for Power Divider PD-0465
! Measured Frequency: 	10 MHz to 67 GHz		
! Port Configuration:	PORT 1: COMMON, PORT 2 and Port 3: Output


! S3P File: Measurements: Mag<S11> Ang<S11> Mag<S12> Ang<S12> Mag<S13> Ang<S13>! row 1 
!			  Mag<S21> Ang<S21> Mag<S22> Ang<S22> Mag<S23> Ang<S23>! row 2 
!			  Mag<S31> Ang<S31> Mag<S32> Ang<S32> Mag<S33> Ang<S33>! row 3 

# Hz S  dB   R 50
10000000 -9.5446024 175.01241 -3.5726068 -6.6638741 -3.5170424 -6.1628132
-3.5482485 -6.5563426 -9.6182003 168.96613 -3.5807807 -8.7786798
-3.5086265 -6.3950028 -3.5720801 -9.1252375 -9.5451641 168.94412
93737500 -9.5749807 171.74289 -3.5659673 -9.6686888 -3.521908 -9.2812309
-3.5474377 -9.5896139 -9.6859732 163.22792 -3.6300707 -13.154696
-3.516237 -9.4687996 -3.6235447 -13.43233 -9.6293411 163.20853
177475000 -9.6120386 167.93211 -3.5608897 -13.273387 -3.5268524 -13.001379
-3.5480759 -13.214492 -9.7704592 156.46051 -3.6959548 -18.3384
-3.5241895 -13.150661 -3.6907308 -18.555571 -9.7341681 156.43018
261212500 -9.6526728 163.56964 -3.5552187 -17.477077 -3.5327675 -17.323933
-3.5482476 -17.436693 -9.8746042 148.68549 -3.7783773 -24.334999
-3.5322514 -17.426579 -3.7742169 -24.485857 -9.8592329 148.63721
344950000 -9.6978188 158.65349 -3.5496528 -22.277412 -3.5398126 -22.244541
-3.5475724 -22.257896 -10.002149 139.89053 -3.8794429 -31.135418
-3.5418494 -22.303463 -3.8768466 -31.217411 -10.006887 139.80972
428687500 -9.7492075 153.19458 -3.5445123 -27.67416 -3.5454285 -27.76372
-3.547384 -27.680147 -10.15455 130.09464 -4.0006728 -38.723034
-3.5519412 -27.778994 -4.0015826 -38.737984 -10.178743 129.97569
512425000 -9.7963934 148.13234 -3.5476418 -33.063538 -3.5488758 -33.1717
-3.550843 -33.068069 -10.315708 120.69819 -4.1384182 -46.079239
-3.5551202 -33.192245 -4.1384974 -46.099747 -10.347348 120.53389
596162500 -9.845871 143.13469 -3.5491223 -38.440712 -3.5508652 -38.572376
-3.5530429 -38.447807 -10.49345 111.43257 -4.2931924 -53.355766
-3.5575783 -38.592091 -4.2929249 -53.376259 -10.534502 111.20425
679900000 -9.8931894 138.18835 -3.5499842 -43.820618 -3.5532205 -43.972702
-3.5545983 -43.83144 -10.688284 102.27802 -4.4638276 -60.549068
-3.5602245 -43.995724 -4.4635916 -60.569538 -10.739629 101.97639
763637500 -9.942687 133.27477 -3.5495944 -49.188442 -3.5546916 -49.365147
-3.5553842 -49.199497 -10.903932 93.242134 -4.6485209 -67.680206
-3.5629122 -49.382786 -4.6489868 -67.6903 -10.967633 92.854149
847375000 -9.9913015 128.40607 -3.5506189 -54.567516 -3.5548568 -54.758163
-3.5554042 -54.576092 -11.135026 84.319908 -4.8480401 -74.720459
-3.563463 -54.780617 -4.8490014 -74.734253 -11.212147 83.830498
931112500 -10.039767 123.57352 -3.5491552 -59.942528 -3.5550435 -60.152916
-3.5539951 -59.957832 -11.388491 75.501839 -5.0600271 -81.690811
-3.5629771 -60.171837 -5.0602264 -81.695129 -11.47675 74.884834
1014850000 -10.090128 118.76279 -3.5486271 -65.320595 -3.5533526 -65.538834
-3.553349 -65.338837 -11.664136 66.758392 -5.283525 -88.574562
-3.5625033 -65.563873 -5.2856774 -88.584419 -11.763711 65.992218
1098587500 -10.142893 114.00006 -3.5465448 -70.697968 -3.5503836 -70.928261
-3.5522742 -70.71666 -11.960625 58.121624 -5.520257 -95.381035
-3.5597153 -70.958038 -5.5216646 -95.396149 -12.072245 57.207123
1182325000 -10.195354 109.28531 -3.5442772 -76.075478 -3.5483141 -76.324463
-3.5503964 -76.092453 -12.278049 49.575745 -5.7677355 -102.10382
-3.5560005 -76.355194 -5.7673783 -102.12151 -12.404215 48.469849
1266062500 -10.248775 104.60549 -3.5417192 -81.449409 -3.5463881 -81.727692
-3.5471449 -81.473358 -12.620706 41.106514 -6.0233674 -108.75451
-3.5552275 -81.749756 -6.0254798 -108.75867 -12.757523 39.805084
1349800000 -10.301576 99.951561 -3.5387645 -86.824142 -3.5443106 -87.131874
-3.5438697 -86.849861 -12.99646 32.686893 -6.2882619 -115.32116
-3.5524528 -87.150543 -6.2909517 -115.32629 -13.139808 31.17979
1433537500 -10.358214 95.336266 -3.5361931 -92.198402 -3.5420275 -92.530281
-3.5407095 -92.227158 -13.402246 24.284414 -6.5608678 -121.80733
-3.5496395 -92.549828 -6.5646672 -121.81296 -13.550175 22.554224
1517275000 -10.415567 90.784561 -3.5332494 -97.589211 -3.5410407 -97.939484
-3.535934 -97.615135 -13.8408 15.907576 -6.8427796 -128.19778
-3.5459085 -97.963371 -6.8448267 -128.21906 -13.98823 13.955718
1601012500 -10.473184 86.263374 -3.5281255 -102.97944 -3.5381007 -103.35152
-3.5312395 -102.99944 -14.317211 7.5276318 -7.1316404 -134.52136
-3.5431664 -103.37304 -7.1340394 -134.5481 -14.455759 5.3452387
1684750000 -10.53318 81.7687 -3.5229235 -108.3717 -3.5357661 -108.76335
-3.527251 -108.39004 -14.82562 -0.91716027 -7.428844 -140.77145
-3.5412705 -108.78387 -7.4316134 -140.80115 -14.951858 -3.3085406
1768487500 -10.594361 77.3358 -3.5168936 -113.76501 -3.533596 -114.18172
-3.5215058 -113.78085 -15.375022 -9.4535065 -7.7324915 -146.95424
-3.5388036 -114.19862 -7.7336831 -146.97661 -15.486761 -12.0449
1852225000 -10.659323 72.909073 -3.5114758 -119.16286 -3.5319486 -119.59785
-3.5166183 -119.18314 -15.963906 -18.08432 -8.043684 -153.05122
-3.5370166 -119.61642 -8.0443726 -153.07777 -16.053738 -20.934755
1935962500 -10.725739 68.520164 -3.5056193 -124.56428 -3.5303996 -125.01846
-3.5111132 -124.5891 -16.597475 -26.872253 -8.3624153 -159.07994
-3.5357504 -125.03414 -8.3618555 -159.10954 -16.659513 -29.938925
2019700000 -10.79058 64.183289 -3.4990168 -129.97701 -3.5275545 -130.43451
-3.5049462 -129.99461 -17.284399 -35.877693 -8.6862507 -165.04471
-3.5326977 -130.45209 -8.6857061 -165.0842 -17.312656 -39.185425
2103437500 -10.858235 59.878124 -3.4930444 -135.39128 -3.5262647 -135.84906
-3.4977229 -135.40701 -18.030548 -45.218552 -9.0164528 -170.95027
-3.5305994 -135.87228 -9.0149431 -170.98808 -18.003563 -48.728939
2187175000 -10.925548 55.625286 -3.4872553 -140.81133 -3.524111 -141.2717
-3.4923935 -140.82347 -18.826571 -54.932522 -9.3541822 -176.77731
-3.5289898 -141.30002 -9.3526621 -176.81964 -18.726286 -58.597183
2270912500 -10.98844 51.392349 -3.4817026 -146.22783 -3.5211287 -146.69691
-3.4877543 -146.24438 -19.680258 -65.23658 -9.697156 177.45885
-3.5284772 -146.72546 -9.6977282 177.42337 -19.479147 -68.963493
2354650000 -11.052991 47.21278 -3.4753878 -151.64351 -3.5211558 -152.11772
-3.4836075 -151.66759 -20.569048 -76.278961 -10.049212 171.77417
-3.5282257 -152.15131 -10.047846 171.73909 -20.257322 -79.874283
2438387500 -11.112335 43.036808 -3.4708219 -157.06564 -3.5204432 -157.53333
-3.4779499 -157.093 -21.472692 -88.27301 -10.404996 166.15605
-3.5285263 -157.57236 -10.405031 166.1205 -21.036604 -91.536751
2522125000 -11.168413 38.855347 -3.4663541 -162.49118 -3.5208879 -162.95285
-3.4739232 -162.53033 -22.350798 -101.33259 -10.771028 160.60286
-3.529182 -162.99731 -10.771976 160.56958 -21.78643 -103.88644
2605862500 -11.218211 34.712292 -3.4619749 -167.91945 -3.5210719 -168.37881
-3.4691575 -167.96146 -23.142847 -115.5154 -11.143515 155.11449
-3.5289061 -168.4184 -11.144705 155.09096 -22.482124 -116.97963
2689600000 -11.26364 30.535095 -3.4585333 -173.35342 -3.5225062 -173.79207
-3.4641912 -173.39114 -23.791115 -130.54793 -11.521278 149.71686
-3.5285838 -173.8334 -11.523767 149.69366 -23.07769 -130.87277
2773337500 -11.312807 26.316359 -3.4558709 -178.78482 -3.5244544 -179.20296
-3.4613752 -178.82272 -24.273888 -146.34914 -11.909989 144.39243
-3.5295169 -179.24548 -11.910297 144.37865 -23.54406 -145.32242
2857075000 -11.358493 22.08374 -3.4540954 175.78545 -3.5252776 175.38638
-3.4604723 175.74986 -24.555929 -162.41423 -12.307215 139.17471
-3.5304871 175.34367 -12.308936 139.15657 -23.866478 -160.14108
2940812500 -11.405941 17.799328 -3.4506266 170.36111 -3.5238302 169.97986
-3.4565959 170.31537 -24.649084 -178.62227 -12.712849 134.03183
-3.5298281 169.94144 -12.713762 134.01801 -24.03096 -175.17107
3024550000 -11.454543 13.480093 -3.4488335 164.93376 -3.5229692 164.58205
-3.4530241 164.88841 -24.514946 165.40179 -13.125415 129.00468
-3.5282485 164.54147 -13.126162 128.97597 -24.028118 169.96362
3108287500 -11.505666 9.1130314 -3.4468763 159.50491 -3.5218582 159.18138
-3.4496124 159.46329 -24.200529 149.97771 -13.546317 124.07008
-3.5267925 159.14223 -13.546629 124.04102 -23.868689 155.37314
3192025000 -11.561829 4.7004051 -3.444329 154.07938 -3.5209544 153.77802
-3.4468272 154.03925 -23.722441 135.37761 -13.977181 119.2334
-3.52404 153.74112 -13.976338 119.20328 -23.56691 141.37105
3275762500 -11.624279 0.24853082 -3.441925 148.65823 -3.5188205 148.37857
-3.4444532 148.62259 -23.110294 121.95183 -14.414435 114.5462
-3.520884 148.34256 -14.411511 114.49571 -23.150026 128.05856
3359500000 -11.692897 -4.2433305 -3.4393377 143.24223 -3.5157528 142.98705
-3.4422746 143.20845 -22.439859 109.74648 -14.862736 109.98544
-3.518024 142.95085 -14.860552 109.92308 -22.653831 115.59276
3443237500 -11.770776 -8.7998686 -3.4369111 137.83289 -3.5119846 137.59381
-3.441447 137.79628 -21.758562 98.60878 -15.319111 105.55402
-3.5147305 137.55374 -15.315021 105.49111 -22.115396 104.02531
3526975000 -11.849759 -13.386067 -3.4340036 132.42119 -3.5071006 132.19618
-3.4382377 132.38359 -21.090622 88.571869 -15.785024 101.30451
-3.5098989 132.15582 -15.782557 101.2433 -21.561916 93.331459
3610712500 -11.944033 -18.010872 -3.4305439 127.01036 -3.5020304 126.79601
-3.4349589 126.96909 -20.454647 79.268929 -16.25703 97.189476
-3.5054011 126.75629 -16.253042 97.12542 -21.005777 83.387901
3694450000 -12.045472 -22.700821 -3.4289095 121.59698 -3.4999275 121.39815
-3.4328878 121.564 -19.862463 70.678787 -16.733719 93.289345
-3.5020244 121.35837 -16.731964 93.222977 -20.480436 74.156372
3778187500 -12.162554 -27.459949 -3.4260058 116.18945 -3.4962513 115.99585
-3.4305122 116.15527 -19.334679 62.67543 -17.21224 89.552834
-3.4986589 115.95576 -17.211142 89.499054 -19.991051 65.408272
3861925000 -12.290137 -32.270935 -3.4234445 110.78184 -3.4919491 110.59433
-3.4279907 110.74477 -18.859638 55.083385 -17.698326 86.042694
-3.4946473 110.55959 -17.69434 85.983269 -19.539799 57.134529
3945662500 -12.428283 -37.117504 -3.4202614 105.37878 -3.4872715 105.19031
-3.4254942 105.33574 -18.434097 47.875843 -18.183443 82.755219
-3.4902351 105.15891 -18.176474 82.714279 -19.129278 49.241611
4029400000 -12.584324 -42.013165 -3.4167261 99.966217 -3.4822557 99.783951
-3.4205875 99.928368 -18.064793 40.903709 -18.663704 79.739311
-3.4852555 99.75473 -18.658484 79.710503 -18.759819 41.629025
4113137500 -12.752447 -46.99234 -3.4127357 94.550095 -3.4767969 94.374565
-3.4161386 94.519524 -17.73571 34.139786 -19.133017 76.996864
-3.4800959 94.345154 -19.129452 76.973022 -18.423363 34.269032
4196875000 -12.938684 -52.003059 -3.407043 89.135696 -3.4705126 88.95903
-3.4109917 89.104073 -17.459465 27.547113 -19.585312 74.527046
-3.474803 88.929604 -19.585392 74.488548 -18.122427 27.162241
4280612500 -13.144933 -57.0709 -3.4020958 83.720673 -3.4643803 83.542412
-3.4059391 83.687431 -17.216242 21.090109 -20.013807 72.300713
-3.4690642 83.51326 -20.015203 72.270493 -17.8531 20.198019
4364350000 -13.362058 -62.20179 -3.3956995 78.302536 -3.4577284 78.126747
-3.3998351 78.270142 -17.016171 14.745485 -20.426508 70.428391
-3.4621332 78.095322 -20.425364 70.40522 -17.62401 13.394024
4448087500 -13.59594 -67.385201 -3.3888004 72.877548 -3.4507458 72.692863
-3.3936007 72.841782 -16.840128 8.5216856 -20.796179 68.776794
-3.454411 72.663025 -20.789314 68.77742 -17.417501 6.7215257
4531825000 -13.842465 -72.663017 -3.3809667 67.448227 -3.4433696 67.264946
-3.3865342 67.410912 -16.703276 2.374747 -21.121616 67.415443
-3.4456482 67.237686 -21.115189 67.423378 -17.242165 0.155818
4615562500 -14.101758 -77.990364 -3.3738773 62.022491 -3.4355671 61.832718
-3.3792191 61.984501 -16.588835 -3.734041 -21.403467 66.242172
-3.4373188 61.800571 -21.399685 66.239868 -17.087875 -6.3627543
4699300000 -14.381783 -83.390137 -3.3658857 56.585209 -3.4273753 56.392944
-3.3712611 56.548996 -16.503096 -9.7282705 -21.62451 65.264244
-3.4293926 56.362831 -21.623842 65.232567 -16.960052 -12.764666
4783037500 -14.675141 -88.884315 -3.3576114 51.151485 -3.4193654 50.946861
-3.3641112 51.113083 -16.442064 -15.692167 -21.793728 64.343964
-3.4221206 50.923092 -21.786833 64.313087 -16.852688 -19.084333
4866775000 -14.99291 -94.491608 -3.3492839 45.711124 -3.4107447 45.501301
-3.3565648 45.667774 -16.41095 -21.603802 -21.896923 63.492367
-3.4142518 45.47427 -21.885372 63.434711 -16.773188 -25.357256
4950512500 -15.321357 -100.19455 -3.3417583 40.267174 -3.4027901 40.057487
-3.3496261 40.221977 -16.39983 -27.503004 -21.950474 62.602367
-3.4058075 40.028828 -21.935894 62.530334 -16.712048 -31.597261
5034250000 -15.674118 -105.99137 -3.3341768 34.817451 -3.3945405 34.604618
-3.3418205 34.766273 -16.418617 -33.356926 -21.937916 61.669411
-3.3982868 34.56881 -21.92132 61.576145 -16.675531 -37.792503
5117987500 -16.048798 -111.92642 -3.3274336 29.360136 -3.3875141 29.143902
-3.3347933 29.30744 -16.458344 -39.185043 -21.858381 60.520279
-3.3898935 29.108959 -21.8449 60.425976 -16.65576 -43.939995
5201725000 -16.446751 -117.97686 -3.3205674 23.901577 -3.3798892 23.687025
-3.3274434 23.847578 -16.521172 -45.013393 -21.73476 59.189068
-3.382158 23.64419 -21.72632 59.072502 -16.659966 -50.08456
5285462500 -16.867085 -124.15942 -3.3140764 18.438568 -3.3722222 18.216541
-3.3207965 18.390482 -16.604906 -50.844402 -21.571438 57.579689
-3.3756268 18.176804 -21.562551 57.463009 -16.677481 -56.231537
5369200000 -17.317503 -130.53874 -3.3070447 12.963101 -3.3651423 12.73985
-3.3141737 12.916965 -16.712803 -56.639526 -21.358114 55.714031
-3.3687027 12.7025 -21.350952 55.6106 -16.718296 -62.298882
5452937500 -17.783422 -137.11478 -3.301477 7.4879832 -3.3590229 7.2654338
-3.3088777 7.4478221 -16.841211 -62.450443 -21.127537 53.567104
-3.3625047 7.2251315 -21.120226 53.4487 -16.773827 -68.381668
5536675000 -18.274029 -143.93591 -3.2968874 2.0133982 -3.3530095 1.7868088
-3.3037601 1.9676802 -16.985744 -68.295982 -20.873857 51.143402
-3.3562806 1.7429854 -20.87133 51.023186 -16.847282 -74.482025
5620412500 -18.792665 -151.03352 -3.2934682 -3.4642243 -3.3482811 -3.7025774
-3.2987547 -3.5136271 -17.155676 -74.099876 -20.60145 48.395588
-3.3508494 -3.7459238 -20.603081 48.301468 -16.937037 -80.527863
5704150000 -19.341597 -158.38762 -3.289674 -8.9485292 -3.3436053 -9.1997652
-3.2932575 -8.9974995 -17.34557 -79.921478 -20.31674 45.396511
-3.3456652 -9.2343245 -20.319553 45.360226 -17.046751 -86.600868
5787887500 -19.897625 -166.12151 -3.2858117 -14.432201 -3.3405552 -14.694124
-3.2901645 -14.480768 -17.5502 -85.751465 -20.037184 42.10326
-3.3409986 -14.723086 -20.039557 42.080444 -17.169355 -92.669861
5871625000 -20.466015 -174.22026 -3.2827184 -19.912899 -3.3366139 -20.184332
-3.2865245 -19.96393 -17.776888 -91.640518 -19.764524 38.616344
-3.3383746 -20.214758 -19.76473 38.570118 -17.303923 -98.77137
5955362500 -21.040762 177.28566 -3.2802598 -25.392965 -3.3345876 -25.672428
-3.2847993 -25.444788 -18.023142 -97.577675 -19.502079 34.906452
-3.3365641 -25.703575 -19.500727 34.875153 -17.452917 -104.90407
6039100000 -21.618721 168.26654 -3.2791395 -30.878138 -3.3344288 -31.166502
-3.2836504 -30.934681 -18.297743 -103.51906 -19.244236 30.996822
-3.3355467 -31.200153 -19.241665 30.956238 -17.621712 -111.00704
6122837500 -22.172195 158.77792 -3.2777514 -36.361462 -3.3351712 -36.660007
-3.2827673 -36.423973 -18.58684 -109.56508 -18.999403 26.899546
-3.3351686 -36.691769 -18.994816 26.874281 -17.796841 -117.14753
6206575000 -22.718611 148.73325 -3.2767751 -41.848255 -3.3354568 -42.149548
-3.2816875 -41.912136 -18.902458 -115.68304 -18.760168 22.641308
-3.3344202 -42.186012 -18.753101 22.626339 -17.994106 -123.30844
6290312500 -23.224669 138.26546 -3.2763886 -47.335133 -3.3361478 -47.635681
-3.2812362 -47.397396 -19.23918 -121.87279 -18.53087 18.223846
-3.3350508 -47.678684 -18.523216 18.219986 -18.204844 -129.48381
6374050000 -23.65617 127.40153 -3.275363 -52.82309 -3.3378255 -53.119057
-3.2812324 -52.881821 -19.588863 -128.1981 -18.323372 13.710123
-3.3363781 -53.163338 -18.313543 13.710376 -18.422388 -135.73605
6457787500 -24.004833 116.13042 -3.2757876 -58.312073 -3.3387179 -58.60247
-3.2819138 -58.371246 -19.960962 -134.59874 -18.126812 9.0614281
-3.3393741 -58.656013 -18.117393 9.0219984 -18.649864 -141.96814
6541525000 -24.268349 104.63258 -3.2766454 -63.801548 -3.3392596 -64.083954
-3.2828233 -63.85783 -20.349894 -141.11856 -17.943964 4.3303833
-3.3418748 -64.143684 -17.934086 4.2845354 -18.889837 -148.24565
6625262500 -24.450253 92.906525 -3.2778594 -69.285828 -3.3414259 -69.574265
-3.2845769 -69.344002 -20.760054 -147.79024 -17.770781 -0.51176262
-3.3449857 -69.630653 -17.763195 -0.52910602 -19.148155 -154.59697
6709000000 -24.5278 81.201759 -3.2793055 -74.776031 -3.3428912 -75.065315
-3.28613 -74.830894 -21.194578 -154.67548 -17.607601 -5.4158916
-3.3469908 -75.108864 -17.599842 -5.4495864 -19.419764 -160.98763
6792737500 -24.500868 69.654007 -3.2810013 -80.262245 -3.3452263 -80.549332
-3.2875867 -80.318008 -21.641098 -161.72742 -17.461857 -10.381798
-3.349755 -80.590919 -17.454826 -10.405248 -19.707935 -167.45218
6876475000 -24.391706 58.263699 -3.2839222 -85.745026 -3.3473706 -86.025543
-3.291081 -85.797852 -22.109596 -168.88263 -17.330704 -15.424438
-3.3537006 -86.06646 -17.323471 -15.4609 -20.009525 -173.94516
6960212500 -24.191612 47.240795 -3.2870471 -91.230431 -3.3503335 -91.50853
-3.292686 -91.278542 -22.604816 -176.35423 -17.210106 -20.492012
-3.3572178 -91.540939 -17.207689 -20.519032 -20.323277 179.47495
7043950000 -23.918865 36.653244 -3.2897475 -96.713661 -3.3532536 -96.984779
-3.2962213 -96.761124 -23.114269 176.013 -17.100166 -25.634104
-3.3615572 -97.017586 -17.102226 -25.671297 -20.649767 172.82126
7127687500 -23.607777 26.497192 -3.2933829 -102.18993 -3.3573761 -102.46129
-3.3004615 -102.24542 -23.640539 167.95175 -17.004833 -30.802809
-3.3656614 -102.49189 -17.007257 -30.837543 -21.000416 166.01558
7211425000 -23.273008 16.789804 -3.2982821 -107.66965 -3.3623884 -107.93371
-3.3045423 -107.72272 -24.155272 159.51784 -16.921144 -36.003033
-3.369823 -107.96208 -16.923985 -36.024433 -21.35961 159.133
7295162500 -22.908655 7.6184034 -3.3025239 -113.14225 -3.3682864 -113.40456
-3.3087623 -113.19974 -24.687527 150.84344 -16.847725 -41.261177
-3.3740959 -113.42714 -16.851835 -41.273903 -21.749207 152.17172
7378900000 -22.52924 -1.1201408 -3.3080168 -118.62225 -3.3738885 -118.86734
-3.3135381 -118.68156 -25.202623 141.82893 -16.783773 -46.55719
-3.3793566 -118.89371 -16.789257 -46.581665 -22.142994 145.15213
7462637500 -22.167374 -9.578742 -3.3132033 -124.09811 -3.379375 -124.33173
-3.3185828 -124.15717 -25.708687 132.38605 -16.734465 -51.852383
-3.3842826 -124.36232 -16.740204 -51.868092 -22.545902 137.92729
7546375000 -21.80934 -17.601553 -3.3190315 -129.57277 -3.3841617 -129.79251
-3.3242524 -129.62811 -26.183702 122.49002 -16.696173 -57.173573
-3.389024 -129.82515 -16.699627 -57.179325 -22.967182 130.56348
7630112500 -21.46073 -25.314795 -3.3254013 -135.04736 -3.3899319 -135.25438
-3.3286042 -135.10336 -26.62653 112.23429 -16.665359 -62.483677
-3.3938422 -135.29799 -16.670639 -62.475365 -23.410629 122.97475
7713850000 -21.119816 -32.767612 -3.3299179 -140.51353 -3.3940554 -140.71233
-3.3354399 -140.58061 -27.035141 101.70499 -16.646109 -67.884064
-3.3980062 -140.76201 -16.647251 -67.871864 -23.877111 115.35662
7797587500 -20.800789 -40.033257 -3.3353686 -145.98625 -3.3978076 -146.1743
-3.3408329 -146.05165 -27.361086 90.670219 -16.63999 -73.213287
-3.4019222 -146.22212 -16.638956 -73.189903 -24.342108 107.41971
7881325000 -20.493031 -47.077309 -3.3419132 -151.45717 -3.4014673 -151.63495
-3.3466609 -151.52173 -27.605806 79.469208 -16.642242 -78.581139
-3.4065444 -151.68356 -16.643461 -78.551277 -24.819023 99.205193
7965062500 -20.197895 -53.952621 -3.3463256 -156.92004 -3.4047096 -157.09663
