! MARKI MICROWAVE INC.
! Email:             	info@markimicrowave.com   				Phone:   408-778-4200
! Model Number:      	PD-0010							Date:    07/11
! Filename:		PD-0010.S3P						Version: 1.0
! Description:       	3-port S-parameter data for Power Divider PD-0010
! Frequency Measured: 	10 MHz to 10 GHz		
! Port Configuration:	PORT 1: COMMON, PORT 2 and Port 3: Output


! S3P File: Measurements: Mag<S11> Ang<S11> Mag<S12> Ang<S12> Mag<S13> Ang<S13>! row 1 
!			  Mag<S21> Ang<S21> Mag<S22> Ang<S22> Mag<S23> Ang<S23>! row 2 
!			  Mag<S31> Ang<S31> Mag<S32> Ang<S32> Mag<S33> Ang<S33>! row 3 


# GHz S DB R 50



0.01	-27.592		94.8828 	-5.99536	-0.244423	-5.98559	-0.240183	
        -6.02197	-0.243262	-26.8665	93.3422 	-5.97165	-0.70443	
        -6.02213	-0.327397	-6.02012	-0.614229	-26.969	        92.6419
0.06	-37.686		94.3874	        -5.99173	-1.53737	-5.99171	-1.54556
	-6.00243	-1.52449	-36.8552	89.7136	        -5.98686	-4.01141
	-6.00624	-1.56219	-6.00297	-3.97269	-36.7902	89.2028
0.11	-40.3336	91.1228	        -5.98893	-2.80195	-5.99113	-2.82489	
        -5.9986	        -2.80067	-38.3079	83.7209	        -5.98833	-7.30228	
        -6.00252	-2.83276	-6.00136	-7.28365	-38.1742	83.3865
0.16	-42.6457	88.4936	        -5.98668	-4.06948	-5.99117	-4.10181	              
        -5.99545	-4.06722	-39.8885	78.5091  	-5.99056	-10.5977
 	-6.00021	-4.09912	-6.00043	-10.5876	-39.6691	78.3387
0.21	-43.1135	85.1439	        -5.98469	-5.34038	-5.99046	-5.38337	
        -5.99396	-5.34051	-39.5321	73.2249	        -5.991	        -13.8924	
        -5.99908	-5.37761	-6.00086	-13.8897	-39.2713	73.2046
0.26	-43.0396	81.0279 	-5.98302	-6.61714	-5.98931	-6.66696
	-5.99247	-6.61335	-38.8044	69.2683	        -5.99129	-17.1908
	-5.99811	-6.65707	-6.00148	-17.1867	-38.5166	69.3354
0.31	-42.566		77.5625	        -5.98172	-7.89399	-5.98889	-7.94949	
        -5.99141	-7.88885	-38.0147	66.1395	        -5.99185	-20.4906
	-5.99785	-7.94125	-6.00213	-20.4856	-37.7033	66.3463
0.36	-41.9469	75.6547	        -5.98046	-9.17143	-5.98841	-9.23391	
        -5.98984	-9.1633 	-37.2514	63.6031	        -5.99245	-23.7909	
        -5.99707	-9.22179	-6.00264	-23.7828	-36.9299	64.0538
0.41	-41.4073	74.9269  	-5.9793	        -10.4515	-5.98772	-10.5196	
        -5.98834	-10.4463	-36.547	        61.4707	        -5.99306	-27.0924	
        -5.99592	-10.5122	-6.00277	-27.0885	-36.2145	62.0904
0.46	-40.9414	74.475   	-5.9785  	-11.7309	-5.98749	-11.8039	
        -5.98749	-11.7274	-35.8951	59.6265 	-5.99365	-30.3925	
        -5.99577	-11.7994	-6.00363	-30.3917	-35.5425	60.3125
0.51	-40.4896	74.1758	        -5.97777	-13.0087	-5.98721	-13.0859	 
        -5.98681	-13.0068	-35.2877	57.9996	        -5.99426	-33.69	           
        -5.99548	-13.0835	-6.0043	        -33.6911	-34.9149	58.672
0.56	-40.0587	74.1095  	-5.97724	-14.2848	-5.98717	-14.3666	
        -5.98597	-14.2819	-34.73	        56.5146	        -5.99506	-36.9855	
        -5.99513	-14.3628	-6.00473	-36.9861	-34.3513	57.1781
0.61	-39.6562	74.0953	        -5.9768 	-15.5595	-5.98734	-15.6455	
        -5.9855	        -15.56	 	-34.1987	55.1655		-5.99593	-40.28	
	-5.99507	-15.6448	-6.0054		-40.2832	-33.8313	55.8145
0.66	-39.2409	74.1112		-5.97665	-16.8347	-5.98788	-16.9257
	-5.98543	-16.8367	-33.7057	53.9381		-5.99704	-43.5749	
	-5.99533	-16.9249	-6.00651	-43.5796	-33.3484	54.6001
0.71	-38.845		74.5537		-5.97731	-18.1085	-5.98877	-18.2042
	-5.98586	-18.1096	-33.2537	52.8094	        -5.9988	        -46.8678
	-5.99623	-18.2023	-6.00795	-46.8735	-32.8997	53.5115
0.76	-38.5216	75.0687		-5.97728	-19.3839	-5.98957	-19.4852	
	-5.98564	-19.3862	-32.8364	51.7533		-6.00021	-50.1642
	-5.99666	-19.4832	-6.00896	-50.1713	-32.4802	52.5192
0.81	-38.2309	75.1942		-5.97761	-20.6624	-5.99052	-20.7684	
	-5.98573	-20.6653	-32.4288	50.7037		-6.00185	-53.463		
	-5.99728	-20.7662	-6.01021	-53.4695	-32.0701	51.5493
0.86	-37.92		74.9068		-5.97814	-21.938		-5.99154	-22.0488	
	-5.98638	-21.943		-32.0356	49.7483		-6.00352	-56.7605	
	-5.9984		-22.0475	-6.01215	-56.7669	-31.6703	50.6535
0.91	-37.5557	74.6242		-5.97855	-23.2146	-5.99226	-23.3285
	-5.98665	-23.2235	-31.6639	48.7722		-6.00494	-60.0572
	-5.99938	-23.3304	-6.01372	-60.0673	-31.2898	49.734
0.96	-37.1386	74.7584		-5.97923	-24.4899	-5.99326	-24.6086	
	-5.98715	-24.5002	-31.3264	47.7298		-6.00659	-63.355	
	-6.00035	-24.6105	-6.0154		-63.3648	-30.9426	48.7577
1.01	-36.765		75.1762		-5.98		-25.7657	-5.99397	-25.8867
	-5.98796	-25.7783	-31.0177	46.7369		-6.00818	-66.6513
	-6.00154	-25.8927	-6.01742	-66.6656	-30.6237	47.8279
1.06	-36.4363	75.5999		-5.98069	-27.0405	-5.99515	-27.1645
	-5.9888		-27.0526	-30.7272	45.7788		-6.01012	-69.9475
	-6.00241	-27.1708	-6.0193		-69.9634	-30.3248	46.898
1.11	-36.1021	75.8673		-5.98148	-28.3137	-5.99635	-28.4408
	-5.98938	-28.3252	-30.4501	44.8436		-6.01222	-73.2427
	-6.00323	-28.4463	-6.02123	-73.2572	-30.0408	46.0137
1.16	-35.7592	76.2886		-5.98205	-29.5892	-5.99734	-29.7183
	-5.98986	-29.6015	-30.1933	43.8799		-6.01464	-76.5389
	-6.00412	-29.7254	-6.02325	-76.5564	-29.7801	45.1167
1.21	-35.4729	76.8195		-5.98296	-30.8625	-5.99893	-30.9945
	-5.99075	-30.8741	-29.9514	42.9452		-6.01754	-79.8351	
	-6.00539	-31.0017	-6.02567	-79.852		-29.5375	44.2391
1.26	-35.2389	77.2064		-5.98326	-32.135		-5.99979	-32.2703
	-5.99127	-32.147		-29.722		41.9945		-6.02015	-83.1297	
	-6.00641	-32.2778	-6.02789	-83.1469	-29.3066	43.3525
1.31	-35.0137	77.1947		-5.98392	-33.4063	-6.0008		-33.5458	
	-5.99165	-33.4218	-29.5062	41.0174		-6.02296	-86.4253
	-6.0074		-33.5564	-6.03031	-86.4451	-29.0848	42.4446
1.36	-34.7776	77.0308		-5.98484	-34.677		-6.00188	-34.8211	
	-5.99242	-34.693		-29.2967	39.9909		-6.02573	-89.7213	
	-6.00855	-34.8298	-6.03324	-89.7395	-28.871		41.5082
1.41	-34.5368	76.9321		-5.98566	-35.9445	-6.00335	-36.0919	
	-5.99342	-35.9612	-29.0992	38.932		-6.02872	-93.0123
	-6.00968	-36.1016	-6.03654	-93.0306	-28.6675	40.536
1.46	-34.3156	76.8403		-5.98644	-37.2114	-6.00444	-37.361		
	-5.99409	-37.2275	-28.9221	37.8307		-6.03172	-96.3014
	-6.01047	-37.3707	-6.03962	-96.3213	-28.4842	39.5196
1.51	-34.1155	76.6298		-5.98746	-38.4809	-6.00573	-38.6328
	-5.99516	-38.4951	-28.7459	36.6698		-6.03511	-99.5932	
	-6.01175	-38.6414	-6.04319	-99.6113	-28.2996	38.431
1.56	-33.9338	76.2922		-5.98834	-39.7484	-6.00707	-39.9027
	-5.99628	-39.7624	-28.5777	35.4679		-6.03861	-102.882	
	-6.0132		-39.9122	-6.04714	-102.9		-28.1236	37.2969
1.61	-33.7549	75.846		-5.98903	-41.0177	-6.00787	-41.1729
	-5.99698	-41.0317	-28.4201	34.2114		-6.04224	-106.171	
	-6.01407	-41.1842	-6.0507		-106.191	-27.9636	36.0984
1.66	-33.594		75.3403		-5.98936	-42.2868	-6.00836	-42.4444	
	-5.99737	-42.3008	-28.2676	32.8763		-6.0457		-109.461
	-6.01506	-42.4546	-6.05416	-109.48		-27.8115	34.8201
1.71	-33.4506	74.6974		-5.98953	-43.5544	-6.00887	-43.7142	
	-5.99765	-43.569		-28.1169	31.5078		-6.0491		-112.75	
	-6.01564	-43.726		-6.05768	-112.768	-27.6588	33.5119
1.76	-33.2958	73.9277		-5.9899		-44.8219	-6.00986	-44.9841
	-5.99809	-44.8352	-27.9726	30.1215		-6.05296	-116.036
	-6.01658	-44.9946	-6.06158	-116.052	-27.5135	32.1981
1.81	-33.1264	73.191		-5.98984	-46.089		-6.01042	-46.2552
	-5.99827	-46.1021	-27.842		28.6848		-6.0565		-119.32	
	-6.01716	-46.2643	-6.06533	-119.337	-27.3803	30.8475
1.86	-32.9608	72.4883		-5.98999	-47.3534	-6.01105	-47.5236	
	-5.99822	-47.3683	-27.7144	27.2267		-6.06016	-122.601
	-6.01751	-47.5344	-6.069		-122.62		-27.2511	29.462
1.91	-32.8315	71.706		-5.99022	-48.6207	-6.01183	-48.7943	
	-5.99864	-48.635		-27.5956	25.5463		-6.06422	-125.882	
	-6.01802	-48.8045	-6.07314	-125.901	-27.1293	27.851
1.96	-32.7009	70.8119		-5.99051	-49.8875	-6.01211	-50.0636
	-5.99892	-49.9022	-27.4719	23.8448		-6.06816	-129.16			
	-6.01878	-50.0753	-6.07724	-129.182	-27.0023	26.2186
2.01	-32.5802	69.7474		-5.99066	-51.1538	-6.01237	-51.3341
	-5.99852	-51.1706	-27.341		22.139		-6.07176	-132.439	
	-6.01882	-51.3463	-6.08076	-132.462	-26.8704	24.5645
2.06	-32.4761	68.4972		-5.99085	-52.4208	-6.0128		-52.602	
	-5.99858	-52.4357	-27.2004	20.3763		-6.07581	-135.715	
	-6.01933	-52.6136	-6.08463	-135.736	-26.7309	22.8528
2.11	-32.3727	66.9245		-5.99089	-53.6876	-6.01333	-53.8721	
	-5.99879	-53.7026	-27.0391	18.7101		-6.07987	-138.99	
	-6.01993	-53.8812	-6.08857	-139.011	-26.5718	21.2192
2.16	-32.2265	64.9682		-5.99073	-54.9527	-6.01354	-55.1407	
	-5.9987		-54.9663	-26.8715	17.1337		-6.08338	-142.264
	-6.02008	-55.1484	-6.09218	-142.284	-26.4069	19.6788
2.21	-32.0604	62.8789		-5.99042	-56.2199	-6.01372	-56.4086	
	-5.9986		-56.232		-26.7082	15.4308		-6.08687	-145.538
	-6.02019	-56.4167	-6.09582	-145.558	-26.2482	18.0283
2.26	-31.8824	60.862		-5.98993	-57.4868	-6.01379	-57.677	
	-5.99831	-57.4994	-26.5523	13.695		-6.09035	-148.811
	-6.01994	-57.6874	-6.0992		-148.832	-26.0984	16.3223
2.31	-31.6843	58.8621		-5.98947	-58.75		-6.0138		-58.9436
	-5.9978		-58.7637	-26.4035	11.9077		-6.09372	-152.081
	-6.01979	-58.9532	-6.10251	-152.102	-25.9528	14.5799
2.36	-31.509		56.9336		-5.98918	-60.0163	-6.01363	-60.2109
	-5.99736	-60.0303	-26.2589	10.0506		-6.0969		-155.351	
	-6.01989	-60.2203	-6.10596	-155.371	-25.8112	12.7805
2.41	-31.3435	54.9785		-5.98846	-61.2805	-6.01303	-61.4761
	-5.99638	-61.2962	-26.1149	8.17329		-6.0996		-158.616
	-6.01961	-61.489		-6.10841	-158.637	-25.67		10.9695
2.46	-31.1778	52.9409		-5.98784	-62.5455	-6.01241	-62.7446
	-5.99577	-62.5612	-25.9767	6.25894		-6.10242	-161.883
	-6.01944	-62.754		-6.11136	-161.902	-25.5359	9.11553
2.51	-31.0085	50.7588		-5.98697	-63.811		-6.0116		-64.0124
	-5.99523	-63.8275	-25.8356	4.27513		-6.10447	-165.147
	-6.01938	-64.0226	-6.11391	-165.168	-25.3998	7.20265
2.56	-30.8213	48.5314		-5.98585	-65.0761	-6.01074	-65.2787
	-5.99413	-65.0933	-25.6986	2.27137		-6.10635	-168.411
	-6.01865	-65.2901	-6.11564	-168.433	-25.2677	5.25958
2.61	-30.61		46.3632		-5.98443	-66.3398	-6.00993	-66.5449
	-5.99294	-66.3596	-25.5621	0.245232	-6.10825	-171.674	
	-6.01745	-66.5568	-6.11743	-171.698	-25.1373	3.30946
2.66	-30.3944	44.2638		-5.98293	-67.6052	-6.00909	-67.8123	
	-5.99155	-67.6262	-25.4276	-1.82665	-6.10983	-174.939	
	-6.01635	-67.8259	-6.11933	-174.964	-25.01		1.28537
2.71	-30.1694	42.2988		-5.98123	-68.8705	-6.00791	-69.0776
	-5.99013	-68.8909	-25.2898	-3.91376	-6.11123	-178.201	
	-6.01506	-69.0925	-6.12058	-178.227	-24.8784	-0.764466
2.76	-29.9593	40.4288		-5.97979	-70.1368	-6.00681	-70.3462
	-5.98879	-70.1571	-25.1508	-6.03033	-6.11258	178.535		
	-6.0138		-70.3603	-6.1221		178.51		-24.7458	-2.82904
2.81	-29.7603	38.5301		-5.97794	-71.4034	-6.00514	-71.6148
	-5.9869		-71.4232	-25.0116	-8.1301		-6.11319	175.273		
	-6.01223	-71.629		-6.1229		175.247		-24.6142	-4.87161
2.86	-29.552		36.5788		-5.97569	-72.6734	-6.00319	-72.8868	
	-5.98489	-72.6908	-24.8672	-10.2314	-6.11337	172.007	
	-6.01054	-72.8977	-6.12322	171.984		-24.4803	-6.9261
2.91	-29.3402	34.6443		-5.97377	-73.943		-6.00152	-74.1583	
	-5.98296	-73.9595	-24.7282	-12.3824	-6.1137		168.743
	-6.00911	-74.1678	-6.12359	168.721		-24.3504	-9.02191
2.96	-29.1166	32.767		-5.97156	-75.2133	-5.99943	-75.4291	
	-5.98056	-75.2262	-24.5841	-14.5469	-6.11352	165.478	
	-6.00708	-75.4368	-6.12359	165.458		-24.215		-11.1207
3.01	-28.8846	31.0303		-5.96918	-76.4837	-5.99745	-76.7016	
	-5.97835	-76.4945	-24.4419	-16.6856	-6.11341	162.21
	-6.00529	-76.7069	-6.12349	162.193		-24.0842	-13.2038
3.06	-28.664		29.3556		-5.96663	-77.7551	-5.99543	-77.9738
	-5.97598	-77.7652	-24.3034	-18.8468	-6.1128		158.944
	-6.00311	-77.9787	-6.12298	158.927		-23.9574	-15.3107
3.11	-28.442		27.7817		-5.96421	-79.0248	-5.99313	-79.2459
	-5.97352	-79.0347	-24.1615	-21.014		-6.11219	155.677		
	-6.00087	-79.2516	-6.12215	155.661		-23.8252	-17.438
3.16	-28.2235	26.2489		-5.96171	-80.2982	-5.99068	-80.5211
	-5.9712		-80.3062	-24.0129	-23.1265	-6.11141	152.407	
	-5.99889	-80.5246	-6.12142	152.392		-23.6878	-19.5177
3.21	-28.0122	24.7555		-5.95916	-81.5723	-5.98845	-81.7977
	-5.9689		-81.5821	-23.8716	-25.2501	-6.11052	149.136
	-5.99671	-81.8021	-6.12056	149.121		-23.5587	-21.6071
3.26	-27.7949	23.2921		-5.95685	-82.8474	-5.98632	-83.0727
	-5.96656	-82.8542	-23.726		-27.3475	-6.10971	145.866	
	-5.99475	-83.0758	-6.11965	145.852		-23.4241	-23.7005
3.31	-27.5788	21.8828		-5.95434	-84.1226	-5.98404	-84.3505		
	-5.96425	-84.1285	-23.5782	-29.4415	-6.10849	142.592
	-5.9926		-84.3515	-6.11862	142.581		-23.2881	-25.7834
3.36	-27.3604	20.4995		-5.9517		-85.3978	-5.98175	-85.6277
	-5.96168	-85.4037	-23.4322	-31.51		-6.10716	139.319		
	-5.99026	-85.6284	-6.11753	139.308		-23.153		-27.8456
3.41	-27.1365	19.2736		-5.94904	-86.675		-5.97967	-86.9066	
	-5.95912	-86.6793	-23.2897	-33.5599	-6.10591	136.044
	-5.9879		-86.9056	-6.1161		136.034		-23.0208	-29.8873
3.46	-26.9181	18.0982		-5.94654	-87.9532	-5.97709	-88.1867
	-5.95659	-87.9573	-23.1452	-35.5955	-6.10433	132.769
	-5.98536	-88.1852	-6.11472	132.757		-22.8877	-31.912
3.51	-26.7043	17.0349		-5.94405	-89.2323	-5.97478	-89.4678
	-5.95382	-89.2369	-23		-37.6156	-6.10281	129.492
	-5.9826		-89.4677	-6.11289	129.477		-22.7531	-33.935
3.56	-26.5061	16.063		-5.94159	-90.5116	-5.97241	-90.7495
	-5.9513		-90.515		-22.8558	-39.5817	-6.10133	126.214
	-5.98017	-90.747		-6.11143	126.2		-22.6179	-35.8972
3.61	-26.3103	15.0835		-5.93927	-91.7932	-5.97014	-92.0317	
	-5.9493		-91.7971	-22.7153	-41.5163	-6.09999	122.934
	-5.97821	-92.0312	-6.1104		122.918		-22.4854	-37.8205
3.66	-26.1119	14.1863		-5.93689	-93.0729	-5.96783	-93.3131
	-5.94678	-93.0786	-22.5761	-43.4463	-6.09842	119.653	
	-5.97598	-93.3153	-6.10863	119.637		-22.3562	-39.7462
3.71	-25.9158	13.3329		-5.93453	-94.3498	-5.96573	-94.5915	
	-5.94434	-94.354		-22.433		-45.3379	-6.0969		116.373	
	-5.97391	-94.592		-6.107		116.361		-22.2209	-41.6438
3.76	-25.7199	12.5113		-5.93232	-95.6337	-5.96358	-95.8753
	-5.94185	-95.6418	-22.2944	-47.1824	-6.09531	113.088	
	-5.97169	-95.8808	-6.10545	113.072		-22.0886	-43.4942
3.81	-25.5218	11.8083		-5.93009	-96.9173	-5.96148	-97.1591
	-5.9394		-96.9258	-22.1591	-49.0048	-6.09399	109.8	
	-5.96954	-97.1646	-6.10392	109.786		-21.9601	-45.3307
3.86	-25.3221	11.1558		-5.92776	-98.1993	-5.95937	-98.4427	
	-5.93662	-98.2063	-22.0211	-50.7707	-6.09245	106.516		
	-5.96726	-98.4448	-6.10219	106.502		-21.8299	-47.1164
3.91	-25.1361	10.5797		-5.92524	-99.4833	-5.95705	-99.7284
	-5.9341		-99.4941	-21.8878	-52.5198	-6.09085	103.227	
	-5.96504	-99.7328	-6.10083	103.212		-21.7029	-48.891
3.96	-24.9597	10.0887		-5.9228		-100.768	-5.95485	-101.015	
	-5.93143	-100.779	-21.7594	-54.221		-6.08941	99.9408		
	-5.96281	-101.019	-6.09912	99.9231		-21.5802	-50.6062
4.01	-24.7883	9.61765		-5.92009	-102.051	-5.95272	-102.3	
	-5.92907	-102.061	-21.6352	-55.8926	-6.08781	96.6536
	-5.96096	-102.304	-6.0978		96.6365		-21.4624	-52.2865
4.06	-24.6291	9.20176		-5.91815	-103.335	-5.95092	-103.587	
	-5.92739	-103.347	-21.5152	-57.5552	-6.0871		93.3654
	-5.95945	-103.591	-6.09728	93.3464 	-21.3475	-53.9576
4.11	-24.4722	8.76877		-5.91626	-104.621	-5.94945	-104.875
	-5.92577	-104.635	-21.3942	-59.2035	-6.08621	90.0734	
	-5.95817	-104.882	-6.09686	90.0549		-21.2316	-55.616
4.16	-24.3153	8.3244		-5.91453	-105.908	-5.94804	-106.164	
	-5.92442	-105.922	-21.2772	-60.8034	-6.086		86.7817	
	-5.95678	-106.171	-6.09659	86.7625		-21.1179	-57.2252
4.21	-24.1562	7.99603		-5.91337	-107.197	-5.94695	-107.454
	-5.92348	-107.215	-21.1659	-62.3962	-6.08614	83.4862	
	-5.95601	-107.465	-6.09673	83.4669		-21.011		-58.8193
4.26	-24.0049	7.69133		-5.91185	-108.486	-5.9457		-108.742
	-5.92191	-108.503	-21.054		-63.9706	-6.08598	80.1919	
	-5.95456	-108.755	-6.09642	80.1744		-20.9033	-60.3948
4.31	-23.8633	7.41962		-5.91055	-109.78		-5.94443	-110.036
	-5.9208		-109.798	-20.9499	-65.5064	-6.08605	76.8943	
	-5.95352	-110.05		-6.09666	76.8744		-20.8021	-61.9344
4.36	-23.7298	7.20694		-5.90911	-111.071	-5.94317	-111.328
	-5.91927	-111.087	-20.8525	-67.0187	-6.08597	73.5984	
	-5.95251	-111.341	-6.09695	73.5801		-20.7063	-63.4551
4.41	-23.6057	7.01686		-5.90775	-112.361	-5.94213	-112.62
	-5.91829	-112.377	-20.7613	-68.5423	-6.0862		70.3031
	-5.95162	-112.633	-6.09756	70.2842		-20.6173	-64.9708
4.46	-23.4845	6.83262		-5.90664	-113.651	-5.94123	-113.913
	-5.91703	-113.669	-20.6712	-70.0509	-6.08663	67.0079	
	-5.9509		-113.926	-6.0982		66.9878		-20.5296	-66.4768
4.51	-23.3685	6.67561		-5.90589	-114.944	-5.94086	-115.207
	-5.91605	-114.957	-20.5852	-71.546		-6.08746	63.7102
	-5.95032	-115.218	-6.09892	63.6919		-20.4458	-67.9754
4.56	-23.2594	6.55047		-5.90519	-116.235	-5.94059	-116.498
	-5.91532	-116.247	-20.5024	-73.0398	-6.08845	60.4149
	-5.94991	-116.51		-6.09984	60.3966		-20.3653	-69.457
4.61	-23.1478	6.45122		-5.90473	-117.529	-5.94057	-117.793
	-5.9149		-117.539	-20.425		-74.492		-6.0896		57.117	
	-5.94938	-117.805	-6.1006		57.0996		-20.2881	-70.9004
4.66	-23.0446	6.38109		-5.90425	-118.82		-5.94066	-119.086	
	-5.91438	-118.827	-20.3523	-75.9225	-6.09094	53.8213
	-5.94914	-119.096	-6.10172	53.8062		-20.2175	-72.3255
4.71	-22.9517	6.33108		-5.90395	-120.11		-5.94057	-120.377
	-5.91381	-120.119	-20.2863	-77.3609	-6.09267	50.5258
	-5.94898	-120.388	-6.10316	50.5106		-20.1529	-73.7566
4.76	-22.8588	6.27572		-5.90349	-121.401	-5.94056	-121.671
	-5.91304	-121.409	-20.2248	-78.781		-6.09428	47.2302	
	-5.94857	-121.678	-6.10451	47.2177		-20.0919	-75.1727
4.81	-22.7709	6.25682		-5.90326	-122.69		-5.94064	-122.963
	-5.91231	-122.7		-20.1725	-80.2025	-6.09619	43.9355	
	-5.94842	-122.971	-6.10611	43.9228		-20.0399	-76.5765
4.86	-22.6911	6.23405		5.90288		-123.979	-5.94067	-124.252
	-5.91138	-123.989	-20.1238	-81.6465	-6.09819	40.6439	
	-5.94836	-124.261	-6.10773	40.6312		-19.9918	-78.0053
4.91	-22.6125	6.17663		-5.90297	-125.269	-5.94104	-125.544
	-5.91125	-125.279	-20.0741	-83.0651	-6.10017	37.3514	
	-5.94845	-125.553	-6.10976	37.3388		-19.942		-79.42
4.96	-22.5357	6.15218		-5.90298	-126.558	-5.94145	-126.834
	-5.9117		-126.568	-20.0359	-84.485		-6.10219	34.0611
	-5.94905	-126.844	-6.11181	34.0466		-19.9022	-80.8209
5.01	-22.4549	6.18417		-5.90316	-127.845	-5.94203	-128.123
	-5.91197	-127.854	-20.0001	-85.9032	-6.10434	30.7725
	-5.94954	-128.133	-6.11397	30.7565		-19.8663	-82.2185
5.06	-22.3808	6.21996		-5.90327	-129.134	-5.94284	-129.413	
	-5.9127		-129.144	-19.969		-87.3228	-6.10665	27.4827	
	-5.95054	-129.422	-6.11638	27.4661		-19.8335	-83.6194
5.11	-22.3149	6.29304		-5.90342	-130.42		-5.94342	-130.702
	-5.91281	-130.431	-19.9444	-88.7403	-6.10875	24.1948	
	-5.95091	-130.71		-6.11836	24.1764		-19.8085	-85.0122
5.16	-22.2524	6.38878		-5.90335	-131.709	-5.94389	-131.992
	-5.91273	-131.72		-19.9258	-90.168		-6.11102	20.9062	
	-5.95138	-131.999	-6.12034	20.8867		-19.7881	-86.4131
5.21	-22.1954	6.47343		-5.90338	-132.997	-5.94435	-133.282
	-5.91292	-133.008	-19.9117	-91.5842	-6.11326	17.6189
	-5.95206	-133.289	-6.12254	17.5992		-19.7712	-87.7994
5.26	-22.145		6.56093		-5.90362	-134.285	-5.9446		-134.57	
	-5.91288	-134.295	-19.9018	-93.022		-6.11541	14.3313	
	-5.95228	-134.578	-6.12459	14.3121		-19.7601	-89.2068
5.31	-22.0981	6.64297		-5.90403	-135.573	-5.94511	-135.858	
	-5.91324	-135.584	-19.8952	-94.4486	-6.11766	11.0449
	-5.95284	-135.868	-6.12685	11.0257		-19.7515	-90.6005
5.36	-22.0486	6.72595		-5.90451	-136.86		-5.94583	-137.146	
	-5.91342	-136.872	-19.8952	-95.8722	-6.11999	7.76074
	-5.95355	-137.157	-6.12922	7.73861		-19.7485	-91.9943
5.41	-21.9988	6.85325		-5.90489	-138.145	-5.94649	-138.431
	-5.9135		-138.158	-19.8993	-97.3125	-6.1222		4.47581	
	-5.95419	-138.444	-6.13152	4.45287		-19.7497	-93.3923
5.46	-21.9554	7.00322		-5.90526	-139.428	-5.94716	-139.714
	-5.91385	-139.441	-19.9099	-98.7593	-6.12443	1.19515	
	-5.95491	-139.726	-6.13384	1.17365		-19.7573	-94.7881
5.51	-21.9277	7.18063		-5.90568	-140.713	-5.94822	-140.999
	-5.91425	-140.728	-19.9299	-100.223	-6.12693	-2.08758
	-5.95575	-141.011	-6.13636	-2.11044	-19.7741	-96.2094
5.56	-21.904		7.31186		-5.9062		-141.997	-5.94883	-142.284
	-5.91474	-142.01		-19.9524	-101.696	-6.12925	-5.36953
	-5.95662	-142.293	-6.1388		-5.38954	-19.7942	-97.6356
5.61	-21.8841	7.42296		-5.90629	-143.279	-5.94949	-143.565
	-5.91496	-143.292	-19.9783	-103.183	-6.1313		-8.64939
