! MARKI MICROWAVE INC.
! Email:             	info@markimicrowave.com   				Phone:   408-778-4200
! Model Number:      	PD-0020							Date:    07/11
! Filename:		PD-0020.S3P						Version: 1.0
! Description:       	3-port S-parameter data for Power Divider PD-0020
! Frequency Range: 	10 MHz to 20 GHz		
! Port Configuration:	PORT 1: COMMON, PORT 2 and Port 3: Output


! S3P File: Measurements: Mag<S11> Ang<S11> Mag<S12> Ang<S12> Mag<S13> Ang<S13>! row 1 
!			  Mag<S21> Ang<S21> Mag<S22> Ang<S22> Mag<S23> Ang<S23>! row 2 
!			  Mag<S31> Ang<S31> Mag<S32> Ang<S32> Mag<S33> Ang<S33>! row 3 


# GHz S DB R 50


0.01	-27.31		93.2141		-5.95448	-0.06434	-5.95302	-0.124677
	-5.97296	-0.402844	-26.3446	89.0815		-5.98358	-0.589237
	-5.96825	-0.21133	-5.99142	-0.788394	-26.4264	91.7374
0.11	-38.5367	78.7982		-5.97755	-2.40022	-5.97523	-2.40371
	-5.97811	-2.42696	-37.4598	69.9985		-6.01067	-5.94103
	-5.97357	-2.41937	-6.00685	-5.97656	-37.5555	71.9677
0.21	-39.966		72.3173		-5.98408	-4.58409	-5.98304	-4.58274
	-5.98273	-4.57443	-38.4901	59.9686		-6.02186	-11.2467
	-5.9797		-4.57694	-6.01857	-11.2472	-38.6155	61.3518
0.31	-38.8577	68.8026		-5.98932	-6.74376	-5.9882		-6.72397
	-5.98964	-6.73175	-37.0317	56.2797		-6.02798	-16.5458
	-5.98599	-6.72252	-6.02641	-16.5446	-37.2335	57.7273
0.41	-37.5374	67.7574		-5.99489	-8.88955	-5.99154	-8.86045
	-5.99575	-8.87399	-35.6619	54.0872		-6.03359	-21.8476
	-5.98957	-8.85607	-6.03282	-21.8418	-35.9003	56.4319
0.51	-36.435		70.2918		-5.99971	-11.0191	-5.99417	-10.9959
	-6.00058	-11.0025	-34.5812	52.7658		-6.04091	-27.1362
	-5.99284	-10.9902	-6.04008	-27.1296	-34.7268	55.8373
0.61	-35.6988	73.1187		-6.00487	-13.1413	-5.99862	-13.1324
	-6.00619	-13.1241	-33.7118	52.2659		-6.04851	-32.4113
	-5.99813	-13.1253	-6.04856	-32.4047	-33.7637	55.5485
0.71	-35.018		74.7393		-6.01052	-15.2624	-6.00459	-15.2674
	-6.0117		-15.2456	-32.9453	52.1678		-6.0557		-37.6821
	-6.00394	-15.2592	-6.05562	-37.6747	-32.9371	55.5693
0.81	-34.3594	76.245		-6.01651	-17.3842	-6.0116		-17.3996
	-6.0171		-17.37		-32.2682	52.0007		-6.06337	-42.9509
	-6.01043	-17.3922	-6.06271	-42.9437	-32.1916	55.5918
0.91	-33.7409	77.6647		-6.02265	-19.5047	-6.01971	-19.5275
	-6.02348	-19.4932	-31.6699	51.9005		-6.07081	-48.2147
	-6.0184		-19.5206	-6.06993	-48.2094	-31.5408	55.6094
1.01	-33.1223	79.2148		-6.0296		-21.6241	-6.02824	-21.6483
	-6.03014	-21.6091	-31.1496	51.692		-6.07804	-53.4727
	-6.02692	-21.6379	-6.0773		-53.4662	-30.9747	55.5674
1.11	-32.6061	81.4697		-6.03666	-23.7321	-6.03681	-23.7561
	-6.03623	-23.7151	-30.6978	51.5627		-6.08573	-58.7328
	-6.03519	-23.7437	-6.08443	-58.7241	-30.47		55.5887
1.21	-32.2374	83.72		-6.0438		-25.8326	-6.04575	-25.856	
	-6.04361	-25.8167	-30.3079	51.3551		-6.094		-63.9947
	-6.04412	-25.8431	-6.09269	-63.9862	-30.0315	55.5183
1.31	-31.9737	85.459		-6.05046	-27.9275	-6.05462	-27.9472
	-6.05135	-27.9113	-29.9534	50.9864		-6.10276	-69.2485
	-6.05345	-27.9352	-6.10224	-69.2411	-29.6317	55.2641
1.41	-31.7608	86.7696		-6.05769	-30.0162	-6.0633		-30.0304
	-6.05878	-29.998		-29.6296	50.3076		-6.11182	-74.4952
	-6.0621		-30.0188	-6.11159	-74.4861	-29.2633	54.7297
1.51	-31.5876	87.8485		-6.06427	-32.097		-6.07123	-32.1076
	-6.06575	-32.0787	-29.3432	49.3872		-6.12059	-79.7367
	-6.07017	-32.0959	-6.12055	-79.7254	-28.9291	53.9783
1.61	-31.4726	88.5993		-6.07071	-34.174		-6.07857	-34.1823
	-6.07186	-34.1569	-29.0968	48.1262		-6.12933	-84.9741
	-6.07748	-34.1705	-6.12897	-84.9658	-28.6332	52.8854
1.71	-31.384		89.0336		-6.07587	-36.2484	-6.08479	-36.2527
	-6.07682	-36.2322	-28.8829	46.5349		-6.13818	-90.209	
	-6.08346	-36.2411	-6.13788	-90.2035	-28.3745	51.4916
1.81	-31.2854	89.2765		-6.08035	-38.3157	-6.09057	-38.3134
	-6.08149	-38.2974	-28.7143	44.6813		-6.14732	-95.4412
	-6.08982	-38.3028	-6.14765	-95.4347	-28.1537	49.8886
1.91	-31.2208	89.6121		-6.08457	-40.3806	-6.09616	-40.3726
	-6.08546	-40.3607	-28.5847	42.4493		-6.1564		-100.666
	-6.0952		-40.3605	-6.15678	-100.657	-27.974		47.9294
2.01	-31.2463	89.3356		-6.08708	-42.4449	-6.1003		-42.4333
	-6.08823	-42.428		-28.44		39.7698		-6.16535	-105.885
	-6.09922	-42.4222	-6.16551	-105.879	-27.793		45.5159
2.11	-31.2783	87.9535		-6.08919	-44.5089	-6.10394	-44.4909
	-6.09062	-44.4922	-28.2385	36.9211		-6.17427	-111.103
	-6.10291	-44.4804	-6.17475	-111.096	-27.5686	42.8977
2.21	-31.2687	85.7265		-6.09062	-46.5776	-6.10659	-46.5508
	-6.09204	-46.5573	-27.9934	34.0986		-6.1828		-116.317
	-6.10587	-46.5387	-6.18359	-116.308	-27.3106	40.3171
2.31	-31.3026	83.016		-6.09148	-48.6433	-6.10899	-48.608	
	-6.09252	-48.6205	-27.7728	30.9466		-6.1907		-121.523
	-6.10791	-48.5944	-6.19103	-121.514	-27.0835	37.4486
2.41	-31.3613	79.7358		-6.0908		-50.704		-6.11003	-50.66	
	-6.09153	-50.6822	-27.5699	27.559		-6.19779	-126.724
	-6.10824	-50.6451	-6.19716	-126.717	-26.8767	34.3541
2.51	-31.4206	75.747		-6.08863	-52.7669	-6.10909	-52.7158
	-6.08946	-52.7445	-27.3681	23.967		-6.20428	-131.923
	-6.10785	-52.6982	-6.20383	-131.915	-26.6845	31.0407
2.61	-31.4167	71.1077		-6.08543	-54.8352	-6.1071		-54.7753
	-6.08667	-54.8095	-27.1689	20.1402		-6.20995	-137.12	
	-6.10647	-54.7552	-6.21032	-137.108	-26.5044	27.5331
2.71	-31.3426	66.1061		-6.082		-56.9085	-6.10488	-56.8365
	-6.08277	-56.8854	-26.9592	16.2123		-6.21495	-142.316
	-6.10394	-56.8182	-6.21493	-142.302	-26.3201	23.9185
2.81	-31.2238	60.9505		-6.07744	-58.9842	-6.10165	-58.9027
	-6.078		-58.9666	-26.7409	12.1531		-6.21872	-147.51	
	-6.10034	-58.8867	-6.21802	-147.499	-26.136		20.179
2.91	-31.0219	55.5676		-6.07223	-61.0644	-6.09786	-60.9721
	-6.07252	-61.0461	-26.5143	8.01181		-6.22172	-152.705
	-6.09647	-60.9559	-6.22095	-152.692	-25.9476	16.349
3.01	-30.7286	50.0925		-6.06663	-63.1518	-6.09367	-63.046	
	-6.06713	-63.1269	-26.2802	3.8105		-6.22371	-157.897
	-6.0925		-63.0251	-6.22327	-157.88		-25.758		12.4327
3.11	-30.3578	44.7736		-6.06055	-65.2485	-6.08918	-65.1259
	-6.06087	-65.2181	-26.0324	-0.397573	-6.22517	-163.091
	-6.08696	-65.1044	-6.22432	-163.07		-25.5598	8.48194
3.21	-29.9307	39.792		-6.05405	-67.3526	-6.08385	-67.2173
	-6.05419	-67.3267	-25.7743	-4.57635	-6.22615	-168.289
	-6.08156	-67.1978	-6.22559	-168.271	-25.3589	4.54498
3.31	-29.4335	35.2029		-6.04725	-69.4631	-6.07768	-69.3153
	-6.04809	-69.4385	-25.5002	-8.63831	-6.22663	-173.489
	-6.07617	-69.2973	-6.22653	-173.472	-25.1443	0.662374
3.41	-28.9104	31.1662		-6.0405		-71.5802	-6.0724		-71.4165
	-6.04179	-71.5536	-25.2292	-12.614		-6.22664	-178.692
	-6.07061	-71.3983	-6.22646	-178.676	-24.9331	-3.15077
3.51	-28.3747	27.6528		-6.03455	-73.7023	-6.06704	-73.5244
	-6.03568	-73.6757	-24.9532	-16.4276	-6.22626	176.105	
	-6.06572	-73.5041	-6.22597	176.119		-24.7113	-6.83648
3.61	-27.8557	24.5523		-6.0287		-75.833		-6.06183	-75.6425
	-6.02991	-75.8055	-24.6714	-20.0837	-6.22547	170.897	
	-6.06073	-75.618		-6.22514	170.913		-24.4826	-10.4029
3.71	-27.3193	21.909		-6.02326	-77.9693	-6.05723	-77.7643
	-6.02405	-77.9396	-24.3878	-23.5432	-6.22426	165.689	
	-6.05558	-77.7373	-6.22378	165.708		-24.2519	-13.7904
3.81	-26.7964	19.7889		-6.01837	-80.1072	-6.05279	-79.8858
	-6.01865	-80.079		-24.1116	-26.8028	-6.22285	160.479	
	-6.05084	-79.861		-6.22208	160.498		-24.0251	-16.9927
3.91	-26.3073	18.1127		-6.01459	-82.2538	-6.04954	-82.0156
	-6.01466	-82.2306	-23.8426	-29.8596	-6.22135	155.267	
	-6.04748	-81.9958	-6.22047	155.28		-23.8016	-20.0139
4.01	-25.8493	16.7112		-6.01161	-84.4043	-6.0475		-84.1484
	-6.01221	-84.3785	-23.5818	-32.7307	-6.21934	150.056	
	-6.04546	-84.1277	-6.21847	150.07		-23.5813	-22.8809
4.11	-25.4335	15.6281		-6.00901	-86.5587	-6.04559	-86.2842
	-6.00961	-86.5334	-23.3347	-35.46		-6.21731	144.837	
	-6.04353	-86.2683	-6.21676	144.849		-23.3724	-25.6097
4.21	-25.0464	14.7036		-6.0076		-88.7171	-6.04437	-88.4258
	-6.00775	-88.6943	-23.1023	-38.0108	-6.21552	139.616	
	-6.04236	-88.4118	-6.21507	139.628		-23.1746	-28.1621
4.31	-24.6832	14.0375		-6.00751	-90.878		-6.04478	-90.5692
	-6.00726	-90.8558	-22.8846	-40.4676	-6.21401	134.393	
	-6.04224	-90.5553	-6.21294	134.403		-22.9927	-30.6136
4.41	-24.371		13.6003		-6.00905	-93.0437	-6.04658	-92.7176
	-6.00843	-93.0193	-22.686		-42.825		-6.21263	129.169	
	-6.04339	-92.7006	-6.21099	129.179		-22.8234	-32.9604
4.51	-24.0868	13.2667		-6.01173	-95.2119	-6.04969	-94.8689
	-6.01151	-95.1882	-22.502		-45.0994	-6.21128	123.94	
	-6.04665	-94.8521	-6.20934	123.952		-22.6643	-35.2315
4.61	-23.8252	13.0632		-6.01579	-97.3807	-6.05394	-97.019	
	-6.01529	-97.3576	-22.3343	-47.3461	-6.21		118.706	
	-6.05066	-97.0024	-6.20781	118.717		-22.5186	-37.4529
4.71	-23.5954	13.0612		-6.02078	-99.5438	-6.05871	-99.1629
	-6.0204		-99.5216	-22.1851	-49.5592	-6.20822	113.473	
	-6.05603	-99.1483	-6.20649	113.48		-22.3905	-39.652
4.81	-23.3906	13.1738		-6.02661	-101.706	-6.0643		-101.306
	-6.02676	-101.684	-22.0524	-51.6834	-6.20614	108.239	
	-6.06269	-101.289	-6.20553	108.25		-22.2819	-41.7675
4.91	-23.2064	13.3964		-6.03347	-103.864	-6.07087	-103.443
	-6.03352	-103.838	-21.9351	-53.8586	-6.20403	103.006	
	-6.06936	-103.426	-6.20372	103.02		-22.1876	-43.9239
5.01	-23.0363	13.7525		-6.04121	-106.02		-6.07847	-105.578
	-6.04155	-105.991	-21.8308	-56.0419	-6.20193	97.7685	
	-6.07704	-105.562	-6.20158	97.7843		-22.1039	-46.0769
5.11	-22.8846	14.1677		-6.05003	-108.172	-6.08703	-107.711
	-6.05073	-108.143	-21.7338	-58.2379	-6.19982	92.5268	
	-6.08598	-107.692	-6.19977	92.5414		-22.0272	-48.2629
5.21	-22.7425	14.658		-6.05936	-110.316	-6.09602	-109.838
	-6.06034	-110.288	-21.6499	-60.5078	-6.19765	87.2779	
	-6.09478	-109.819	-6.19755	87.2928		-21.9677	-50.5396
5.31	-22.6102	15.2344		-6.07014	-112.454	-6.10645	-111.957
	-6.07115	-112.427	-21.5722	-62.8366	-6.19601	82.0288	
	-6.1046		-111.941	-6.19527	82.0421		-21.9182	-52.8996
5.41	-22.4874	15.8719		-6.08153	-114.589	-6.11726	-114.069
	-6.0827		-114.559	-21.5		-65.2324	-6.19408	76.7767	
	-6.11543	-114.05		-6.19383	76.7915		-21.8754	-55.334
5.51	-22.3756	16.5537		-6.09305	-116.711	-6.12794	-116.172
	-6.09444	-116.683	-21.4367	-67.7263	-6.19254	71.5236	
	-6.12627	-116.152	-6.19314	71.5363		-21.8443	-57.8786
5.61	-22.2665	17.2273		-6.10517	-118.822	-6.13879	-118.264
	-6.1059		-118.794	-21.3691	-70.3365	-6.19167	66.27	
	-6.13728	-118.243	-6.19242	66.2833		-21.8137	-60.5721
5.71	-22.1676	17.8952		-6.11795	-120.927	-6.15025	-120.348
	-6.11812	-120.899	-21.3022	-73.0454	-6.19134	61.0155	
	-6.14818	-120.328	-6.19091	61.0291		-21.7875	-63.4068
5.81	-22.0736	18.5111		-6.13047	-123.028	-6.16146	-122.427
	-6.13054	-122.999	-21.2258	-75.8781	-6.19168	55.7544	
	-6.1594		-122.409	-6.19076	55.7684		-21.7552	-66.4072
5.91	-21.9891	19.0581		-6.14271	-125.124	-6.17245	-124.504
	-6.14322	-125.096	-21.1427	-78.8622	-6.19259	50.487	
	-6.17044	-124.483	-6.19194	50.5018		-21.721		-69.5937
6.01	-21.8998	19.4953		-6.15512	-127.21		-6.18348	-126.571
	-6.15612	-127.185	-21.0413	-81.9486	-6.19372	45.2247	
	-6.18181	-126.551	-6.19336	45.2396		-21.6702	-72.9416
6.11	-21.8154	19.8433		-6.1671		-129.288	-6.19395	-128.626
	-6.16758	-129.263	-20.9219	-85.1382	-6.19566	39.9602	
	-6.19194	-128.61		-6.19527	39.9717		-21.6035	-76.4511
6.21	-21.7328	20.0329		-6.17907	-131.361	-6.20398	-130.682
	-6.17942	-131.334	-20.7853	-88.4217	-6.19823	34.6954	
	-6.20199	-130.664	-6.1982		34.7077		-21.5195	-80.0974
6.31	-21.6525	20.0617		-6.19025	-133.425	-6.21311	-132.73	
	-6.19089	-133.399	-20.6226	-91.7612	-6.20168	29.4312	
	-6.21146	-132.71		-6.20201	29.445		-21.4079	-83.8655
6.41	-21.5715	19.9458		-6.20084	-135.479	-6.22127	-134.767
	-6.20147	-135.453	-20.4327	-95.1481	-6.20567	24.1692	
	-6.21972	-134.747	-6.20584	24.1826		-21.2657	-87.7381
6.51	-21.4982	19.6246		-6.21104	-137.528	-6.22882	-136.798
	-6.21132	-137.501	-20.2218	-98.5056	-6.2104		18.9078	
	-6.22709	-136.778	-6.21026	18.921		-21.0964	-91.6216
6.61	-21.4325	19.1039		-6.22065	-139.57		-6.23568	-138.826
	-6.22105	-139.545	-19.992		-101.79		-6.2153		13.6511	
	-6.2343		-138.804	-6.2151		13.6662		-20.9005	-95.4628
6.71	-21.3673	18.3696		-6.22927	-141.608	-6.24159	-140.851
	-6.22985	-141.584	-19.7415	-105.003	-6.22054	8.39531	
	-6.24032	-140.828	-6.22029	8.41239		-20.6753	-99.2513
6.81	-21.3051	17.4634		-6.23699	-143.647	-6.24638	-142.873
	-6.23745	-143.621	-19.4774	-108.149	-6.22597	3.13799	
	-6.24484	-142.851	-6.22583	3.15707		-20.4284	-102.96
6.91	-21.2481	16.3657		-6.24351	-145.687	-6.2502		-144.898
	-6.24383	-145.66		-19.202		-111.193	-6.23191	-2.122	
	-6.24814	-144.876	-6.23178	-2.10125	-20.164		-106.56
7.01	-21.191		15.0169		-6.24881	-147.721	-6.25297	-146.92	
	-6.24895	-147.697	-18.9192	-114.1		-6.23795	-7.37738
	-6.25025	-146.9		-6.23749	-7.36059	-19.8857	-110.008
7.11	-21.1345	13.4686		-6.25316	-149.752	-6.2541		-148.94	
	-6.25323	-149.727	-18.6299	-116.865	-6.24407	-12.6273
	-6.25141	-148.92		-6.24306	-12.6122	-19.5961	-113.28
7.21	-21.0784	11.7288		-6.25589	-151.779	-6.25334	-150.957
	-6.25607	-151.75		-18.3458	-119.471	-6.24996	-17.8785
	-6.25077	-150.937	-6.24901	-17.8633	-19.3087	-116.364
7.31	-21.0235	9.80755		-6.25753	-153.808	-6.25204	-152.977
	-6.25774	-153.777	-18.0689	-121.952	-6.25609	-23.13	
	-6.24929	-152.957	-6.25539	-23.1113	-19.0277	-119.288
7.41	-20.9606	7.68844		-6.25832	-155.837	-6.24971	-154.998
	-6.25893	-155.805	-17.8018	-124.29		-6.26301	-28.3813
	-6.24786	-154.979	-6.26279	-28.3612	-18.7553	-122.042
7.51	-20.9006	5.48617		-6.25803	-157.868	-6.24605	-157.025
	-6.25849	-157.839	-17.5532	-126.454	-6.27051	-33.634	
	-6.24445	-157.005	-6.27028	-33.6157	-18.5004	-124.575
7.61	-20.8314	3.19164		-6.25635	-159.902	-6.24141	-159.055
	-6.25673	-159.872	-17.3223	-128.516	-6.27852	-38.8854
	-6.23946	-159.033	-6.27825	-38.8676	-18.2633	-126.977
7.71	-20.7557	0.818121	-6.25394	-161.938	-6.23568	-161.087
	-6.25443	-161.908	-17.1086	-130.446	-6.28721	-44.1341
	-6.23357	-161.067	-6.28683	-44.1194	-18.0444	-129.231
7.81	-20.6769	-1.62497	-6.25068	-163.976	-6.22929	-163.122
	-6.25083	-163.947	-16.924		-132.24		-6.29715	-49.3819
	-6.22654	-163.103	-6.29602	-49.368		-17.8549	-131.315
7.91	-20.5977	-4.07967	-6.24606	-166.023	-6.22167	-165.169
	-6.24616	-165.991	-16.7633	-133.991	-6.30753	-54.6236
	-6.2186		-165.148	-6.30638	-54.6102	-17.6913	-133.324
8.01	-20.5177	-6.50251	-6.24024	-168.075	-6.2127		-167.221
	-6.24024	-168.042	-16.6269	-135.66		-6.31916	-59.8582
	-6.20933	-167.199	-6.31838	-59.8426	-17.5545	-135.232
8.11	-20.4399	-8.93263	-6.23359	-170.132	-6.20269	-169.28	
	-6.23376	-170.099	-16.5177	-137.241	-6.33199	-65.0865
	-6.19968	-169.261	-6.33135	-65.07		-17.4463	-137.039
8.21	-20.3655	-11.3117	-6.22686	-172.195	-6.19226	-171.348
	-6.22738	-172.164	-16.4406	-138.801	-6.34569	-70.3029
	-6.19032	-171.329	-6.34579	-70.2845	-17.373		-138.805
8.31	-20.2922	-13.6151	-6.22025	-174.265	-6.1825		-173.425
	-6.22082	-174.229	-16.3844	-140.312	-6.35905	-75.5074
	-6.18078	-173.401	-6.35953	-75.4841	-17.3228	-140.516
8.41	-20.2346	-15.8237	-6.21266	-176.342	-6.17237	-175.51	
	-6.21307	-176.309	-16.3653	-141.791	-6.37235	-80.6952
	-6.17034	-175.488	-6.3728		-80.6747	-17.3133	-142.202
8.51	-20.1781	-17.946		-6.20451	-178.425	-6.16183	-177.6	
	-6.2048		-178.397	-16.3809	-143.248	-6.38502	-85.8637
	-6.16002	-177.582	-6.38538	-85.8469	-17.3417	-143.865
8.61	-20.1378	-19.9612	-6.19638	179.489		-6.15151	-179.695
	-6.19656	179.515		-16.4231	-144.725	-6.39664	-91.0154
	-6.14956	-179.678	-6.39716	-90.9971	-17.3994	-145.545
8.71	-20.0959	-21.8543	-6.18889	177.396		-6.1419		178.202	
	-6.1892		177.422		-16.4959	-146.23		-6.4069		-96.1558
	-6.13984	178.22		-6.40755	-96.1372	-17.4911	-147.262
8.81	-20.0767	-23.5646	-6.18085	175.286		-6.132		176.085	
	-6.18127	175.315		-16.6047	-147.792	-6.41477	-101.284
	-6.12998	176.102		-6.41561	-101.262	-17.6222	-149.061
8.91	-20.0599	-25.1278	-6.17359	173.176		-6.12326	173.964	
	-6.17416	173.206		-16.743		-149.449	-6.41981	-106.401
	-6.12098	173.982		-6.42077	-106.378	-17.7868	-150.978
9.01	-20.0655	-26.5672	-6.16677	171.057		-6.11494	171.836	
	-6.16796	171.089		-16.9101	-151.233	-6.42163	-111.51	
	-6.11269	171.856		-6.42224	-111.484	-17.9841	-153.054
9.11	-20.0733	-27.8012	-6.16059	168.927		-6.10675	169.698	
	-6.16176	168.964		-17.1074	-153.146	-6.42018	-116.62	
	-6.10496	169.723		-6.42101	-116.592	-18.2144	-155.296
9.21	-20.0909	-28.9039	-6.15554	166.791		-6.09975	167.553	
	-6.15602	166.829		-17.3303	-155.232	-6.41569	-121.738
	-6.09815	167.579		-6.41676	-121.71		-18.4706	-157.758
9.31	-20.1161	-29.797		-6.15042	164.655		-6.0933		165.405	
	-6.15064	164.692		-17.5753	-157.518	-6.40689	-126.861
	-6.09177	165.433		-6.40808	-126.829	-18.7523	-160.463
9.41	-20.1585	-30.5277	-6.14626	162.512		-6.0881		163.251	
	-6.1466		162.548		-17.8404	-160.071	-6.39482	-131.993
	-6.08644	163.28		-6.39571	-131.96		-19.0539	-163.506
9.51	-20.2101	-31.1009	-6.14335	160.367		-6.08413	161.095	
	-6.14381	160.402		-18.1244	-162.942	-6.38042	-137.15	
	-6.08249	161.125		-6.38106	-137.115	-19.3694	-166.951
9.61	-20.257		-31.5934	-6.14197	158.219		-6.08184	158.939	
	-6.1425		158.257		-18.4092	-166.129	-6.36369	-142.325
	-6.08028	158.968		-6.36409	-142.288	-19.6794	-170.783
9.71	-20.2998	-31.9711	-6.1418		156.072		-6.08045	156.782	
	-6.14196	156.11		-18.6847	-169.662	-6.34455	-147.522
	-6.07879	156.811		-6.34462	-147.487	-19.9705	-175.041
9.81	-20.3341	-32.205		-6.14181	153.926		-6.07984	154.627	
	-6.14208	153.967		-18.956		-173.574	-6.32487	-152.747
	-6.07835	154.656		-6.32494	-152.712	-20.2425	-179.755
9.91	-20.3646	-32.3497	-6.14322	151.779		-6.08063	152.468	
	-6.14406	151.818		-19.1934	-177.923	-6.30513	-158.005
	-6.07966	152.498		-6.30532	-157.968	-20.4576	175.05
10.01	-20.3812	-32.4498	-6.14614	149.633		-6.08285	150.314	
	-6.14693	149.669		-19.3872	177.373		-6.28618	-163.291
	-6.08184	150.338		-6.28662	-163.257	-20.6051	169.504
10.11	-20.3846	-32.5482	-6.14957	147.488		-6.08603	148.159	
	-6.14994	147.525		-19.5196	172.389		-6.26907	-168.604
	-6.08433	148.185		-6.26878	-168.57		-20.6649	163.723
10.21	-20.3699	-32.6326	-6.1531		145.342		-6.08979	146.002	
	-6.15399	145.381		-19.5889	167.128		-6.25504	-173.944
	-6.08783	146.031		-6.25434	-173.909	-20.6358	157.759
10.31	-20.3417	-32.7838	-6.15844	143.201		-6.09487	143.852	
	-6.15917	143.239		-19.5729	161.759		-6.24519	-179.3	
	-6.09289	143.882		-6.24403	-179.266	-20.5013	151.87
10.41	-20.3005	-32.9641	-6.16426	141.066		-6.10049	141.709	
	-6.1646		141.101		-19.4787	156.396		-6.23902	175.33	
	-6.0982		141.737		-6.23754	175.362		-20.2789	146.188
10.51	-20.2456	-33.2707	-6.17097	138.935		-6.10682	139.571	
	-6.17112	138.967		-19.3057	151.161		-6.23719	169.955	
	-6.10425	139.595		-6.23572	169.983		-19.9769	140.836
10.61	-20.1758	-33.6852	-6.17802	136.812		-6.1141		137.439	
	-6.1784		136.847		-19.0649	146.14		-6.23942	164.579	
	-6.11147	137.466		-6.23795	164.608		-19.6131	135.883
10.71	-20.0952	-34.3123	-6.18571	134.693		-6.12168	135.314	
	-6.18577	134.733		-18.7652	141.444		-6.24589	159.211	
	-6.11896	135.344		-6.24341	159.242		-19.2072	131.405
10.81	-20.0037	-35.0996	-6.193		132.584		-6.12889	133.197	
	-6.19315	132.622		-18.4272	137.113		-6.25595	153.854	
	-6.12617	133.225		-6.25289	153.882		-18.7796	127.385
10.91	-19.8985	-36.0726	-6.2006		130.481		-6.13659	131.088	
	-6.20055	130.518		-18.062		133.168		-6.26955	148.517	
	-6.13379	131.115		-6.26654	148.545		-18.3417	123.82
11.01	-19.7827	-37.2009	-6.20818	128.381		-6.14449	128.984	
	-6.20805	128.418		-17.6827	129.58		-6.28449	143.198	
	-6.14212	129.009		-6.28184	143.225		-17.9039	120.647
11.11	-19.6616	-38.4941	-6.21573	126.291		-6.15211	126.89	
	-6.21569	126.327		-17.3026	126.34		-6.30093	137.896	
	-6.14979	126.913		-6.298		137.919		-17.4794	117.831
11.21	-19.5407	-39.907		-6.22357	124.209		-6.16015	124.8	
	-6.22363	124.247		-16.9323	123.444		-6.31828	132.619	
	-6.15757	124.826		-6.31521	132.641		-17.0781	115.357
11.31	-19.4223	-41.4943	-6.23063	122.136		-6.16729	122.72	
	-6.23064	122.173		-16.5775	120.853		-6.33568	127.365	
	-6.1646		122.747		-6.33288	127.386		-16.7011	113.17
11.41	-19.2986	-43.2668	-6.2368		120.064		-6.17338	120.644	
	-6.23645	120.101		-16.2409	118.502		-6.35178	122.128	
	-6.17075	120.67		-6.34883	122.147		-16.3504	111.194
