! MARKI MICROWAVE INC.
! Email:             	info@markimicrowave.com   				Phone:   408-778-4200
! Model Number:      	PD3-0R412						Date:    10/12
! Filename:		PD3_0R412.S4P						Version: 1.0
! Description:       	4-port S-parameter data for Power Divider PD3-0R412
! Frequency Range: 	10 MHz to 13 GHz		
! Port Configuration:	PORT 1: Common, 
!			PORT 2, PORT 3, PORT 4: Output


! S4P File: Measurements: Mag<S11> Ang<S11> Mag<S12> Ang<S12> Mag<S13> Ang<S13> Mag<S14> Ang<S14>! row 1 
!			  Mag<S21> Ang<S21> Mag<S22> Ang<S22> Mag<S23> Ang<S23> Mag<S24> Ang<S24>! row 2 
!			  Mag<S31> Ang<S31> Mag<S32> Ang<S32> Mag<S33> Ang<S33> Mag<S34> Ang<S34>! row 3 
!			  Mag<S41> Ang<S41> Mag<S42> Ang<S42> Mag<S43> Ang<S43> Mag<S44> Ang<S44>! row 4	

# Hz S  dB   R 50
10000000 -6.2154241 170.82814 -6.0614247 -8.3752098 -6.0570812 -8.8034887 -6.0710893 -8.7973194
-6.0543251 -8.6264305 -6.9357729 151.80031 -6.681109 -14.063772 -6.6002016 -21.017311
-6.0773635 -7.4797506 -6.692205 -12.559767 -7.3060756 158.59937 -6.7053533 -13.083689
-6.0655875 -7.5201035 -6.6139412 -19.330488 -6.6813288 -12.923801 -6.9299579 151.63353
26237500 -6.2423978 167.96921 -6.0599165 -10.942261 -6.0568128 -11.263186 -6.0677934 -11.255303
-6.0536671 -11.145032 -7.2572904 143.78671 -6.9324875 -17.136894 -6.8690133 -26.680666
-6.0735106 -10.246026 -6.942481 -15.972874 -7.8050413 153.64851 -6.953548 -16.359055
-6.0628362 -10.267689 -6.8798494 -25.368385 -6.9336329 -16.226971 -7.2515559 143.6792
42475000 -6.2793589 164.5253 -6.0572829 -14.034758 -6.0551233 -14.248881 -6.0624166 -14.244469
-6.0515947 -14.185804 -7.6538773 134.51131 -7.224463 -20.62373 -7.2124357 -33.250301
-6.0671463 -13.526999 -7.2329941 -19.794771 -8.4093428 148.15779 -7.2412119 -20.050611
-6.0577798 -13.542985 -7.220562 -32.310738 -7.2252059 -19.947954 -7.6492801 134.46539
58712500 -6.325757 160.50961 -6.0518765 -17.646864 -6.0507073 -17.758856 -6.054698 -17.760061
-6.0473008 -17.748936 -8.1212873 124.07151 -7.5528388 -24.514553 -7.6303549 -40.658833
-6.0590286 -17.331202 -7.5598888 -24.01433 -9.1121492 142.23247 -7.5652509 -24.142672
-6.0510316 -17.341347 -7.6366749 -40.086506 -7.5538917 -24.073025 -8.1186943 124.08547
74950000 -6.3835664 155.93811 -6.0439553 -21.78636 -6.0439138 -21.792667 -6.0446692 -21.802105
-6.040309 -21.837439 -8.6573629 112.53948 -7.9137073 -28.799322 -8.1201315 -48.843342
-6.0486097 -21.655788 -7.919549 -28.625839 -9.9063978 135.9375 -7.9223828 -28.621881
-6.0418515 -21.658562 -8.1243858 -48.634644 -7.9150205 -28.579618 -8.6561022 112.6091
91187500 -6.4544697 150.79643 -6.0327115 -26.449369 -6.0345407 -26.345387 -6.031117 -26.370155
-6.0307207 -26.449942 -9.259594 99.972908 -8.3055878 -33.475296 -8.6793842 -57.758991
-6.0349035 -26.498009 -8.3096294 -33.627846 -10.789552 129.33177 -8.3098049 -33.493435
-6.0291028 -26.505127 -8.6801138 -57.914711 -8.3061905 -33.481472 -9.2605495 100.09351
107425000 -6.5404525 145.66882 -6.015799 -31.196014 -6.0215111 -31.08387 -6.0150728 -31.124176
-6.0139756 -31.194372 -9.8847437 88.290535 -8.6868935 -37.83411 -9.2768583 -66.271339
-6.0219789 -31.144646 -8.6899672 -37.901028 -11.692122 123.81923 -8.6910734 -37.770092
-6.0123401 -31.177868 -9.276289 -66.337723 -8.6874294 -37.75827 -9.8866272 88.413239
123662500 -6.6333518 140.53671 -5.9981918 -35.920647 -6.0040665 -35.795464 -5.9968867 -35.870213
-5.9965754 -35.913822 -10.506288 77.388817 -9.0413818 -41.803051 -9.8962479 -74.144531
-6.002614 -35.824829 -9.0426588 -41.840836 -12.579264 119.28078 -9.0425034 -41.72327
-5.9928083 -35.890968 -9.8938408 -74.181839 -9.0381575 -41.712532 -10.51158 77.53067
139900000 -6.7383842 135.41002 -5.9746108 -40.651741 -5.9816356 -40.511673 -5.9746146 -40.613403
-5.97333 -40.636814 -11.115269 67.189049 -9.3674774 -45.550201 -10.518747 -81.455528
-5.9808202 -40.517353 -9.3691463 -45.571365 -13.43426 115.52151 -9.3705416 -45.45575
-5.9712605 -40.599464 -10.516183 -81.465843 -9.3656845 -45.437672 -11.11977 67.335136
156137500 -6.855804 130.2793 -5.9495201 -45.401638 -5.9558845 -45.240242 -5.9495311 -45.368813
-5.9490314 -45.383514 -11.703201 57.576756 -9.6697636 -49.180756 -11.130625 -88.283615
-5.9555998 -45.215279 -9.6716967 -49.177273 -14.254855 112.35187 -9.6723022 -49.057064
-5.945837 -45.328362 -11.127708 -88.273964 -9.6663742 -49.044529 -11.707145 57.713898
172375000 -6.9857535 125.14047 -5.9216909 -50.155586 -5.9261904 -49.979469 -5.9212956 -50.133789
-5.9212623 -50.135284 -12.266605 48.473705 -9.9547138 -52.761322 -11.724904 -94.71209
-5.9261451 -49.934551 -9.9571705 -52.743893 -15.04525 109.68893 -9.9566946 -52.6241
-5.9185462 -50.083748 -11.721936 -94.693123 -9.9505014 -52.618042 -12.269662 48.606281
188612500 -7.1261358 120.0163 -5.8905773 -54.921585 -5.8933558 -54.723003 -5.8905826 -54.903126
-5.890636 -54.906494 -12.803269 39.81562 -10.229458 -56.333546 -12.296297 -100.83246
-5.894393 -54.679253 -10.233086 -56.30698 -15.805329 107.48756 -10.231713 -56.175278
-5.8888745 -54.848141 -12.293232 -100.80752 -10.225441 -56.16877 -12.805043 39.951874
204850000 -7.2816024 114.88041 -5.8565106 -59.705963 -5.8574915 -59.477684 -5.8575239 -59.685329
-5.8574224 -59.691566 -13.319168 31.531757 -10.499983 -59.902496 -12.844824 -106.69582
-5.8588438 -59.439251 -10.503726 -59.878895 -16.539539 105.68675 -10.502656 -59.732601
-5.8559217 -59.626549 -12.840102 -106.66525 -10.494966 -59.723011 -13.315298 31.676662
221087500 -7.4517736 109.73166 -5.8212919 -64.510941 -5.8195348 -64.258171 -5.8224969 -64.487534
-5.8225794 -64.495277 -13.814403 23.569586 -10.77143 -63.487953 -13.367706 -112.36934
-5.820797 -64.222572 -10.774865 -63.466213 -17.251457 104.26455 -10.772728 -63.309761
-5.8209271 -64.434509 -13.363122 -112.33482 -10.765277 -63.301121 -13.807256 23.726812
237325000 -7.6360264 104.57112 -5.7848086 -69.329987 -5.7794394 -69.062691 -5.7862849 -69.303627
-5.7856116 -69.316856 -14.291587 15.912608 -11.045762 -67.094894 -13.868234 -117.89206
-5.7806587 -69.027969 -11.04958 -67.065643 -17.939121 103.19981 -11.047089 -66.903831
-5.7852139 -69.252197 -13.863445 -117.84493 -11.040317 -66.894699 -14.279577 16.08379
253562500 -7.8383951 99.393707 -5.7462139 -74.170555 -5.7382894 -73.89106 -5.7477465 -74.141922
-5.7471867 -74.158981 -14.756039 8.5024166 -11.327738 -70.721962 -14.345974 -123.30539
-5.7395906 -73.858452 -11.331935 -70.69194 -18.600777 102.52917 -11.32841 -70.510948
-5.7471757 -74.092804 -14.342471 -123.25982 -11.320537 -70.506645 -14.737968 8.6913395
269800000 -8.0568666 94.217758 -5.7064438 -79.02877 -5.6950874 -78.746346 -5.7085667 -79.003662
-5.7077117 -79.01667 -15.21424 1.3229944 -11.619451 -74.366455 -14.803167 -128.65118
-5.6968336 -78.705681 -11.623749 -74.331818 -19.225664 102.2401 -11.619622 -74.145493
-5.7081027 -78.950455 -14.799695 -128.60558 -11.611279 -74.141525 -15.187771 1.5285206
286037500 -8.2913122 89.039787 -5.6661501 -83.913078 -5.6508641 -83.629402 -5.6684499 -83.883957
-5.666544 -83.899567 -15.66575 -5.6541901 -11.924024 -78.022293 -15.241624 -133.96342
-5.652741 -83.58596 -11.928428 -77.980682 -19.807404 102.31142 -11.923723 -77.787369
-5.6676621 -83.827591 -15.238869 -133.90974 -11.914557 -77.786102 -15.632504 -5.4100633
302275000 -8.5446548 83.866997 -5.6247516 -88.814491 -5.605824 -88.523544 -5.6270666 -88.780243
-5.6248937 -88.801399 -16.120867 -12.463133 -12.242137 -81.694519 -15.663107 -139.28102
-5.6076937 -88.487305 -12.247388 -81.663078 -20.334066 102.76405 -12.24186 -81.449524
-5.6261568 -88.726524 -15.660031 -139.21095 -12.23251 -81.442558 -16.075375 -12.165352
318512500 -8.8178844 78.703041 -5.5828729 -93.739052 -5.5606465 -93.443085 -5.5853815 -93.698029
-5.5827641 -93.720589 -16.574636 -19.10144 -12.576175 -85.371925 -16.06937 -144.58951
-5.562439 -93.410431 -12.581608 -85.344223 -20.79953 103.51966 -12.575212 -85.107986
-5.5843544 -93.646233 -16.067085 -144.52739 -12.565828 -85.103096 -16.518545 -18.747076
334750000 -9.1132927 73.554161 -5.5407138 -98.684364 -5.5154319 -98.388985 -5.5434341 -98.642334
-5.5404034 -98.660858 -17.037045 -25.610876 -12.930543 -89.057632 -16.462437 -149.94312
-5.5167251 -98.355202 -12.934392 -89.042847 -21.190174 104.51815 -12.928158 -88.795776
-5.5422435 -98.588547 -16.459911 -149.87848 -12.918976 -88.78241 -16.971119 -25.174494
350987500 -9.4309845 68.403152 -5.4994149 -103.65336 -5.4712148 -103.36298 -5.5017796 -103.60573
-5.4985328 -103.62299 -17.503147 -31.991783 -13.303183 -92.749321 -16.843235 -155.33839
-5.471735 -103.31938 -13.307966 -92.728958 -21.509111 105.67896 -13.299813 -92.467598
-5.5005121 -103.5529 -16.841299 -155.28358 -13.292144 -92.452835 -17.432251 -31.439211
367225000 -9.7738676 63.266628 -5.4584761 -108.63349 -5.4268575 -108.34924 -5.4605484 -108.58172
-5.4570513 -108.60535 -17.977856 -38.272213 -13.696568 -96.452042 -17.213552 -160.79498
-5.4275355 -108.2998 -13.703595 -96.429634 -21.747437 106.95113 -13.695239 -96.143707
-5.4595046 -108.5302 -17.211054 -160.73384 -13.686258 -96.13063 -17.904417 -37.582111
383462500 -10.143067 58.142723 -5.4176431 -113.64037 -5.3832769 -113.35904 -5.4198995 -113.58408
-5.4160166 -113.61405 -18.461052 -44.385551 -14.119876 -100.1293 -17.578709 -166.32945
-5.3839378 -113.31163 -14.125802 -100.11727 -21.91441 108.188 -14.115832 -99.800873
-5.4181876 -113.53455 -17.57662 -166.28284 -14.107256 -99.788841 -18.389639 -43.563259
399700000 -10.540064 53.041382 -5.3786616 -118.66906 -5.3409843 -118.38951 -5.3805919 -118.60785
-5.3765912 -118.63775 -18.952997 -50.355694 -14.566886 -103.79344 -17.938868 -171.94839
-5.3415675 -118.33646 -14.572787 -103.78043 -22.012035 109.27972 -14.56189 -103.44105
-5.3784518 -118.55447 -17.935076 -171.90608 -14.55354 -103.4283 -18.893696 -49.416481
415937500 -10.970574 47.942688 -5.3396912 -123.71373 -5.2998357 -123.43888 -5.3409481 -123.64686
-5.3374543 -123.6814 -19.45713 -56.142658 -15.042813 -107.44215 -18.292719 -177.66057
-5.2995238 -123.38531 -15.04875 -107.41847 -22.049944 110.15687 -15.035777 -107.04731
-5.3390088 -123.59188 -18.289049 -177.60567 -15.027337 -107.04488 -19.413805 -55.133022
432175000 -11.43689 42.872574 -5.3018165 -128.77307 -5.2591357 -128.50679 -5.3029127 -128.70738
-5.3005452 -128.74464 -19.982285 -61.699352 -15.550405 -111.04906 -18.646397 176.53734
-5.2595153 -128.44724 -15.557179 -111.01408 -22.039753 110.71486 -15.541467 -110.61289
-5.3014665 -128.65018 -18.640949 176.59398 -15.533319 -110.60448 -19.953495 -60.698868
448412500 -11.942594 37.833263 -5.2658834 -133.85049 -5.2212677 -133.59737 -5.2669897 -133.79195
-5.2643771 -133.82416 -20.53092 -67.055489 -16.09347 -114.61717 -18.994448 170.62512
-5.221983 -133.52835 -16.100714 -114.56508 -21.989922 110.9082 -16.08135 -114.13876
-5.2655091 -133.7253 -18.991581 170.68561 -16.074562 -114.12823 -20.522081 -66.117714
464650000 -12.493365 32.841221 -5.2318945 -138.94446 -5.1846128 -138.69897 -5.2327037 -138.88673
-5.2305303 -138.92105 -21.11961 -72.218208 -16.676641 -118.13365 -19.342443 164.58855
-5.1847854 -138.6311 -16.683552 -118.0774 -21.909609 110.67889 -16.661459 -117.61064
-5.2304835 -138.81703 -19.339954 164.66629 -16.653149 -117.61049 -21.121807 -71.365387
480887500 -13.0941 27.911848 -5.1996675 -144.05087 -5.150218 -143.81999 -5.2007942 -143.98846
-5.1985164 -144.03008 -21.748299 -77.101372 -17.302357 -121.55582 -19.692009 158.45728
-5.1505437 -143.74886 -17.308418 -121.49281 -21.819296 110.03539 -17.282188 -120.97246
-5.1981473 -143.92351 -19.690325 158.52969 -17.275181 -120.99155 -21.752455 -76.415337
497125000 -13.752349 23.099327 -5.1702423 -149.16928 -5.1185017 -148.95059 -5.1711106 -149.10835
-5.1689711 -149.15634 -22.43058 -81.76516 -17.977287 -124.89542 -20.041286 152.19121
-5.1187148 -148.87993 -17.981812 -124.82672 -21.715954 108.96494 -17.950306 -124.26009
-5.1683683 -149.04314 -20.039942 152.28322 -17.944807 -124.27821 -22.42613 -81.292702
513362500 -14.470328 18.400192 -5.1423917 -154.3065 -5.0890679 -154.09816 -5.1435556 -154.24654
-5.1411982 -154.29456 -23.169544 -86.143616 -18.706059 -128.07426 -20.39299 145.81929
-5.0888767 -154.03055 -18.706549 -128.00389 -21.61887 107.48412 -18.670816 -127.39785
-5.140501 -154.17848 -20.393608 145.89699 -18.665819 -127.41039 -23.138655 -85.93856
529600000 -15.25826 13.915238 -5.1171184 -159.45503 -5.0618539 -159.25528 -5.1179786 -159.39146
-5.1160541 -159.43587 -23.96965 -90.288208 -19.489117 -131.07864 -20.743639 139.30374
-5.0620136 -159.18469 -19.491358 -131.02002 -21.520489 105.66463 -19.44908 -130.33893
-5.115521 -159.32144 -20.748339 139.38112 -19.44364 -130.34871 -23.896828 -90.361176
545837500 -16.122534 9.6422768 -5.0944538 -164.60469 -5.0377274 -164.42078 -5.0950737 -164.54384
-5.0938358 -164.58757 -24.828772 -94.143074 -20.341536 -133.84338 -21.097876 132.66261
-5.0378819 -164.35181 -20.34185 -133.80162 -21.430292 103.5642 -20.289618 -133.04778
-5.0929222 -164.47179 -21.104399 132.7462 -20.286863 -133.04668 -24.702204 -94.439796
562075000 -17.074112 5.7109885 -5.0748496 -169.76335 -5.0159812 -169.59117 -5.0755205 -169.70181
-5.0738173 -169.74622 -25.762299 -97.617805 -21.278099 -136.28587 -21.452971 125.86682
-5.0172057 -169.52325 -21.275675 -136.26631 -21.350662 101.22314 -21.212366 -135.4193
-5.0732374 -169.63251 -21.458935 125.93268 -21.210178 -135.42644 -25.566166 -98.104218
578312500 -18.129416 2.2296581 -5.057642 -174.92863 -4.9979186 -174.7644 -5.0586209 -174.86549
-5.0558019 -174.90921 -26.759193 -100.67381 -22.300545 -138.31273 -21.80681 118.91505
-4.9985933 -174.69356 -22.294676 -138.30394 -21.287092 98.721359 -22.213846 -137.34718
-5.0559387 -174.79399 -21.815481 118.97821 -22.21455 -137.34821 -26.484388 -101.30216
594550000 -19.303232 -0.59632021 -5.0431995 179.90273 -4.981986 -179.93871 -5.0442071 179.97443
-5.0412707 179.92633 -27.81233 -103.12662 -23.412458 -139.67606 -22.166649 111.85311
-4.982688 -179.87196 -23.406445 -139.68776 -21.248564 96.092262 -23.30213 -138.60373
-5.0415502 -179.9584 -22.174917 111.89584 -23.305771 -138.61703 -27.452896 -103.86224
610787500 -20.602682 -2.4389439 -5.0308976 174.73611 -4.9689512 174.88968 -5.0320778 174.81226
-5.0292072 174.75787 -28.911695 -104.70829 -24.628216 -140.19194 -22.526127 104.64088
-4.9702106 174.95197 -24.622486 -140.20059 -21.237051 93.400604 -24.477922 -139.03197
-5.0296712 174.87646 -22.530989 104.68319 -24.485855 -139.01901 -28.484629 -105.6016
627025000 -22.013887 -2.8039973 -5.0216722 169.57016 -4.9588099 169.71782 -5.0223732 169.64761
-5.0202994 169.59091 -30.030689 -105.15433 -25.928682 -139.38596 -22.883663 97.292839
-4.9603462 169.77937 -25.925369 -139.38609 -21.259878 90.656136 -25.730366 -138.16164
-5.0205507 169.71184 -22.887362 97.316338 -25.73827 -138.18866 -29.558102 -106.37718
643262500 -23.482513 -1.0443872 -5.0144835 164.40498 -4.9501948 164.54726 -5.0151377 164.4899
-5.0126796 164.42743 -31.125242 -104.17905 -27.259035 -136.96089 -23.238966 89.820313
-4.9524164 164.60425 -27.259098 -136.94591 -21.322372 87.929779 -27.009319 -135.70847
-5.0130963 164.55249 -23.241623 89.823563 -27.011913 -135.79337 -30.627632 -106.07027
659500000 -24.858576 3.251658 -5.0092745 159.24977 -4.9445968 159.38269 -5.0098929 159.33713
-5.007906 159.27225 -32.12891 -101.71342 -28.520056 -132.50348 -23.592991 82.148926
-4.9472876 159.43988 -28.522667 -132.50107 -21.425406 85.178543 -28.210941 -131.45755
-5.0082002 159.3988 -23.592909 82.151642 -28.21817 -131.52071 -31.648829 -104.41843
675737500 -25.997971 9.4697628 -5.0069981 154.09956 -4.9411459 154.22345 -5.0068679 154.18579
-5.0053835 154.12297 -32.982182 -97.88501 -29.600716 -126.34662 -23.941322 74.366913
-4.944406 154.27942 -29.603205 -126.3441 -21.573961 82.432487 -29.238352 -125.61649
-5.0058761 154.25278 -23.937868 74.374016 -29.249931 -125.6974 -32.562016 -101.60124
691975000 -26.825048 16.975239 -5.0059795 148.95453 -4.9394464 149.07396 -5.0059314 149.04779
-5.004734 148.9761 -33.648823 -93.017006 -30.441498 -118.96439 -24.28104 66.454514
-4.9427609 149.12778 -30.441204 -118.94666 -21.772768 79.700287 -30.043066 -118.56994
-5.005055 149.11099 -24.275949 66.452553 -30.05117 -118.71931 -33.318432 -97.76545
708212500 -27.334709 25.166332 -5.0069818 143.8158 -4.9394655 143.93269 -5.0062561 143.91656
-5.0062437 143.84129 -34.098061 -87.407639 -30.997698 -110.82484 -24.611959 58.453697
-4.9428906 143.98421 -30.999214 -110.79332 -22.017986 76.990868 -30.582006 -110.83211
-5.0059357 143.98058 -24.60849 58.428444 -30.591709 -110.96939 -33.888779 -93.233772
724450000 -27.519125 33.529282 -5.0091114 138.68687 -4.9413376 138.79831 -5.0082707 138.79393
-5.0092025 138.71625 -34.322834 -81.58712 -31.270155 -102.44017 -24.9366 50.35461
-4.9444909 138.8441 -31.273279 -102.40786 -22.307707 74.305824 -30.850794 -102.87527
-5.0080962 138.85353 -24.929575 50.314739 -30.86397 -103.00107 -34.256451 -88.37645
740687500 -27.379377 41.644753 -5.0125847 133.57249 -4.9442968 133.67407 -5.0115919 133.67961
-5.0132518 133.59863 -34.334194 -75.743851 -31.265238 -94.191612 -25.245913 42.127247
-4.947463 133.71841 -31.268579 -94.141541 -22.64397 71.623299 -30.855885 -95.042313
-5.0116463 133.74167 -25.238871 42.112186 -30.863884 -95.184952 -34.4053 -83.411804
756925000 -26.918678 49.046528 -5.0172687 128.46443 -4.9485402 128.55533 -5.0155458 128.57059
-5.0182872 128.48979 -34.120457 -70.337837 -30.970154 -86.413864 -25.538742 33.818382
-4.9514761 128.60225 -30.973349 -86.371315 -23.024136 68.976921 -30.585897 -87.681007
-5.0163145 128.63727 -25.533901 33.786919 -30.594227 -87.802536 -34.320992 -78.740021
773162500 -26.162668 55.154961 -5.0229707 123.3651 -4.952879 123.4461 -5.0207705 123.47538
-5.0234733 123.39217 -33.726685 -65.907402 -30.416754 -79.775253 -25.821505 25.440031
-4.9560175 123.49489 -30.416113 -79.764839 -23.441109 66.454811 -30.072197 -81.417763
-5.0213013 123.54533 -25.819616 25.421124 -30.079662 -81.470108 -34.043968 -74.675247
789400000 -25.170803 59.216866 -5.0293331 118.27827 -4.9580054 118.35076 -5.0262742 118.39079
-5.0299015 118.30775 -33.192108 -62.683086 -29.660902 -74.619064 -26.093866 16.956957
-4.9621763 118.39732 -29.658491 -74.641014 -23.894791 64.088486 -29.367037 -76.593956
-5.0276365 118.46015 -26.092316 16.959209 -29.377167 -76.586502 -33.616768 -71.445724
805637500 -24.093168 60.798649 -5.0359921 113.20026 -4.9633365 113.26307 -5.0323448 113.31464
-5.0361938 113.23247 -32.563759 -60.879349 -28.804607 -71.465462 -26.347988 8.4697161
-4.96803 113.30944 -28.80344 -71.473862 -24.384029 61.940937 -28.571188 -73.515381
-5.0339704 113.38605 -26.347313 8.4822168 -28.576942 -73.544121 -33.079632 -69.337425
821875000 -23.078083 60.367199 -5.0424705 108.13503 -4.9694247 108.18752 -5.0390744 108.25412
-5.0429363 108.16127 -31.933331 -60.45425 -27.968439 -70.053101 -26.591558 -0.035569493
-4.974287 108.2317 -27.96563 -70.063446 -24.904362 60.157341 -27.787786 -72.085548
-5.0399394 108.31915 -26.590544 -0.021914981 -27.788986 -72.102333 -32.502892 -68.368736
838112500 -22.195427 58.538307 -5.0495777 103.07964 -4.9751492 103.11923 -5.0455656 103.19538
-5.0493002 103.10499 -31.321365 -61.059547 -27.200249 -69.998795 -26.820515 -8.5646677
-4.9809942 103.16425 -27.203939 -70.004951 -25.452356 58.737202 -27.06115 -71.997383
-5.0461082 103.26579 -26.820087 -8.5202875 -27.063185 -71.93998 -31.929502 -68.475594
854350000 -21.44264 55.766987 -5.0568128 98.030975 -4.9818454 98.062134 -5.0522671 98.148911
-5.0559902 98.053223 -30.744352 -62.623203 -26.530573 -70.939415 -27.035833 -17.127979
-4.9877405 98.105247 -26.534851 -70.952301 -26.035908 57.769981 -26.417707 -72.855698
-5.0528846 98.215981 -27.033176 -17.06147 -26.419498 -72.795959 -31.385984 -69.476379
870587500 -20.813473 52.419544 -5.064527 92.992401 -4.9883938 93.012955 -5.0588822 93.111267
-5.0626278 93.010101 -30.232079 -64.68084 -25.962313 -72.49987 -27.240084 -25.692757
-4.9944148 93.053635 -25.968163 -72.518417 -26.647987 57.39053 -25.871078 -74.336075
-5.0591822 93.176506 -27.241348 -25.622055 -25.868977 -74.289688 -30.895332 -71.093895
886825000 -20.287426 48.672737 -5.0716734 87.954796 -4.9943004 87.968857 -5.0646605 88.078506
