! MARKI MICROWAVE INC.
! Email:             	info@markimicrowave.com   				Phone:   408-778-4200
! Model Number:      	PD3-0R616						Date:    10/12
! Filename:		PD3_0R616.S4P						Version: 1.0
! Description:       	4-port S-parameter data for Power Divider PD3-0R616
! Frequency Range: 	10 MHz to 18 GHz		
! Port Configuration:	PORT 1: Common, 
!			PORT 2, PORT 3, PORT 4: Output


! S4P File: Measurements: Mag<S11> Ang<S11> Mag<S12> Ang<S12> Mag<S13> Ang<S13> Mag<S14> Ang<S14>! row 1 
!			  Mag<S21> Ang<S21> Mag<S22> Ang<S22> Mag<S23> Ang<S23> Mag<S24> Ang<S24>! row 2 
!			  Mag<S31> Ang<S31> Mag<S32> Ang<S32> Mag<S33> Ang<S33> Mag<S34> Ang<S34>! row 3 
!			  Mag<S41> Ang<S41> Mag<S42> Ang<S42> Mag<S43> Ang<S43> Mag<S44> Ang<S44>! row 4	

# Hz S  dB   R 50
10000000 -6.1578956 171.88419 -6.0441732 -7.5997901 -6.0559053 -8.0520859 -6.0448647 -8.0730877
-6.0452766 -7.7943053 -6.7340398 155.60927 -6.5498352 -12.847528 -6.4682107 -18.51371
-6.0709863 -6.7757888 -6.5669074 -11.360824 -7.0372562 161.06685 -6.5707707 -11.899849
-6.0600328 -6.7544212 -6.4780421 -16.939152 -6.55721 -11.680174 -6.7310896 155.40764
32487500 -6.183331 169.04063 -6.0449071 -10.201772 -6.0542526 -10.55823 -6.0447102 -10.566717
-6.0453815 -10.355139 -7.0202012 147.68282 -6.7831836 -16.148443 -6.6984048 -24.19038
-6.0665417 -9.5550461 -6.7972198 -14.978999 -7.4860296 155.83051 -6.8007998 -15.401768
-6.0564971 -9.5266361 -6.7061095 -22.94895 -6.7892113 -15.224352 -7.0168467 147.55415
54975000 -6.2162209 165.64919 -6.0443931 -13.331886 -6.052393 -13.590641 -6.043448 -13.587208
-6.0438008 -13.445855 -7.3780885 138.49606 -7.0581431 -19.902655 -6.9968586 -30.813761
-6.0614257 -12.856945 -7.0686674 -19.047218 -8.0347967 150.01617 -7.0717297 -19.353977
-6.0511465 -12.821494 -7.0015674 -29.896429 -7.0622692 -19.216585 -7.3742862 138.43327
77462500 -6.2582884 161.70352 -6.0417666 -16.985523 -6.0478539 -17.139973 -6.0396671 -17.132589
-6.0402527 -17.060427 -7.8068624 128.13206 -7.3697948 -24.082479 -7.3647799 -38.313343
-6.0537043 -16.680271 -7.3773837 -23.544418 -8.6789846 143.70528 -7.3799071 -23.73526
-6.043622 -16.645416 -7.3667812 -37.720993 -7.3721232 -23.641436 -7.8029003 128.13089
99950000 -6.3102245 157.19131 -6.0370722 -21.171017 -6.0417128 -21.219271 -6.0346093 -21.208427
-6.034802 -21.207376 -8.3029747 116.63956 -7.7144251 -28.676468 -7.8014474 -46.619598
-6.0442586 -21.035906 -7.7184768 -28.456671 -9.4123631 136.95726 -7.7208548 -28.533796
-6.0344949 -21.001839 -7.8008599 -46.353962 -7.7151608 -28.478615 -8.2982559 116.69788
122437500 -6.3734198 152.1144 -6.0298324 -25.884451 -6.0328598 -25.821581 -6.026227 -25.80979
-6.0268221 -25.885384 -8.8646479 104.08025 -8.0894804 -33.68306 -8.3056793 -55.685719
-6.0326142 -25.912998 -8.0914392 -33.777668 -10.233721 129.82326 -8.093112 -33.7421
-6.0227084 -25.888832 -8.3021765 -55.752056 -8.0886765 -33.730064 -8.8584433 104.1974
144925000 -6.4447265 147.0482 -6.0177689 -30.660809 -6.0217447 -30.599375 -6.0124893 -30.603207
-6.0158386 -30.653561 -9.4541988 92.317543 -8.4612112 -38.367805 -8.8540831 -64.400078
-6.0209365 -30.614059 -8.4630308 -38.394096 -11.087613 123.73705 -8.4625931 -38.37746
-6.008244 -30.612724 -8.8494282 -64.401878 -8.4573946 -38.371414 -9.4470558 92.436295
167412500 -6.5234876 141.99817 -6.0017447 -35.41618 -6.0077405 -35.350643 -5.9956083 -35.372681
-5.9986181 -35.397743 -10.052605 81.275772 -8.8130341 -42.637131 -9.4295616 -72.52813
-6.0053988 -35.33601 -8.8143654 -42.645081 -11.937501 118.59853 -8.8131084 -42.652222
-5.9922447 -35.351841 -9.4259882 -72.512421 -8.809083 -42.640396 -10.04075 81.401024
189900000 -6.613215 136.94579 -5.9828286 -40.189861 -5.9891963 -40.105247 -5.9752069 -40.153969
-5.9793258 -40.167789 -10.644172 70.884766 -9.1386786 -46.650372 -10.01604 -80.136665
-5.9866958 -40.057186 -9.1401653 -46.630775 -12.765309 114.20116 -9.1375694 -46.650963
-5.9716969 -40.101845 -10.013167 -80.100853 -9.1334047 -46.646545 -10.629309 70.993111
212387500 -6.7124338 131.89125 -5.9603343 -44.957741 -5.9671063 -44.86578 -5.9529037 -44.937496
-5.9579649 -44.940025 -11.218563 61.06398 -9.4392519 -50.508667 -10.600998 -87.274254
-5.9640536 -44.805973 -9.4395905 -50.48032 -13.566085 110.42349 -9.4371672 -50.517212
-5.9500289 -44.874187 -10.598831 -87.22525 -9.4340887 -50.514828 -11.200693 61.152905
234875000 -6.8228364 126.84566 -5.9365788 -49.740822 -5.9421086 -49.631618 -5.9296937 -49.725704
-5.9335284 -49.724068 -11.774012 51.738533 -9.7189121 -54.287659 -11.175528 -94.002838
-5.9398732 -49.568447 -9.719883 -54.253613 -14.340688 107.13699 -9.718462 -54.298161
-5.9263339 -49.658527 -11.174217 -93.946709 -9.7140455 -54.300858 -11.753093 51.803566
257362500 -6.9432688 121.78108 -5.9093604 -54.532738 -5.9137368 -54.401394 -5.9038591 -54.519192
-5.9073486 -54.516506 -12.309929 42.818661 -9.9860201 -58.028694 -11.735101 -100.40282
-5.9120941 -54.345436 -9.9876137 -58.003567 -15.089545 104.27396 -9.9876757 -58.050972
-5.9001074 -54.45834 -11.734208 -100.35083 -9.982234 -58.058105 -12.28184 42.868248
279850000 -7.0740185 116.71161 -5.8798466 -59.343082 -5.8832221 -59.195862 -5.8759432 -59.331245
-5.8780832 -59.326115 -12.826485 34.243538 -10.245849 -61.770203 -12.275651 -106.53098
-5.8816438 -59.140984 -10.246787 -61.744507 -15.818078 101.78982 -10.248 -61.79594
-5.8720355 -59.272465 -12.274324 -106.48798 -10.242442 -61.804039 -12.78857 34.298321
302337500 -7.2159486 111.65241 -5.8485718 -64.161469 -5.8500428 -64.006493 -5.8450384 -64.153053
-5.8465862 -64.146561 -13.326199 25.972063 -10.501979 -65.529907 -12.795286 -112.44825
-5.8485928 -63.9473 -10.504157 -65.494331 -16.530062 99.693008 -10.505594 -65.55043
-5.8414803 -64.094643 -12.79407 -112.40753 -10.499167 -65.567528 -13.276528 26.046503
324825000 -7.3677406 106.59933 -5.8154225 -68.998131 -5.8148518 -68.833061 -5.8126345 -68.989983
-5.8137665 -68.979553 -13.808311 17.936874 -10.758812 -69.305412 -13.292583 -118.21189
-5.8132052 -68.773689 -10.760134 -69.266426 -17.225342 97.949089 -10.761984 -69.323257
-5.8095307 -68.928551 -13.291298 -118.16048 -10.756362 -69.34182 -13.74505 18.075293
347312500 -7.533309 101.54384 -5.7818499 -73.844635 -5.7786136 -73.669907 -5.7795262 -73.836731
-5.7795525 -73.830009 -14.273567 10.103798 -11.01835 -73.101784 -13.76795 -123.83855
-5.7767982 -73.613426 -11.020228 -73.056664 -17.909233 96.583542 -11.022148 -73.121475
-5.7761316 -73.776466 -13.767701 -123.78797 -11.017365 -73.139511 -14.201432 10.338493
369800000 -7.7121782 96.470436 -5.745636 -78.712067 -5.73909 -78.536034 -5.7450104 -78.70784
-5.7446818 -78.701965 -14.718677 2.4684176 -11.283909 -76.907799 -14.227017 -129.37279
-5.7391696 -78.476311 -11.287112 -76.855888 -18.575031 95.556259 -11.290199 -76.924347
-5.7418003 -78.644562 -14.226407 -129.30704 -11.283637 -76.9422 -14.645438 2.8300869
392287500 -7.9031148 91.392006 -5.7091508 -83.596008 -5.7005033 -83.41188 -5.7101011 -83.58316
-5.7088571 -83.583649 -15.149585 -4.9892836 -11.558254 -80.730453 -14.668482 -134.83916
-5.7007656 -83.359451 -11.56112 -80.684853 -19.223862 94.892403 -11.566136 -80.750977
-5.7061315 -83.525574 -14.665437 -134.7652 -11.558044 -80.755493 -15.079506 -4.4982228
414775000 -8.1090326 86.319817 -5.6719804 -88.501472 -5.6601381 -88.302467 -5.6728649 -88.479424
-5.6714168 -88.478546 -15.571257 -12.266442 -11.844032 -84.569267 -15.091961 -140.25652
-5.6611819 -88.253761 -11.847383 -84.527817 -19.843151 94.560814 -11.851585 -84.590172
-5.6688151 -88.421272 -15.089348 -140.19542 -11.843243 -84.591469 -15.506597 -11.65913
437262500 -8.3309669 81.236 -5.6332164 -93.418755 -5.6190228 -93.212379 -5.6336107 -93.386597
-5.6329246 -93.39183 -15.986719 -19.354467 -12.143072 -88.427521 -15.501031 -145.67232
-5.6194072 -93.164879 -12.14578 -88.382027 -20.421618 94.546219 -12.14887 -88.449211
-5.6299129 -93.329651 -15.49652 -145.60783 -12.141427 -88.444283 -15.928074 -18.671137
459750000 -8.5711145 76.154846 -5.5946589 -98.353508 -5.5769157 -98.149292 -5.5934753 -98.316429
-5.5940437 -98.325867 -16.398064 -26.284702 -12.453469 -92.298553 -15.893517 -151.06932
-5.5777221 -98.097977 -12.456552 -92.242409 -20.952227 94.814751 -12.458295 -92.312874
-5.5919304 -98.260262 -15.89089 -151.01201 -12.451343 -92.312424 -16.349482 -25.549646
482237500 -8.8312731 71.067223 -5.5558186 -103.30161 -5.5349731 -103.10559 -5.553947 -103.26212
-5.5552554 -103.27824 -16.813501 -33.066727 -12.780289 -96.175591 -16.274824 -156.49571
-5.5357389 -103.05097 -12.782592 -96.116844 -21.415386 95.313446 -12.784762 -96.191071
-5.5524807 -103.20551 -16.271763 -156.4308 -12.777034 -96.192039 -16.772823 -32.310684
504725000 -9.114049 65.98526 -5.51648 -108.278 -5.4921727 -108.08118 -5.5139408 -108.23086
-5.516263 -108.24688 -17.232658 -39.723198 -13.124494 -100.04993 -16.646069 -161.94672
-5.4941578 -108.02251 -13.127245 -99.994896 -21.802618 95.957367 -13.127777 -100.06953
-5.5134721 -108.17068 -16.643906 -161.88348 -13.121723 -100.07008 -17.19945 -38.948769
527212500 -9.4186039 60.903126 -5.4767394 -113.26948 -5.4499087 -113.08126 -5.4743347 -113.22218
-5.4764957 -113.23348 -17.659164 -46.263939 -13.487152 -103.92643 -17.009438 -167.4395
-5.4526396 -113.01736 -13.491403 -103.87755 -22.105543 96.726524 -13.491283 -103.9519
-5.4737387 -113.15446 -17.00724 -167.37935 -13.484571 -103.95538 -17.633112 -45.484715
549700000 -9.745533 55.831364 -5.4365959 -118.2801 -5.4080553 -118.09786 -5.4341993 -118.23455
-5.4368663 -118.24373 -18.095564 -52.674187 -13.871482 -107.79026 -17.36623 -172.98801
-5.4106174 -118.03731 -13.875339 -107.74662 -22.320328 97.516556 -13.874143 -107.8298
-5.433774 -118.16465 -17.364054 -172.91934 -13.867292 -107.82629 -18.072327 -51.9118
572187500 -10.096384 50.784031 -5.3978176 -123.30585 -5.3672409 -123.13412 -5.3943057 -123.2589
-5.3966694 -123.27026 -18.548027 -58.996147 -14.278625 -111.6612 -17.714846 -178.59344
-5.3691316 -123.07394 -14.282555 -111.61008 -22.448105 98.346291 -14.279416 -111.70392
-5.3940606 -123.18791 -17.713989 -178.53653 -14.27417 -111.70505 -18.520731 -58.221832
594675000 -10.474715 45.764019 -5.3595476 -128.35333 -5.3264852 -128.18225 -5.3552566 -128.30466
-5.358201 -128.3167 -19.013847 -65.231842 -14.710176 -115.51263 -18.05818 175.72934
-5.3290138 -128.12675 -14.71524 -115.45963 -22.494959 99.098442 -14.709284 -115.55272
-5.3555279 -128.2363 -18.057594 175.76453 -14.704459 -115.56564 -18.985378 -64.445488
617162500 -10.879289 40.781754 -5.3220038 -133.41667 -5.2869644 -133.25792 -5.3174362 -133.3712
-5.3209963 -133.38457 -19.499294 -71.369255 -15.167522 -119.33966 -18.397928 169.9528
-5.2908731 -133.19919 -15.173923 -119.28495 -22.478115 99.725685 -15.166653 -119.38025
-5.3190861 -133.29904 -18.398113 170.0011 -15.160502 -119.39724 -19.467558 -70.555069
639650000 -11.313188 35.821507 -5.2856579 -138.49973 -5.249661 -138.3457 -5.2815943 -138.45537
-5.2849369 -138.46992 -20.002451 -77.447403 -15.655799 -123.13394 -18.73237 164.08977
-5.2534933 -138.29071 -15.661136 -123.09445 -22.406464 100.16427 -15.652037 -123.18581
-5.2832747 -138.3867 -18.732719 164.1292 -15.646019 -123.2037 -19.968431 -76.590065
662137500 -11.780178 30.924471 -5.2513695 -143.59915 -5.2136774 -143.4543 -5.2471838 -143.55882
-5.2499084 -143.57265 -20.531849 -83.409782 -16.177717 -126.88995 -19.068659 158.10655
-5.2173314 -143.39726 -16.183027 -126.85615 -22.296932 100.28941 -16.172092 -126.9463
-5.2481761 -143.4845 -19.06846 158.1562 -16.165089 -126.97009 -20.490261 -82.51384
684625000 -12.283235 26.06982 -5.2188482 -148.7182 -5.1792331 -148.57436 -5.2141895 -148.67004
-5.217083 -148.68825 -21.084867 -89.314491 -16.733213 -130.59209 -19.403463 152.04378
-5.1836791 -148.51826 -16.740238 -130.56671 -22.168348 100.10751 -16.725805 -130.66211
-5.2158632 -148.59924 -19.403809 152.0945 -16.719124 -130.68626 -21.029488 -88.331757
707112500 -12.823254 21.251457 -5.187304 -153.84227 -5.1473107 -153.70683 -5.1837568 -153.79456
-5.1859641 -153.81845 -21.657267 -95.137932 -17.325951 -134.2339 -19.738604 145.88123
-5.1509824 -153.65205 -17.330959 -134.20087 -22.03614 99.596039 -17.316471 -134.31895
-5.1847343 -153.72609 -19.736656 145.9362 -17.308481 -134.33362 -21.58922 -94.04615
729600000 -13.407073 16.515444 -5.1586499 -158.98141 -5.1172175 -158.84872 -5.1549468 -158.93111
-5.1570873 -158.96082 -22.260193 -100.8461 -17.963182 -137.77188 -20.072334 139.60945
-5.1201229 -158.79817 -17.967554 -137.74452 -21.906683 98.691154 -17.951954 -137.88036
-5.1558728 -158.86836 -20.072617 139.6424 -17.944578 -137.89313 -22.179951 -99.585838
752087500 -14.040764 11.889848 -5.1321349 -164.1302 -5.088654 -164.00865 -5.1285496 -164.07497
-5.1301045 -164.11177 -22.895134 -106.47408 -18.650032 -141.21935 -20.408159 133.2074
-5.0919547 -163.95369 -18.652828 -141.18996 -21.784224 97.435143 -18.635334 -141.34052
-5.1288066 -164.01237 -20.407095 133.23236 -18.628881 -141.35263 -22.807467 -104.98903
774575000 -14.727035 7.4074378 -5.107728 -169.29065 -5.0626106 -169.17154 -5.1039085 -169.23143
-5.1060443 -169.27158 -23.564945 -111.96265 -19.391727 -144.51506 -20.742634 126.66974
-5.0663095 -169.12279 -19.393843 -144.50485 -21.67528 95.808914 -19.371702 -144.66377
-5.1046343 -169.17053 -20.7418 126.70097 -19.366194 -144.6705 -23.477724 -110.26988
797062500 -15.475146 3.0718696 -5.0852809 -174.45282 -5.0391345 -174.3472 -5.0810399 -174.39165
-5.0835571 -174.43732 -24.279076 -117.25626 -20.194771 -147.6046 -21.079935 120.02753
-5.0426817 -174.29729 -20.1945 -147.60593 -21.584299 93.871536 -20.170872 -147.79739
-5.0820956 -174.33313 -21.081245 120.06471 -20.16597 -147.78244 -24.185764 -115.33705
819550000 -16.295597 -1.0248724 -5.0652676 -179.62401 -5.0175576 -179.52666 -5.0605574 -179.55904
-5.063045 -179.60719 -25.032293 -122.41907 -21.065018 -150.4584 -21.416252 113.25748
-5.0203834 -179.47859 -21.06406 -150.46577 -21.505569 91.67485 -21.035769 -150.70105
-5.0609283 -179.50394 -21.415628 113.29485 -21.033684 -150.6853 -24.939425 -120.26629
842037500 -17.193636 -4.8491135 -5.0475307 175.20056 -4.9982357 175.28433 -5.0421386 175.26994
-5.0452542 175.21909 -25.847658 -127.26354 -22.01498 -152.93178 -21.756357 106.35561
-5.0013742 175.34285 -22.011965 -152.94795 -21.454771 89.233055 -21.983936 -153.21344
-5.0432906 175.32632 -21.75679 106.40102 -21.981541 -153.20926 -25.753637 -124.82885
864525000 -18.18276 -8.2635918 -5.0309181 170.02217 -4.9814048 170.09932 -5.0269027 170.09741
-5.0301576 170.04076 -26.730553 -131.88332 -23.050732 -154.92944 -22.095024 99.330902
-4.9846969 170.15443 -23.049658 -154.95412 -21.427809 86.647293 -23.015472 -155.27408
-5.0278478 170.14685 -22.095684 99.380089 -23.020685 -155.27936 -26.627741 -129.12485
887012500 -19.276062 -11.082121 -5.0178061 164.84534 -4.9671793 164.91022 -5.0134125 164.91788
-5.0167427 164.86441 -27.70636 -136.15118 -24.193069 -156.24858 -22.428148 92.169739
-4.9704661 164.96684 -24.187738 -156.27463 -21.422573 83.909828 -24.154491 -156.66603
-5.0145297 164.96967 -22.430239 92.205391 -24.159658 -156.67757 -27.587404 -132.97841
909500000 -20.485634 -13.046978 -5.0071001 159.66464 -4.9549403 159.71851 -5.0015054 159.7403
-5.0054722 159.68604 -28.777063 -140.04108 -25.431746 -156.57547 -22.761154 84.862068
-4.9586306 159.77669 -25.423046 -156.62245 -21.44488 81.055405 -25.393578 -157.11806
-5.0029659 159.79225 -22.765488 84.888771 -25.397842 -157.12411 -28.626392 -136.34836
931987500 -21.802111 -13.693413 -4.9977674 154.48875 -4.9452362 154.53055 -4.9928885 154.56461
-4.996737 154.50757 -29.960796 -143.3741 -26.739672 -155.55061 -23.095737 77.440742
-4.9491062 154.58783 -26.729158 -155.61354 -21.501223 78.176514 -26.704468 -156.21292
-4.994103 154.61725 -23.098196 77.474136 -26.711641 -156.18947 -29.723696 -139.12598
954475000 -23.177616 -12.516143 -4.9906292 149.31155 -4.9377284 149.35013 -4.9858112 149.3916
-4.9898939 149.33252 -31.259649 -146.13777 -28.054276 -152.69753 -23.423752 69.916862
-4.9413629 149.40254 -28.04553 -152.76698 -21.588779 75.25354 -28.044191 -153.4846
-4.9872894 149.4404 -23.426613 69.952339 -28.048086 -153.49669 -30.913464 -140.98332
976962500 -24.489815 -9.2086401 -4.985323 144.14085 -4.9322319 144.1725 -4.9812822 144.22195
-4.985393 144.16483 -32.685936 -147.67203 -29.270241 -147.86902 -23.747751 62.250084
-4.9353352 144.22485 -29.258133 -147.90147 -21.717007 72.298073 -29.291058 -148.75371
-4.9819846 144.27327 -23.747183 62.279495 -29.285084 -148.75778 -32.166218 -141.5
999450000 -25.620989 -3.8888736 -4.982305 138.97333 -4.9284544 138.99478 -4.9783683 139.05296
-4.9821224 139 -34.189564 -147.64928 -30.276287 -141.42758 -24.062729 54.445274
-4.9311271 139.04877 -30.263403 -141.41409 -21.875793 69.337029 -30.326658 -142.31775
-4.9785094 139.10875 -24.060049 54.48452 -30.323599 -142.37061 -33.44215 -140.33583
1021937500 -26.479597 2.7806516 -4.9805861 133.80748 -4.9269466 133.8233 -4.9773383 133.89442
-4.980689 133.83675 -35.674427 -145.39243 -31.028351 -133.83528 -24.371584 46.564407
-4.9287491 133.87764 -31.016386 -133.82344 -22.072865 66.367073 -31.110729 -134.69096
-4.9766192 133.94493 -24.367994 46.596607 -31.10508 -134.75455 -34.663807 -137.35097
1044425000 -27.042231 10.244169 -4.9805694 128.65637 -4.9269395 128.66273 -4.977819 128.73981
-4.9809642 128.67831 -36.990898 -140.98463 -31.488346 -125.66605 -24.669872 38.554054
-4.9282002 128.70746 -31.479237 -125.65964 -22.306334 63.438072 -31.593431 -126.47791
-4.9765716 128.78813 -24.664454 38.601238 -31.59436 -126.521 -35.688168 -132.76331
1066912500 -27.302759 18.039013 -4.9822407 123.509 -4.9282775 123.50729 -4.9790139 123.59425
-4.9816313 123.534 -38.006023 -134.78557 -31.654831 -117.35093 -24.956814 30.437342
-4.9285336 123.55366 -31.643818 -117.34168 -22.576609 60.543339 -31.786274 -118.09281
-4.977118 123.64611 -24.949457 30.490723 -31.779785 -118.08512 -36.462761 -127.01346
1089400000 -27.247463 25.786386 -4.9845152 118.36737 -4.9306078 118.35942 -4.9815698 118.45583
-4.9849854 118.39327 -38.686298 -127.44634 -31.531094 -109.2534 -25.233555 22.244076
-4.9304686 118.40385 -31.521851 -109.23109 -22.88888 57.713364 -31.680466 -109.8464
-4.9797544 118.50893 -25.22641 22.322926 -31.672863 -109.82964 -36.950394 -120.60792
1111887500 -26.876986 33.040356 -4.9881783 113.23593 -4.9343028 113.22339 -4.9855947 113.32699
-4.9887948 113.26341 -39.05175 -119.54192 -31.126488 -101.80153 -25.488466 13.989915
-4.9336333 113.26698 -31.118603 -101.7858 -23.237581 54.97427 -31.289207 -102.23528
-4.9834814 113.37988 -25.48439 14.077003 -31.283636 -102.23491 -37.16082 -113.84655
1134375000 -26.218821 39.215137 -4.9935179 108.11111 -4.938365 108.09622 -4.9897494 108.20455
-4.9931211 108.13929 -39.098179 -111.56374 -30.476189 -95.553978 -25.733568 5.6791883
-4.9377341 108.1356 -30.464418 -95.536308 -23.615568 52.387371 -30.646498 -95.818222
-4.9879737 108.25652 -25.731731 5.767302 -30.640038 -95.835159 -37.135632 -107.20809
1156862500 -25.321472 43.675671 -4.9990625 102.9966 -4.9433913 102.97148 -4.9947972 103.08876
-4.9991312 103.02916 -38.851643 -103.74198 -29.640694 -91.050026 -25.969801 -2.6989462
-4.943655 103.01237 -29.631582 -91.021416 -24.036898 49.979069 -29.802841 -91.120743
-4.9942918 103.14405 -25.965387 -2.6086586 -29.799623 -91.103226 -36.829506 -101.12919
1179350000 -24.31328 46.032406 -5.0050492 97.889084 -4.9491177 97.853897 -5.0006285 97.985489
-5.0046291 97.919823 -38.289684 -96.904396 -28.72983 -88.486855 -26.18774 -11.050286
-4.9495578 97.894737 -28.726931 -88.491928 -24.489443 47.775066 -28.879265 -88.389717
-5.0000801 98.036667 -26.187435 -10.970556 -28.886194 -88.377487 -36.278118 -96.080612
1201837500 -23.313559 46.342422 -5.0109644 92.792809 -4.9547257 92.749435 -5.006711 92.892578
-5.011579 92.822388 -37.482132 -91.5839 -27.858822 -87.630203 -26.394966 -19.44113
-4.9564972 92.791336 -27.856081 -87.68943 -24.983881 45.862175 -27.990078 -87.445305
-5.0068789 92.942505 -26.396282 -19.356646 -27.99411 -87.400032 -35.529121 -92.556183
1224325000 -22.410095 45.168259 -5.0173821 87.709259 -4.960794 87.655762 -5.0128059 87.805725
-5.0179896 87.734985 -36.504524 -88.474785 -27.064142 -88.10141 -26.5884 -27.892103
