! MARKI MICROWAVE INC.
! Email:             	info@markimicrowave.com   				Phone:   408-778-4200
! Model Number:      	PD3-0126						Date:    10/12
! Filename:		PD3_0126.S4P						Version: 1.0
! Description:       	4-port S-parameter data for Power Divider PD3-0126
! Frequency Range: 	10 MHz to 26.5 GHz		
! Port Configuration:	PORT 1: Common, 
!			PORT 2, PORT 3, PORT 4: Output


! S4P File: Measurements: Mag<S11> Ang<S11> Mag<S12> Ang<S12> Mag<S13> Ang<S13> Mag<S14> Ang<S14>! row 1 
!			  Mag<S21> Ang<S21> Mag<S22> Ang<S22> Mag<S23> Ang<S23> Mag<S24> Ang<S24>! row 2 
!			  Mag<S31> Ang<S31> Mag<S32> Ang<S32> Mag<S33> Ang<S33> Mag<S34> Ang<S34>! row 3 
!			  Mag<S41> Ang<S41> Mag<S42> Ang<S42> Mag<S43> Ang<S43> Mag<S44> Ang<S44>! row 4	

# Hz S  dB   R 50
10000000 -6.1122303 173.9124 -6.0340762 -5.8376355 -6.0507369 -6.6371412 -6.0442452 -6.4661994
-6.0289173 -6.0279884 -6.3866796 163.31894 -6.2919326 -10.141903 -6.2284594 -13.327806
-6.0685825 -5.3176699 -6.3158202 -8.6426716 -6.549243 165.7361 -6.3290925 -9.2240372
-6.0369763 -5.0882382 -6.2227168 -11.715229 -6.308219 -9.1390181 -6.377501 163.11368
43112500 -6.1260071 171.55585 -6.0320601 -8.057456 -6.0580606 -8.8207855 -6.0424528 -8.5684376
-6.0281167 -8.2128859 -6.5428596 157.06517 -6.4405012 -13.310164 -6.3368874 -17.887983
-6.0728688 -7.7785168 -6.4597397 -12.123696 -6.8035564 160.84891 -6.4725871 -12.582978
-6.0360785 -7.4808517 -6.3315997 -16.612631 -6.4548564 -12.516193 -6.5359735 156.87555
76225000 -6.1434274 168.72563 -6.0291343 -10.726821 -6.0664005 -11.453255 -6.04006 -11.121849
-6.0252314 -10.846585 -6.7462034 149.705 -6.6248107 -16.975191 -6.4839339 -23.314941
-6.0779014 -10.694028 -6.6401005 -16.102741 -7.1275806 155.23943 -6.6525655 -16.440105
-6.0338502 -10.32692 -6.4798255 -22.376959 -6.6377101 -16.388901 -6.7412705 149.52
109337500 -6.1651936 165.43506 -6.0250068 -13.853745 -6.0758138 -14.545083 -6.036952 -14.12643
-6.0221772 -13.939516 -6.9974222 141.27907 -6.8427453 -21.105957 -6.6729202 -29.574017
-6.0835533 -14.057862 -6.8530059 -20.539724 -7.5213485 148.98582 -6.8661299 -20.749119
-6.0316138 -13.618623 -6.6695833 -28.969879 -6.8539643 -20.718086 -6.9932566 141.10597
142450000 -6.1923046 161.6736 -6.0182314 -17.433451 -6.0847325 -18.084208 -6.0315518 -17.585163
-6.0166478 -17.483696 -7.297698 131.83423 -7.0920396 -25.673733 -6.9068084 -36.627773
-6.0890012 -17.872478 -7.0983 -25.414576 -7.9845343 142.14165 -7.1106901 -25.492556
-6.0269837 -17.367741 -6.9040022 -36.353279 -7.102262 -25.485106 -7.2938228 131.67316
175562500 -6.2246914 157.44252 -6.0111547 -21.467897 -6.0935397 -22.081005 -6.025475 -21.506639
-6.0099874 -21.484493 -7.6446338 121.41335 -7.3698745 -30.65657 -7.1874437 -44.443203
-6.0936589 -22.148239 -7.3719931 -30.706356 -8.5138493 134.75139 -7.3841057 -30.660065
-6.0210104 -21.574966 -7.1851406 -44.49828 -7.3792925 -30.667414 -7.6409841 121.24661
208675000 -6.2604156 153.23788 -6.0019174 -25.532562 -6.0997906 -26.215971 -6.0166507 -25.603981
-6.0012317 -25.548138 -8.0218048 111.41532 -7.6582065 -35.436909 -7.5060024 -52.208477
-6.0987329 -26.246391 -7.6595287 -35.446011 -9.0847492 127.99313 -7.671494 -35.421841
-6.01087 -25.635448 -7.5019994 -52.225086 -7.6662617 -35.42601 -8.0179529 111.22858
241787500 -6.3008986 149.04262 -5.9897051 -29.608351 -6.1042457 -30.326874 -6.0067587 -29.698708
-5.9882603 -29.621664 -8.4240379 101.81032 -7.9453173 -39.87944 -7.8555903 -59.687363
-6.103106 -30.333155 -7.9474392 -39.865704 -9.6763449 121.84522 -7.9604239 -39.843143
-6.0004578 -29.697506 -7.8512478 -59.67173 -7.9540329 -39.836906 -8.4170895 101.59273
274900000 -6.3447313 144.86681 -5.9754963 -33.682499 -6.1047378 -34.417919 -5.9946408 -33.782539
-5.9741549 -33.697788 -8.8413715 92.590065 -8.2224979 -44.03463 -8.2288866 -66.86544
-6.1045752 -34.421528 -8.2259512 -44.022289 -10.273306 116.27139 -8.2391529 -43.992535
-5.9898982 -33.777039 -8.2270603 -66.84668 -8.2335711 -43.979473 -8.8284693 92.347183
308012500 -6.3922663 140.69122 -5.9610639 -37.766628 -6.1032314 -38.496716 -5.9827404 -37.87204
-5.9597778 -37.78001 -9.2676067 83.691246 -8.4856291 -47.977772 -8.6216593 -73.763039
-6.1038694 -38.497791 -8.4904509 -47.965008 -10.867728 111.15826 -8.5043831 -47.925549
-5.9784956 -37.861507 -8.6206036 -73.746742 -8.4982033 -47.911114 -9.248086 83.440155
341125000 -6.4416847 136.50662 -5.9452991 -41.863491 -6.0999565 -42.577423 -5.968523 -41.964115
-5.9429898 -41.877796 -9.6952362 75.083038 -8.7347374 -51.772919 -9.0265026 -80.389336
-6.0987582 -42.568016 -8.7387972 -51.756229 -11.452971 106.43788 -8.753067 -51.6992
-5.9650698 -41.941067 -9.0261831 -80.374344 -8.7471514 -51.685631 -9.6662006 74.840767
374237500 -6.4960594 132.33011 -5.929215 -45.967712 -6.0935626 -46.666981 -5.9541025 -46.062542
-5.9279027 -45.979374 -10.117456 66.746277 -8.9678936 -55.463848 -9.4382896 -86.772881
-6.0925531 -46.645531 -8.9721594 -55.442116 -12.026792 102.01944 -8.9859161 -55.365181
-5.9516821 -46.029648 -9.4381123 -86.748436 -8.9802456 -55.358017 -10.081388 66.537338
407350000 -6.5546212 128.14307 -5.9123192 -50.069256 -6.0853472 -50.752041 -5.9390621 -50.162109
-5.9108219 -50.080551 -10.532342 58.669777 -9.1876059 -59.078957 -9.8528357 -92.908844
-6.0841699 -50.7314 -9.1919746 -59.060326 -12.586069 97.84407 -9.2048111 -58.967033
-5.9366655 -50.130924 -9.8525028 -92.878235 -9.1997318 -58.960514 -10.493095 58.489506
440462500 -6.6170378 123.96057 -5.8955555 -54.177437 -6.0755434 -54.844616 -5.9234905 -54.263374
-5.8935261 -54.186691 -10.938814 50.834229 -9.395854 -62.645035 -10.266347 -98.823547
-6.0738311 -54.82584 -9.398942 -62.629257 -13.128434 93.867065 -9.4119759 -62.524059
-5.9209852 -54.231316 -10.265694 -98.799675 -9.4068403 -62.514004 -10.895739 50.668209
473575000 -6.6832223 119.77908 -5.8760743 -58.284397 -6.0638447 -58.938084 -5.9054475 -58.362717
-5.8742638 -58.295578 -11.339378 43.20715 -9.596756 -66.184708 -10.675259 -104.5508
-6.0621653 -58.921024 -9.5989695 -66.172119 -13.651475 90.110146 -9.6110983 -66.049484
-5.9038396 -58.335377 -10.675257 -104.52699 -9.6058378 -66.042686 -11.289527 43.068497
506687500 -6.7549438 115.59836 -5.8563848 -62.400398 -6.0505791 -63.035419 -5.8867908 -62.470776
-5.8541327 -62.409481 -11.731624 35.725136 -9.7878428 -69.707405 -11.07778 -110.10749
-6.0494881 -63.017807 -9.7908678 -69.696182 -14.159382 86.530907 -9.8017836 -69.563904
-5.8864369 -62.440811 -11.078745 -110.07919 -9.7965975 -69.554092 -11.673781 35.633217
539800000 -6.8307533 111.41414 -5.8357596 -66.527565 -6.0366411 -67.141464 -5.8671117 -66.582817
-5.8344841 -66.532951 -12.11123 28.376802 -9.9742393 -73.224571 -11.47384 -115.50742
-6.0354538 -67.118317 -9.9775534 -73.213028 -14.656864 83.131042 -9.987052 -73.061562
-5.8672261 -66.551315 -11.474883 -115.48422 -9.9823666 -73.056244 -12.048137 28.342709
572912500 -6.911799 107.22189 -5.8153191 -70.66404 -6.0214262 -71.249023 -5.8475752 -70.70018
-5.8138847 -70.665863 -12.478361 21.146614 -10.157706 -76.744888 -11.86315 -120.77782
-6.0200915 -71.225349 -10.160351 -76.729004 -15.148096 79.898842 -10.168313 -76.561478
-5.8469253 -70.673004 -11.862631 -120.75508 -10.162871 -76.558975 -12.413491 21.187656
606025000 -6.9978447 103.02677 -5.7929182 -74.805527 -6.004251 -75.362526 -5.8255539 -74.819862
-5.7921233 -74.809669 -12.828674 14.068528 -10.339149 -80.26796 -12.243189 -125.93107
-6.0028539 -75.338364 -10.340914 -80.250359 -15.636214 76.80323 -10.346753 -80.061913
-5.8244948 -74.803986 -12.241506 -125.91415 -10.341193 -80.066589 -12.767346 14.160592
639137500 -7.0909519 98.834549 -5.7711387 -78.947166 -5.9857554 -79.485016 -5.8042655 -78.95433
-5.7705803 -78.948769 -13.168959 7.1435547 -10.518705 -83.793243 -12.615216 -130.99594
-5.9848642 -79.46814 -10.522096 -83.770813 -16.121424 73.828987 -10.525628 -83.580444
-5.802083 -78.947388 -12.612978 -130.96883 -10.519624 -83.583717 -13.112309 7.2544532
672250000 -7.1895375 94.638496 -5.7477851 -83.098328 -5.965888 -83.612823 -5.7806635 -83.095413
-5.7464161 -83.099098 -13.502363 0.34395036 -10.697577 -87.314621 -12.977271 -135.95006
-5.9656487 -83.599197 -10.701793 -87.29129 -16.605286 70.985237 -10.703324 -87.099632
-5.7787271 -83.093033 -12.974865 -135.92955 -10.697514 -87.100365 -13.446563 0.44378278
705362500 -7.2927527 90.444748 -5.7235041 -87.256348 -5.9450555 -87.74929 -5.7561932 -87.247101
-5.7219729 -87.25602 -13.832221 -6.3687148 -10.878987 -90.845909 -13.330503 -140.84421
-5.9448867 -87.740028 -10.883515 -90.819778 -17.08555 68.30365 -10.88275 -90.630211
-5.7536678 -87.246498 -13.32883 -140.82736 -10.877277 -90.626106 -13.770049 -6.2713084
738475000 -7.4011188 86.25811 -5.6983151 -91.423653 -5.9225826 -91.894249 -5.7310128 -91.407516
-5.6967149 -91.423569 -14.153093 -13.028627 -11.060935 -94.391396 -13.673227 -145.68503
-5.9240127 -91.879181 -11.067883 -94.363205 -17.56242 65.817482 -11.065006 -94.16716
-5.7294607 -91.402924 -13.672457 -145.66209 -11.058462 -94.158661 -14.086366 -12.889053
771587500 -7.5160103 82.077339 -5.6733642 -95.60363 -5.8994441 -96.046242 -5.7062564 -95.575256
-5.6719179 -95.597954 -14.462652 -19.627567 -11.245213 -97.936607 -14.00806 -150.46381
-5.9022541 -96.020546 -11.253824 -97.90564 -18.045815 63.483448 -11.249164 -97.706665
-5.7046561 -95.564384 -14.007712 -150.44305 -11.241063 -97.69854 -14.396522 -19.427532
804700000 -7.6356602 77.883461 -5.6474934 -99.790527 -5.8772278 -100.20564 -5.6814971 -99.749664
-5.6470613 -99.781906 -14.7605 -26.118353 -11.436478 -101.49023 -14.336801 -155.20737
-5.8787856 -100.17961 -11.443151 -101.4603 -18.531515 61.323475 -11.436817 -101.25334
-5.6786284 -99.738655 -14.334728 -155.19974 -11.429173 -101.24731 -14.701959 -25.88283
837812500 -7.7623796 73.68782 -5.6216784 -103.97821 -5.8521509 -104.37171 -5.6550131 -103.93022
-5.6208224 -103.97584 -15.05335 -32.497787 -11.631917 -105.04996 -14.656833 -159.93217
-5.8551464 -104.34715 -11.638939 -105.01416 -19.013985 59.292717 -11.630097 -104.80761
-5.6528969 -103.9228 -14.656253 -159.91826 -11.622587 -104.80348 -15.000575 -32.257744
870925000 -7.8961968 69.487999 -5.5947948 -108.17184 -5.826992 -108.55137 -5.6281409 -108.12189
-5.5936289 -108.16965 -15.341271 -38.783821 -11.831359 -108.60606 -14.971588 -164.61601
-5.8295813 -108.52946 -11.838871 -108.57554 -19.495741 57.405193 -11.828445 -108.36755
-5.6264138 -108.11241 -14.97051 -164.60953 -11.821164 -108.36329 -15.293216 -38.584167
904037500 -8.0365353 65.291901 -5.5685668 -112.37513 -5.801631 -112.73711 -5.6007891 -112.32233
-5.5672073 -112.37486 -15.632128 -45.026463 -12.036665 -112.16419 -15.277921 -169.28459
-5.8047271 -112.72066 -12.044191 -112.14342 -19.962872 55.724258 -12.032021 -111.93447
-5.6001048 -112.31228 -15.27791 -169.27875 -12.024752 -111.92702 -15.580635 -44.859455
937150000 -8.1834497 61.089874 -5.5406756 -116.58895 -5.7753682 -116.93534 -5.5733633 -116.5313
-5.5393457 -116.58618 -15.919678 -51.238598 -12.248032 -115.72684 -15.578952 -173.93607
-5.7791286 -116.91869 -12.255241 -115.71208 -20.413328 54.273464 -12.242176 -115.49928
-5.5727057 -116.52055 -15.578434 -173.94273 -12.23427 -115.49461 -15.866325 -51.091064
970262500 -8.3374748 56.888828 -5.5132113 -120.80666 -5.7499089 -121.13467 -5.5457182 -120.74586
-5.5119696 -120.80545 -16.20159 -57.427547 -12.467644 -119.29896 -15.872398 -178.60181
-5.7531118 -121.12095 -12.47312 -119.28735 -20.849125 53.148445 -12.458838 -119.07483
-5.5450201 -120.73434 -15.872788 -178.60008 -12.45082 -119.0648 -16.148197 -57.265087
1003375000 -8.4993191 52.696594 -5.4849052 -125.03561 -5.7226119 -125.34785 -5.5172987 -124.97395
-5.4837384 -125.03841 -16.475653 -63.557629 -12.6929 -122.87262 -16.161566 176.73099
-5.7258964 -125.32971 -12.699337 -122.85816 -21.271183 52.28447 -12.683027 -122.64571
-5.5170951 -124.95688 -16.160524 176.7365 -12.67481 -122.64118 -16.425774 -63.395985
1036487500 -8.6688614 48.494316 -5.4576097 -129.27673 -5.6962037 -129.56882 -5.4896245 -129.20975
-5.4562364 -129.28006 -16.746675 -69.605408 -12.926918 -126.43033 -16.446676 172.07961
-5.6988926 -129.55205 -12.932194 -126.41666 -21.685213 51.638599 -12.912469 -126.20459
-5.4885411 -129.19543 -16.445717 172.07228 -12.905256 -126.20972 -16.699968 -69.485458
1069600000 -8.8474789 44.279305 -5.4299426 -133.52533 -5.6697063 -133.79639 -5.4613476 -133.45358
-5.4285812 -133.53136 -17.020754 -75.61367 -13.167547 -129.99744 -16.725874 167.40521
-5.6716495 -133.78334 -13.172462 -129.98392 -22.078615 51.1982 -13.149597 -129.77429
-5.4605575 -133.44099 -16.723166 167.40179 -13.144157 -129.77676 -16.972588 -75.550186
1102712500 -9.033494 40.078476 -5.4021649 -137.78477 -5.6420689 -138.03786 -5.4326897 -137.71198
-5.4004664 -137.78606 -17.300859 -81.584984 -13.416343 -133.54716 -17.003483 162.71588
-5.6441569 -138.0244 -13.421803 -133.53445 -22.439926 50.935062 -13.396958 -133.33517
-5.4325399 -137.69629 -17.001274 162.71419 -13.390914 -133.33966 -17.240221 -81.586266
1135825000 -9.2285357 35.877323 -5.3747611 -142.05031 -5.6150556 -142.28691 -5.405148 -141.97562
-5.3727746 -142.05133 -17.58095 -87.586235 -13.67314 -137.09944 -17.277327 158.01906
-5.616713 -142.27525 -13.678923 -137.08871 -22.766413 50.864239 -13.652435 -136.89735
-5.4052296 -141.96017 -17.274105 158.0087 -13.64567 -136.89708 -17.505024 -87.601624
1168937500 -9.4330473 31.68602 -5.3469911 -146.32762 -5.5879569 -146.5434 -5.3772717 -146.24463
-5.3458309 -146.32761 -17.855936 -93.598946 -13.940949 -140.65573 -17.543291 153.28102
-5.590138 -146.52998 -13.945857 -140.64015 -23.043049 51.023373 -13.917321 -140.45773
-5.3779926 -146.22455 -17.541624 153.28398 -13.911035 -140.45695 -17.772079 -93.570435
1202050000 -9.6469545 27.489218 -5.3193531 -150.61391 -5.5607243 -150.81042 -5.3502116 -150.52393
-5.3179307 -150.61061 -18.122076 -99.566162 -14.219249 -144.20096 -17.810745 148.51227
-5.562098 -150.79694 -14.225138 -144.17714 -23.28019 51.334259 -14.19297 -144.00993
-5.3501787 -150.50476 -17.809086 148.51791 -14.187155 -144.00685 -18.037525 -99.500526
1235162500 -9.8722382 23.308105 -5.2934322 -154.9062 -5.5340776 -155.08249 -5.3239017 -154.81165
-5.2922649 -154.90463 -18.383734 -105.50761 -14.506477 -147.7381 -18.07312 143.7252
-5.5364618 -155.07133 -14.513246 -147.72269 -23.479193 51.795853 -14.478786 -147.56436
-5.3238263 -154.79059 -18.070078 143.73413 -14.471698 -147.5511 -18.301556 -105.44221
1268275000 -10.10778 19.126696 -5.2668724 -159.21268 -5.5072474 -159.37035 -5.2977953 -159.10962
-5.2658777 -159.21124 -18.649853 -111.38067 -14.805603 -151.25706 -18.334854 138.91237
-5.5096731 -159.35434 -14.814812 -151.24225 -23.631859 52.24847 -14.776369 -151.09465
-5.2975397 -159.08638 -18.331238 138.91902 -14.768645 -151.08415 -18.567501 -111.35309
1301387500 -10.356459 14.943064 -5.2414041 -163.52811 -5.4813676 -163.66493 -5.2716503 -163.41336
-5.2405744 -163.51872 -18.919172 -117.24363 -15.117695 -154.76646 -18.593948 134.06087
-5.4842734 -163.64731 -15.126332 -154.7565 -23.739874 52.662952 -15.08503 -154.62253
-5.2719522 -163.38959 -18.59096 134.06564 -15.076608 -154.60222 -18.835022 -117.237
1334500000 -10.617075 10.780359 -5.2157788 -167.84534 -5.455997 -167.96509 -5.2465081 -167.7251
-5.2159019 -167.83569 -19.193121 -123.11572 -15.443447 -158.26607 -18.851992 129.14934
-5.4588284 -167.95122 -15.451653 -158.26189 -23.795105 53.037895 -15.408375 -158.14529
-5.2466636 -167.70189 -18.847834 129.15623 -15.400279 -158.11192 -19.107388 -123.12617
1367612500 -10.889321 6.6345296 -5.1912298 -172.17009 -5.4306631 -172.27887 -5.2213078 -172.04433
-5.1904163 -172.15985 -19.463875 -128.9398 -15.784917 -161.74152 -19.111681 124.19519
-5.4333215 -172.265 -15.793239 -161.72926 -23.795546 53.287609 -15.747348 -161.63098
-5.2211084 -172.02261 -19.108055 124.19396 -15.738428 -161.60095 -19.38118 -129.00226
1400725000 -11.177292 2.4816756 -5.1681457 -176.49937 -5.4065723 -176.59746 -5.1975322 -176.36963
-5.1662731 -176.49287 -19.730093 -134.75046 -16.140404 -165.20781 -19.36517 119.19187
-5.4082279 -176.5786 -16.148834 -165.18251 -23.755419 53.444221 -16.098709 -165.11053
-5.1962419 -176.34872 -19.361401 119.20064 -16.091537 -165.08206 -19.656002 -134.88251
1433837500 -11.478642 -1.6506802 -5.1446881 179.16144 -5.383316 179.07703 -5.1742487 179.30038
-5.1428676 179.17076 -19.996267 -140.47906 -16.511536 -168.63057 -19.620487 114.14188
-5.3845296 179.09711 -16.520168 -168.59821 -23.680956 53.459324 -16.466888 -168.55562
-5.1724362 179.31882 -19.614523 114.15292 -16.460106 -168.53156 -19.934345 -140.72755
1466950000 -11.794158 -5.7703762 -5.1224575 174.8185 -5.3602114 174.74898 -5.1514535 174.95834
-5.1201148 174.82426 -20.270226 -146.1338 -16.900276 -172.00299 -19.879618 109.04853
-5.3611054 174.76526 -16.909245 -171.96867 -23.585615 53.241329 -16.852541 -171.9604
-5.1492696 174.97385 -19.872225 109.04741 -16.843475 -171.92784 -20.213373 -146.57172
1500062500 -12.125787 -9.8633423 -5.1008949 170.47148 -5.3380361 170.41383 -5.1292186 170.61003
-5.0986252 170.47705 -20.562433 -151.76205 -17.309671 -175.34438 -20.135126 103.87957
-5.3391623 170.43036 -17.316206 -175.32088 -23.4652 52.789639 -17.258154 -175.3369
-5.127018 170.63272 -20.12731 103.87508 -17.247421 -175.30301 -20.498278 -152.43718
1533175000 -12.474353 -13.955043 -5.0802412 166.1176 -5.3164487 166.06888 -5.1075497 166.26031
-5.0779877 166.12202 -20.860268 -157.38985 -17.734671 -178.63762 -20.391451 98.668228
-5.3172889 166.08409 -17.742474 -178.61766 -23.324186 52.072681 -17.676617 -178.664
-5.1060596 166.2784 -20.385239 98.670395 -17.668924 -178.63802 -20.776752 -158.26059
1566287500 -12.839082 -18.014181 -5.0609603 161.76036 -5.2961831 161.71863 -5.0875225 161.90265
-5.058414 161.76372 -21.161989 -163.06261 -18.18306 178.09474 -20.648439 93.399582
-5.2965469 161.7316 -18.188862 178.12961 -23.166279 51.12711 -18.12071 178.04385
-5.0851398 161.91861 -20.64213 93.382545 -18.113052 178.06322 -21.058546 -164.10472
1599400000 -13.220279 -22.024498 -5.0422068 157.39822 -5.2771482 157.36601 -5.0681849 157.54056
-5.0392981 157.39774 -21.465376 -168.68193 -18.652052 174.92839 -20.906366 88.080383
-5.2768927 157.3773 -18.658945 174.96028 -22.994604 49.97028 -18.585201 174.83502
-5.0653572 157.55513 -20.900444 88.043152 -18.58012 174.84032 -21.34057 -169.94839
1632512500 -13.626438 -26.001423 -5.024446 153.03061 -5.2583227 153.00316 -5.0493431 153.17314
-5.0211725 153.03017 -21.772608 -174.22906 -19.145245 171.84074 -21.165924 82.696136
-5.2576938 153.0183 -19.152807 171.87689 -22.817938 48.635334 -19.074373 171.68179
-5.0467615 153.18739 -21.161888 82.659172 -19.067146 171.68805 -21.618055 -175.76802
1665625000 -14.051209 -29.927259 -5.0078635 148.65848 -5.240715 148.63676 -5.0328541 148.80058
-5.005177 148.65913 -22.088451 -179.77747 -19.661484 168.82571 -21.421877 77.257355
-5.2407613 148.65384 -19.669064 168.85545 -22.643738 47.161037 -19.5863 168.5929
-5.0303593 148.81573 -21.420437 77.220985 -19.579636 168.60233 -21.89642 178.45775
1698737500 -14.498161 -33.810528 -4.9922194 144.28531 -5.2240152 144.26807 -5.01648 144.42583
-4.9895978 144.28401 -22.420746 174.68599 -20.208492 165.94113 -21.682158 71.736168
-5.2241802 144.28371 -20.2152 165.95239 -22.477688 45.521515 -20.130512 165.61517
-5.0147972 144.44083 -21.680555 71.697426 -20.123522 165.62856 -22.179478 172.70584
1731850000 -14.970622 -37.636803 -4.9774485 139.90755 -5.2086244 139.89633 -5.0013208 140.04396
-4.9751263 139.90164 -22.760927 169.11026 -20.785229 163.15514 -21.940388 66.16301
-5.2082968 139.90927 -20.788214 163.14429 -22.3214 43.755417 -20.700937 162.74071
-4.9996057 140.06282 -21.939545 66.130531 -20.695789 162.75746 -22.463726 166.95541
1764962500 -15.474619 -41.371178 -4.9636388 135.5247 -5.1944671 135.51547 -4.9880342 135.66147
-4.9615679 135.51912 -23.106443 163.5007 -21.392651 160.50502 -22.198286 60.503845
-5.193552 135.53032 -21.393698 160.48767 -22.170845 41.840771 -21.307339 159.99057
-4.9853673 135.68141 -22.195786 60.481976 -21.301962 159.99672 -22.747923 161.22168
1798075000 -16.00412 -45.04752 -4.951149 131.13629 -5.1810865 131.136 -4.9752393 131.27843
