! MARKI MICROWAVE INC.
! Email:             	info@markimicrowave.com   				Phone:   408-778-4200
! Model Number:      	PD4-0R518							Date:    06/13
! Filename:		PD4_0R518.S5P						Version: 1.0
! Description:       	5-port S-parameter data for 4 Way Power Divider PD4-0R518
! Frequency Range: 	10 MHz to 20.5 GHz		
! Port Configuration:	PORT 1: COMMON
!			PORT 2: Output 1 
!			Port 3: Output 2
!			Port 4: Output 3
!			Port 5: Output 4
! S5P File: Measurements: Mag<S11> Ang<S11> Mag<S12> Ang<S12> Mag<S13> Ang<S13> Mag<S14> Ang<S14> ! row 1
!			  Mag<S15> Ang<S15>
!			  Mag<S21> Ang<S21> Mag<S22> Ang<S22> Mag<S23> Ang<S23> Mag<S24> Ang<S24> ! row 2
!			  Mag<S25> Ang<S25>
!			  Mag<S31> Ang<S31> Mag<S32> Ang<S32> Mag<S33> Ang<S33> Mag<S34> Ang<S34> ! row 3
!			  Mag<S35> Ang<S35>
!			  Mag<S41> Ang<S41> Mag<S42> Ang<S42> Mag<S43> Ang<S43> Mag<S44> Ang<S44> ! row 4
!			  Mag<S45> Ang<S45>
!			  Mag<S51> Ang<S51> Mag<S52> Ang<S52> Mag<S53> Ang<S53> Mag<S54> Ang<S54> ! row 5
!			  Mag<S55> Ang<S55>

# GHz S DB R 50
0.01	-4.64436	167.816	-7.95205	-12.5319	-7.95834	-12.5028	-7.95299	-12.8228
	-7.95694	-11.4119						
	-7.94027	-12.4672	-5.69114	151.279	-7.25894	-3.43121	-8.91862	-31.4917
	-8.8301	-28.9799						
	-7.96587	-12.6495	-7.2652	-3.58383	-5.67921	151.226	-8.93593	-31.5498
	-8.83453	-29.1226						
	-7.9625	-12.973	-8.95721	-31.7026	-8.96666	-31.605	-5.69782	150.912
	-7.29132	-2.60121						
	-7.95814	-11.5619	-8.83446	-29.1796	-8.86429	-29.2848	-7.31534	-2.59202
	-5.54145	153.156						
0.03566	-4.72721	163.213	-7.91974	-17.5553	-7.92692	-17.5499	-7.92379	-17.7989
	-7.9325	-16.2854						
	-7.91137	-17.5063	-6.37137	141.524	-7.02706	-6.81689	-9.38309	-42.1086
	-9.30354	-39.8434						
	-7.93487	-17.6662	-7.0332	-6.93456	-6.36486	141.438	-9.39967	-42.1731
	-9.30907	-39.9724						
	-7.93323	-17.9185	-9.41367	-42.2737	-9.42349	-42.2156	-6.37957	141.21
	-7.03282	-5.6746						
	-7.93373	-16.3995	-9.30692	-39.9933	-9.33116	-40.0896	-7.05007	-5.66482
	-6.2096	143.287						
0.06132	-4.84478	157.625	-7.87482	-23.6666	-7.88329	-23.6847	-7.88228	-23.8615
	-7.89388	-22.3111						
	-7.8699	-23.6339	-7.26404	130.235	-6.80905	-11.1026	-9.93793	-54.4135
	-9.88008	-52.5845						
	-7.89181	-23.7711	-6.81572	-11.1872	-7.26049	130.119	-9.95428	-54.4817
	-9.88842	-52.6978						
	-7.89195	-23.953	-9.96102	-54.535	-9.97146	-54.516	-7.27303	129.964
	-6.78285	-9.68835						
	-7.89445	-22.3932	-9.88232	-52.6875	-9.90117	-52.7741	-6.79198	-9.68284
	-7.09924	131.708						
0.08698	-5.00246	151.04	-7.81394	-30.887	-7.82414	-30.9271	-7.82533	-31.0348
	-7.83844	-29.5107						
	-7.81292	-30.8747	-8.38644	117.491	-6.61483	-16.2625	-10.5688	-68.3303
	-10.5404	-67.1669						
	-7.83334	-30.9811	-6.62147	-16.3069	-8.38322	117.335	-10.5851	-68.3988
	-10.5507	-67.2622						
	-7.83536	-31.0958	-10.5845	-68.4033	-10.5959	-68.4231	-8.39346	117.246
	-6.55214	-14.6648						
	-7.83861	-29.5603	-10.5419	-67.2249	-10.555	-67.2972	-6.55355	-14.6634
	-8.22573	118.427						
0.11264	-5.20892	143.459	-7.73804	-39.2309	-7.74994	-39.2933	-7.75343	-39.3253
	-7.76663	-37.9063						
	-7.74058	-39.2357	-9.76524	103.349	-6.45345	-22.2586	-11.2647	-83.8146
	-11.2824	-83.4084						
	-7.75952	-39.3157	-6.45968	-22.2651	-9.7573	103.153	-11.2815	-83.8837
	-11.2958	-83.4826						
	-7.76343	-39.354	-11.2724	-83.8421	-11.2852	-83.8979	-9.76566	103.136
	-6.35626	-20.5601						
	-7.76676	-37.9211	-11.2837	-83.4235	-11.2917	-83.4801	-6.35106	-20.5639
	-9.62114	103.655						
0.1383	-5.46983	135.194	-7.64595	-48.3721	-7.65836	-48.429	-7.66399	-48.4299
	-7.67964	-46.6926						
	-7.64974	-48.3881	-11.4132	88.6234	-6.35576	-28.9975	-11.9936	-99.9621
	-12.0455	-98.959						
	-7.66757	-48.4401	-6.36224	-28.9883	-11.3886	88.4145	-12.01	-100.014
	-12.0611	-99.0221						
	-7.67362	-48.4477	-11.9976	-99.9667	-12.0101	-100.024	-11.405	88.4019
	-6.27161	-27.2491						
	-7.67957	-46.7116	-12.0478	-98.9718	-12.0577	-99.014	-6.26845	-27.2519
	-11.2676	89.5415						
0.16396	-5.79043	126.899	-7.54	-57.5926	-7.55437	-57.6456	-7.56105	-57.6471
	-7.57437	-55.5712						
	-7.54395	-57.606	-13.3078	74.8907	-6.39267	-36.1495	-12.6886	-114.953
	-12.7502	-113.43						
	-7.5637	-57.6625	-6.39859	-36.151	-13.2571	74.7167	-12.707	-115.009
	-12.7668	-113.493						
	-7.56986	-57.6615	-12.6915	-114.958	-12.7057	-115.014	-13.2938	74.6113
	-6.326	-34.2173						
	-7.57366	-55.5949	-12.7512	-113.447	-12.7641	-113.493	-6.32371	-34.2222
	-13.124	76.2969						
0.18962	-6.17796	118.564	-7.42175	-66.9299	-7.43852	-66.9872	-7.44446	-66.9787
	-7.45205	-64.5582						
	-7.42605	-66.9398	-15.4827	61.7048	-6.5535	-43.3154	-13.3131	-129.104
	-13.3686	-127.126						
	-7.44805	-66.999	-6.55926	-43.3141	-15.3965	61.6103	-13.3338	-129.161
	-13.3869	-127.19						
	-7.45398	-66.9945	-13.3159	-129.106	-13.3317	-129.17	-15.4637	61.3124
	-6.49651	-41.0813						
	-7.45175	-64.5825	-13.3687	-127.139	-13.3839	-127.185	-6.49403	-41.0794
	-15.2237	63.5547						
0.21528	-6.64198	110.223	-7.29494	-76.3912	-7.31329	-76.4462	-7.31973	-76.4312
	-7.32752	-73.6816						
	-7.29961	-76.4031	-18.0704	48.2404	-6.80959	-50.2853	-13.8547	-142.717
	-13.9103	-140.269						
	-7.32298	-76.4578	-6.8156	-50.2833	-17.9236	48.3692	-13.8768	-142.77
	-13.9304	-140.329						
	-7.32888	-76.4502	-13.8568	-142.717	-13.8739	-142.779	-18.02	47.649
	-6.76126	-47.7237						
	-7.32774	-73.7124	-13.9112	-140.288	-13.9264	-140.33	-6.75885	-47.7265
	-17.6525	50.9707						
0.24094	-7.195	101.876	-7.16266	-85.991	-7.18207	-86.0413	-7.18922	-86.021
	-7.19534	-82.9408						
	-7.16781	-86.0038	-21.2192	31.5763	-7.13889	-57.0001	-14.3174	-156.021
	-14.3671	-153.182						
	-7.19304	-86.0498	-7.14552	-56.9997	-21.0262	32.5842	-14.3415	-156.069
	-14.3884	-153.231						
	-7.19837	-86.0397	-14.3188	-156.022	-14.337	-156.077	-21.1002	30.8943
	-7.092	-54.1327						
	-7.19525	-82.9667	-14.3668	-153.196	-14.3832	-153.236	-7.08945	-54.1368
	-20.583	36.8029						
0.2666	-7.85002	93.5609	-7.02694	-95.7321	-7.04861	-95.7781	-7.05523	-95.7521
	-7.05748	-92.3368						
	-7.03277	-95.7473	-24.2202	7.54539	-7.5274	-63.4462	-14.7095	-169.172
	-14.7495	-165.987						
	-7.05904	-95.7801	-7.53353	-63.4388	-24.1366	9.37108	-14.7349	-169.213
	-14.7721	-166.03						
	-7.06453	-95.7664	-14.7106	-169.169	-14.7302	-169.221	-24.064	7.22432
	-7.47932	-60.2962						
	-7.05768	-92.3602	-14.7494	-165.995	-14.7668	-166.035	-7.47703	-60.2939
	-23.9213	16.4592						
0.29226	-8.62973	85.3419	-6.89515	-105.605	-6.91775	-105.646	-6.92448	-105.61
	-6.92218	-101.866						
	-6.90104	-105.614	-26.451	-19.5197	-7.96909	-69.5986	-15.0442	177.718
	-15.0767	-178.749						
	-6.92829	-105.645	-7.9747	-69.595	-26.4658	-17.517	-15.0714	177.677
	-15.1003	-178.79						
	-6.93308	-105.625	-15.0446	177.713	-15.0658	177.667	-26.2812	-19.581
	-7.91899	-66.1654						
	-6.92244	-101.892	-15.0757	-178.755	-15.0947	-178.793	-7.91664	-66.1617
	-26.6287	-10.4825						
0.31792	-9.55714	77.3236	-6.76864	-115.605	-6.7923	-115.637	-6.79944	-115.599
	-6.79776	-111.544						
	-6.77441	-115.609	-28.0777	-46.9566	-8.45585	-75.4406	-15.3362	164.577
	-15.3682	168.458						
	-6.80279	-115.638	-8.46191	-75.4431	-28.1695	-44.9472	-15.3639	164.534
	-15.3931	168.42						
	-6.80757	-115.615	-15.3355	164.563	-15.3575	164.525	-27.9052	-46.8637
	-8.40712	-71.7237						
	-6.7976	-111.58	-15.3661	168.436	-15.3863	168.407	-8.4043	-71.733
	-28.5517	-38.9217						
0.34358	-10.6606	69.6729	-6.65012	-125.736	-6.67523	-125.764	-6.68172	-125.724
	-6.67828	-121.332						
	-6.65569	-125.738	-29.2104	-74.295	-8.98306	-80.967	-15.5921	151.333
	-15.6211	155.558						
	-6.68513	-125.762	-8.98885	-80.9697	-29.3673	-72.2671	-15.6215	151.295
	-15.647	155.518						
	-6.68984	-125.737	-15.5919	151.323	-15.6157	151.287	-29.0315	-74.0719
	-8.93464	-76.9693						
	-6.67731	-121.366	-15.6188	155.536	-15.6393	155.51	-8.93071	-76.9771
	-29.828	-67.7137						
0.36924	-11.9859	62.7604	-6.54496	-135.955	-6.57107	-135.981	-6.57786	-135.933
	-6.56667	-131.218						
	-6.55027	-135.955	-29.8887	-101.086	-9.54358	-86.1233	-15.8262	138.01
	-15.8454	142.548						
	-6.5799	-135.975	-9.54912	-86.1214	-30.1121	-99.0634	-15.8557	137.976
	-15.8717	142.506						
	-6.58562	-135.946	-15.8255	137.997	-15.8505	137.966	-29.6926	-100.743
	-9.4941	-81.8747						
	-6.56493	-131.253	-15.8425	142.524	-15.8642	142.504	-9.49005	-81.8864
	-30.4855	-96.1231						
0.3949	-13.5785	57.2615	-6.4524	-146.259	-6.4789	-146.277	-6.48675	-146.226
	-6.4776	-141.199						
	-6.45772	-146.258	-30.0789	-127.01	-10.1246	-90.9008	-16.0451	124.601
	-16.069	129.469						
	-6.4879	-146.274	-10.1298	-90.9019	-30.3729	-125.024	-16.0752	124.567
	-16.0952	129.44						
	-6.49442	-146.24	-16.0447	124.579	-16.0711	124.557	-29.8606	-126.497
	-10.0793	-86.3808						
	-6.47521	-141.236	-16.0654	129.442	-16.087	129.432	-10.0742	-86.3955
	-30.5685	-123.351						
0.42056	-15.4154	54.5112	-6.37506	-156.627	-6.40222	-156.638	-6.41115	-156.583
	-6.40275	-151.243						
	-6.38094	-156.625	-29.6857	-151.504	-10.7165	-95.3017	-16.2587	111.087
	-16.2848	116.282						
	-6.41187	-156.636	-10.7221	-95.3077	-30.0624	-149.615	-16.2892	111.055
	-16.3126	116.257						
	-6.4188	-156.595	-16.2581	111.061	-16.285	111.051	-29.4612	-150.781
	-10.6781	-90.5113						
	-6.40138	-151.281	-16.2818	116.25	-16.3039	116.253	-10.6728	-90.5216
	-29.9215	-148.729						
0.44622	-17.2434	55.769	-6.31467	-167.03	-6.34265	-167.035	-6.35124	-166.973
	-6.34061	-161.323						
	-6.32057	-167.027	-28.5101	-172.795	-11.3097	-99.3383	-16.4709	97.4959
	-16.4942	103.01						
	-6.35196	-167.034	-11.3152	-99.3483	-28.9838	-171.413	-16.5025	97.4711
	-16.5227	102.987						
	-6.35961	-166.989	-16.4715	97.4672	-16.4994	97.4626	-28.3163	-171.905
	-11.2792	-94.2846						
	-6.34018	-161.362	-16.4909	102.971	-16.5139	102.981	-11.2733	-94.3004
	-28.4005	-169.073						
0.47188	-18.7273	60.2612	-6.27108	-177.445	-6.29951	-177.443	-6.3085	-177.377
	-6.29575	-171.415						
	-6.27705	-177.441	-26.8579	173.968	-11.8931	-103.058	-16.6884	83.8391
	-16.7055	89.6759						
	-6.30903	-177.446	-11.899	-103.073	-27.2999	174.386	-16.7205	83.82
	-16.7338	89.6616						
	-6.31709	-177.394	-16.6891	83.8059	-16.7171	83.8093	-26.6929	174.518
	-11.8734	-97.7237						
	-6.29517	-171.456	-16.7018	89.64	-16.7249	89.6537	-11.8668	-97.742
	-26.7475	179.652						
0.49754	-19.7747	66.4783	-6.24352	172.143	-6.27106	172.149	-6.28118	172.223
	-6.27381	178.498						
	-6.24886	172.147	-25.6151	166.907	-12.4588	-106.525	-16.913	70.1439
	-16.9368	76.3165						
	-6.28129	172.146	-12.4656	-106.542	-25.9784	167.096	-16.9452	70.1334
	-16.9645	76.3115						
	-6.29014	172.202	-16.9145	70.109	-16.9418	70.1198	-25.437	167.019
	-12.448	-100.88						
	-6.27311	178.471	-16.9336	76.2971	-16.9559	76.3156	-12.4404	-100.882
	-25.6008	173.17						
0.5232	-20.408	73.4967	-6.23008	161.758	-6.25767	161.767	-6.26851	161.834
	-6.26198	168.439						
	-6.23513	161.761	-24.7383	161.983	-13.0038	-109.817	-17.1442	56.4186
	-17.1694	62.9413						
	-6.26782	161.764	-13.0108	-109.833	-25.0521	162.197	-17.1773	56.4192
	-17.1967	62.9439						
	-6.27777	161.827	-17.1461	56.4017	-17.1736	56.4189	-24.5383	161.759
	-13.0013	-103.869						
	-6.26216	168.412	-17.1664	62.9219	-17.1885	62.9393	-12.9934	-103.872
	-24.7507	168.541						
0.54886	-20.6452	80.7403	-6.22877	151.421	-6.25621	151.435	-6.26795	151.5
	-6.25886	158.421						
	-6.23377	151.422	-24.0351	158.229	-13.5231	-113.015	-17.388	42.7063
	-17.4044	49.5597						
	-6.26719	151.432	-13.5302	-113.029	-24.3183	158.488	-17.4217	42.7174
	-17.4327	49.5717						
	-6.27701	151.499	-17.3899	42.7046	-17.4169	42.7267	-23.8166	157.73
	-13.5309	-106.765						
	-6.25885	158.486	-17.4012	49.6338	-17.4233	49.6526	-13.5219	-106.682
	-24.0635	165.036						
0.57452	-20.4835	87.7543	-6.23731	141.132	-6.26414	141.152	-6.27674	141.225
	-6.27301	148.459						
	-6.24227	141.13	-23.4152	155.126	-14.0228	-116.216	-17.6407	29.0297
	-17.6637	36.2088						
	-6.27616	141.147	-14.0304	-116.229	-23.6704	155.423	-17.6748	29.0444
	-17.6918	36.2238						
	-6.28643	141.22	-17.6435	29.0232	-17.6696	29.0564	-23.1952	154.365
	-14.039	-109.66						
	-6.27204	148.522	-17.6595	36.2819	-17.6823	36.3012	-14.0295	-109.582
	-23.454	162.206						
0.60018	-19.8881	93.9243	-6.25296	130.959	-6.28001	130.98	-6.29286	131.063
	-6.29375	138.562						
	-6.25767	130.952	-22.8209	152.41	-14.5105	-119.46	-17.9056	15.4369
	-17.9327	22.8925						
	-6.29167	130.973	-14.5179	-119.469	-23.0525	152.739	-17.9402	15.4575
	-17.9603	22.9144						
	-6.30223	131.056	-17.9083	15.4294	-17.9336	15.4695	-22.6084	151.362
	-14.5359	-112.645						
	-6.29231	138.624	-17.9289	22.9706	-17.9514	22.9919	-14.5258	-112.573
	-22.87	159.654						
0.62584	-18.8601	98.0327	-6.27363	120.818	-6.30068	120.842	-6.31439	120.937
	-6.31577	128.728						
	-6.27867	120.812	-22.2251	149.701	-15.0021	-122.894	-18.1819	1.87283
	-18.2054	9.62376						
	-6.31197	120.838	-15.0083	-122.902	-22.4389	150.045	-18.2154	1.89929
	-18.2317	9.64801						
	-6.32301	120.926	-18.182	1.86292	-18.2075	1.90721	-22.0227	148.368
	-15.0349	-115.793						
	-6.31343	128.786	-18.2012	9.69834	-18.2229	9.71952	-15.025	-115.728
	-22.2714	157.117						
0.6515	-17.5647	98.4764	-6.29795	110.702	-6.32417	110.733	-6.33877	110.835
	-6.33872	118.96						
	-6.30286	110.697	-21.6232	146.784	-15.5103	-126.568	-18.4646	-11.6716
	-18.4851	-3.58109						
	-6.33635	110.724	-15.5174	-126.578	-21.8219	147.093	-18.4977	-11.6481
	-18.5118	-3.55613						
	-6.34731	110.823	-18.4645	-11.6819	-18.4888	-11.6362	-21.4313	145.231
	-15.5538	-119.159						
	-6.33656	119.016	-18.4818	-3.51076	-18.5029	-3.48528	-15.5438	-119.096
	-21.6601	154.406						
0.67716	-16.3627	95.2714	-6.32209	100.654	-6.34846	100.683	-6.36318	100.794
	-6.36977	109.257						
	-6.32729	100.645	-21.0149	143.53	-16.0562	-130.48	-18.7573	-25.1507
	-18.7856	-16.6857						
	-6.36034	100.675	-16.0625	-130.483	-21.1981	143.793	-18.7893	-25.1197
	-18.8137	-16.665						
	-6.37075	100.783	-18.756	-25.1528	-18.7804	-25.1089	-20.8378	141.841
	-16.1118	-122.748						
	-6.36801	109.311	-18.7829	-16.624	-18.804	-16.5961	-16.1025	-122.685
	-21.0467	151.357						
0.70282	-15.4255	89.8868	-6.34595	90.6534	-6.37197	90.686	-6.3865	90.8061
	-6.39482	99.604						
	-6.3506	90.6438	-20.4161	139.795	-16.6648	-134.618	-19.0573	-38.5491
	-19.0875	-29.7279						
	-6.38342	90.6769	-16.6703	-134.617	-20.5829	140.013	-19.0883	-38.5193
	-19.1151	-29.7068						
	-6.39439	90.7955	-19.0561	-38.5484	-19.0807	-38.5003	-20.2588	138.049
	-16.733	-126.559						
	-6.39306	99.6594	-19.0843	-29.666	-19.1067	-29.6412	-16.7247	-126.502
	-20.4496	147.86						
0.72848	-14.7364	83.3843	-6.36698	80.7021	-6.39287	80.7389	-6.40774	80.8667
	-6.41347	89.9976						
	-6.37136	80.6916	-19.8371	135.565	-17.359	-138.953	-19.3658	-51.8705
	-19.3888	-42.7202						
	-6.40373	80.729	-17.3637	-138.952	-19.9909	135.719	-19.3958	-51.8347
	-19.4155	-42.6932						
	-6.41484	80.8567	-19.3636	-51.8634	-19.3886	-51.818	-19.7055	133.787
	-17.4381	-130.562						
	-6.4122	89.9712	-19.3862	-42.734	-19.4077	-42.7094	-17.4299	-130.589
	-19.8802	143.914						
0.75414	-14.2503	76.3068	-6.38424	70.7873	-6.41009	70.8263	-6.42509	70.9877
	-6.43268	80.4291						
	-6.38906	70.7759	-19.2983	130.834	-18.1729	-143.414	-19.6795	-65.0675
	-19.7061	-55.5934						
	-6.42026	70.8138	-18.1767	-143.417	-19.4362	130.928	-19.7087	-65.036
	-19.732	-55.5569						
	-6.43196	70.9515	-19.6768	-65.0929	-19.702	-65.0438	-19.1914	129.07
	-18.2651	-134.695						
	-6.43167	80.3947	-19.7045	-55.6162	-19.7247	-55.5855	-18.2571	-134.729
	-19.3564	139.411						
0.7798	-13.9317	68.9078	-6.39739	60.8971	-6.4233	60.9422	-6.43782	61.1072
	-6.44765	70.8857						
	-6.40234	60.8887	-18.8104	125.676	-19.1444	-147.913	-19.999	-78.2096
	-20.0293	-68.363						
	-6.43356	60.9239	-19.1478	-147.922	-18.9341	125.699	-20.0279	-78.1822
	-20.0554	-68.3337						
	-6.44472	61.0721	-19.9975	-78.237	-20.0218	-78.1851	-18.7258	123.894
	-19.2493	-138.824						
	-6.44766	70.8536	-20.0276	-68.3914	-20.0479	-68.3544	-19.2415	-138.86
	-18.8874	134.474						
0.80546	-13.754	61.3455	-6.40524	51.0274	-6.43125	51.0766	-6.44534	51.2475
	-6.45489	61.36						
	-6.41048	51.0211	-18.3872	120.126	-20.3352	-152.224	-20.3259	-91.2329
	-20.3528	-81.0507						
	-6.44174	51.0587	-20.3396	-152.234	-18.4982	120.064	-20.356	-91.2055
	-20.3792	-81.0159						
	-6.4522	51.2123	-20.3253	-91.2609	-20.3499	-91.2092	-18.3211	118.352
	-20.4439	-142.806						
	-6.45552	61.3257	-20.3507	-81.0764	-20.3717	-81.0387	-20.4379	-142.844
	-18.4841	129.193						
0.83112	-13.7011	53.6008	-6.40973	41.0761	-6.43564	41.126	-6.4491	41.3025
	-6.45495	51.8415						
	-6.41496	41.0679	-18.0396	114.159	-21.8354	-155.991	-20.6582	-104.25
	-20.6758	-93.6522						
	-6.44628	41.107	-21.8417	-155.996	-18.1359	113.998	-20.6886	-104.219
	-20.702	-93.6103						
	-6.45634	41.2667	-20.6597	-104.272	-20.6836	-104.225	-17.9907	112.39
	-21.9319	-146.254						
	-6.45556	51.8105	-20.6743	-93.668	-20.6952	-93.6314	-21.9255	-146.293
	-18.1532	123.601						
0.85678	-13.7622	45.924	-6.40928	31.2208	-6.43561	31.2724	-6.44789	31.4545
	-6.45815	42.3249						
	-6.41467	31.2125	-17.7694	108.006	-23.7771	-157.718	-20.9935	-117.068
	-21.0187	-106.11						
	-6.4459	31.2544	-23.7853	-157.725	-17.8491	107.765	-21.0237	-117.028
	-21.0438	-106.066						
	-6.45587	31.4191	-20.9949	-117.091	-21.0197	-117.041	-17.7301	106.242
	-23.8528	-147.999						
	-6.45857	42.2909	-21.0171	-106.118	-21.0377	-106.083	-23.8488	-148.054
	-17.8986	117.69						
0.88244	-13.9284	38.2667	-6.40506	21.3557	-6.4306	21.4124	-6.44329	21.5985
	-6.45418	32.7981						
	-6.4095	21.3515	-17.5781	101.612	-26.0191	-153.832	-21.333	-129.75
	-21.3557	-118.464						
	-6.44096	21.397	-26.0278	-153.815	-17.6401	101.28	-21.3636	-129.71
	-21.3812	-118.422						
	-6.45131	21.5613	-21.3361	-129.781	-21.3604	-129.731	-17.5456	99.8512
	-26.216	-144.94						
	-6.45439	32.7633	-21.3546	-118.476	-21.3751	-118.438	-26.2122	-145.008
	-17.7186	111.576						
0.9081	-14.1941	30.6454	-6.39684	11.4787	-6.42248	11.5362	-6.43592	11.7273
	-6.44275	23.2621						
	-6.40197	11.4719	-17.471	95.0452	-27.7517	-144.488	-21.6736	-142.293
	-21.6883	-130.746						
	-6.4331	11.5219	-27.7613	-144.461	-17.5099	94.6395	-21.7041	-142.255
	-21.7132	-130.707						
	-6.44366	11.689	-21.6764	-142.326	-21.7006	-142.283	-17.4435	93.3083
	-28.2634	-135.038						
	-6.4426	23.2184	-21.6863	-130.773	-21.708	-130.724	-28.2592	-135.132
	-17.6169	105.232						
0.93376	-14.5507	23.147	-6.38767	1.58799	-6.41335	1.6498	-6.42714	1.84298
	-6.43239	13.7082						
	-6.39329	1.57866	-17.449	88.3661	-28.8499	-133.329	-22.0157	-154.686
	-22.027	-142.811						
	-6.42477	1.63239	-28.8612	-133.305	-17.4621	87.8826	-22.0478	-154.64
	-22.0518	-142.768						
	-6.43515	1.80212	-22.0192	-154.723	-22.0423	-154.677	-17.4262	86.6128
	-29.5426	-121.984						
	-6.43251	13.6563	-22.0234	-142.843	-22.0461	-142.785	-29.5355	-122.094
	-17.6077	98.817						
0.95942	-14.9907	15.813	-6.37674	-8.32118	-6.40249	-8.25799	-6.41625	-8.06058
	-6.42288	4.1359						
	-6.38285	-8.32897	-17.5133	81.5952	-29.4381	-121.547	-22.3574	-166.942
	-22.3657	-154.732						
	-6.41454	-8.27333	-29.4515	-121.518	-17.4977	81.0589	-22.3896	-166.896
	-22.3907	-154.686						
	-6.42472	-8.10146	-22.3607	-166.976	-22.3843	-166.928	-17.4915	79.7928
	-30.1769	-107.967						
	-6.42279	4.08088	-22.3618	-154.766	-22.3842	-154.712	-30.1703	-108.082
	-17.6839	92.2934						
0.98508	-15.5122	8.7073	-6.36455	-18.2446	-6.3902	-18.1787	-6.40476	-17.9784
	-6.40882	-5.45759						
	-6.37097	-18.2516	-17.6713	74.7592	-29.5715	-109.612	-22.6957	-179.03
	-22.6976	-166.522						
	-6.40297	-18.1929	-29.5862	-109.588	-17.625	74.2055	-22.7279	-178.984
	-22.7248	-166.476						
	-6.41425	-18.0195	-22.6986	-179.064	-22.7213	-179.015	-17.6435	72.9017
	-30.2358	-93.7464						
	-6.40946	-5.50846	-22.6954	-166.553	-22.7172	-166.499	-30.2287	-93.8457
	-17.8428	85.6702						
1.01074	-16.1136	1.90024	-6.35236	-28.1843	-6.3781	-28.1178	-6.39383	-27.914
	-6.39199	-15.0655						
	-6.3591	-28.1932	-17.9273	67.8987	-29.2573	-97.8513	-23.0275	169.033
	-23.0171	-178.175						
