! MARKI MICROWAVE INC.
! Email:             	info@markimicrowave.com   				Phone:   408-778-4200
! Model Number:      	PD4-0126							Date:    11/12
! Filename:		PD4_0126.S5P						Version: 1.0
! Description:       	5-port S-parameter data for 4 Way Power Divider PD4-0126
! Frequency Range: 	10 MHz to 26 GHz		
! Port Configuration:	PORT 1: COMMON
!			PORT 2: Output 1 
!			Port 3: Output 2
!			Port 4: Output 3
!			Port 5: Output 4
! S5P File: Measurements: Mag<S11> Ang<S11> Mag<S12> Ang<S12> Mag<S13> Ang<S13> Mag<S14> Ang<S14> ! row 1
!			  Mag<S15> Ang<S15>
!			  Mag<S21> Ang<S21> Mag<S22> Ang<S22> Mag<S23> Ang<S23> Mag<S24> Ang<S24> ! row 2
!			  Mag<S25> Ang<S25>
!			  Mag<S31> Ang<S31> Mag<S32> Ang<S32> Mag<S33> Ang<S33> Mag<S34> Ang<S34> ! row 3
!			  Mag<S35> Ang<S35>
!			  Mag<S41> Ang<S41> Mag<S42> Ang<S42> Mag<S43> Ang<S43> Mag<S44> Ang<S44> ! row 4
!			  Mag<S45> Ang<S45>
!			  Mag<S51> Ang<S51> Mag<S52> Ang<S52> Mag<S53> Ang<S53> Mag<S54> Ang<S54> ! row 5
!			  Mag<S55> Ang<S55>

# GHz S DB R 50


0.01	-4.57522	169.297	-7.96452	-10.6569	-7.97814	-10.9381	-7.96781	-10.9544
	-7.97761	-10.9579						
	-7.95951	-10.7172	-5.13143	157.768	-7.11194	-1.94783	-8.62382	-26.3892
	-8.6183	-26.4306						
	-7.97175	-10.182	-7.11441	-1.08759	-5.13269	157.745	-8.63958	-25.9662
	-8.63889	-25.9749						
	-7.96816	-10.2348	-8.63857	-25.5923	-8.6345	-25.7662	-5.14272	157.842
	-7.10681	-1.37765						
	-7.974	-10.301	-8.63818	-25.55	-8.63598	-25.8046	-7.11896	-1.34369
	-5.14344	157.658						
0.0425	-4.63039	165.249	-7.94851	-14.7818	-7.9595	-15.0028	-7.94977	-15.0032
	-7.95872	-15.0213						
	-7.94365	-14.8191	-5.48564	150.03	-6.77435	-4.30124	-8.95738	-35.448
	-8.95445	-35.4947						
	-7.95371	-14.3952	-6.77622	-3.6207	-5.4856	150.016	-8.97037	-35.1115
	-8.97143	-35.1342						
	-7.94875	-14.419	-8.9684	-34.8138	-8.96525	-34.9512	-5.49618	150.13
	-6.77027	-3.83483						
	-7.95492	-14.4893	-8.96934	-34.7975	-8.96813	-34.9997	-6.779	-3.80301
	-5.49665	149.952						
0.075	-4.7054	160.374	-7.92448	-19.75	-7.93333	-19.9086	-7.92335	-19.8954
	-7.93185	-19.9285						
	-7.91987	-19.7666	-5.9361	141.058	-6.41893	-7.52039	-9.36864	-45.9527
	-9.36897	-46.0081						
	-7.92823	-19.4539	-6.42036	-7.02146	-5.93383	141.059	-9.37964	-45.7031
	-9.38281	-45.7419						
	-7.92106	-19.4489	-9.37625	-45.4814	-9.37478	-45.5788	-5.94693	141.187
	-6.41583	-7.15836						
	-7.928	-19.5238	-9.37924	-45.491	-9.37926	-45.637	-6.42135	-7.12605
	-5.9461	141.013						
0.1075	-4.80337	154.664	-7.89088	-25.5669	-7.89788	-25.6642	-7.88729	-25.6336
	-7.89576	-25.6834						
	-7.88699	-25.566	-6.48478	130.922	-6.05899	-11.5901	-9.85177	-57.8172
	-9.85563	-57.8806						
	-7.89386	-25.3624	-6.05987	-11.2724	-6.47984	130.949	-9.86064	-57.6533
	-9.86661	-57.7097						
	-7.88374	-25.3354	-9.85538	-57.5153	-9.85607	-57.5759	-6.49685	131.089
	-6.05688	-11.3277						
	-7.89166	-25.4146	-9.86076	-57.5534	-9.86229	-57.645	-6.05866	-11.3038
	-6.49319	130.917						
0.14	-4.92909	148.116	-7.84733	-32.2438	-7.85215	-32.2784	-7.84063	-32.2306
	-7.84928	-32.2985						
	-7.8437	-32.2232	-7.13291	119.688	-5.7041	-16.4892	-10.3998	-70.9888
	-10.4079	-71.0592						
	-7.84893	-32.1299	-5.70448	-16.3537	-7.12402	119.739	-10.4068	-70.9103
	-10.4154	-70.983						
	-7.8359	-32.0819	-10.3999	-70.8584	-10.4022	-70.8789	-7.14755	119.9
	-5.70259	-16.3261						
	-7.84492	-32.1662	-10.4079	-70.9238	-10.4107	-70.9578	-5.70117	-16.3089
	-7.13918	119.729						
0.1725	-5.08482	140.828	-7.79133	-39.6754	-7.79609	-39.6984	-7.78221	-39.6401
	-7.79264	-39.7184						
	-7.78763	-39.6418	-7.87718	107.663	-5.3683	-22.3001	-11.0011	-85.1718
	-11.0132	-85.2506						
	-7.79343	-39.59	-5.36901	-22.222	-7.864	107.736	-11.0087	-85.1197
	-11.0202	-85.2031						
	-7.7764	-39.5273	-10.9994	-85.0893	-11.0039	-85.1148	-7.89693	107.918
	-5.36765	-22.1603						
	-7.7876	-39.62	-11.0102	-85.1783	-11.0154	-85.2045	-5.36444	-22.1461
	-7.88166	107.738						
0.205	-5.27154	133.409	-7.72263	-47.2424	-7.7288	-47.2953	-7.71108	-47.2365
	-7.7239	-47.3221						
	-7.71887	-47.208	-8.68809	96.2379	-5.11678	-29.0165	-11.6188	-98.7473
	-11.6337	-98.8327						
	-7.72645	-47.136	-5.1173	-28.8894	-8.67006	96.3316	-11.6282	-98.6715
	-11.642	-98.7644						
	-7.70522	-47.0719	-11.6169	-98.6127	-11.623	-98.6653	-8.71704	96.5353
	-5.11492	-28.8433						
	-7.71886	-47.171	-11.6303	-98.708	-11.6368	-98.7655	-5.11139	-28.8239
	-8.69223	96.3381						
0.2375	-5.49182	125.949	-7.64299	-54.8544	-7.651	-54.9081	-7.6293	-54.8552
	-7.64494	-54.946						
	-7.63906	-54.8224	-9.54332	85.5571	-4.98195	-36.1378	-12.2207	-111.513
	-12.2382	-111.607						
	-7.64851	-54.7539	-4.98255	-36.0133	-9.51806	85.6703	-12.2321	-111.443
	-12.2489	-111.54						
	-7.62322	-54.6969	-12.2183	-111.384	-12.2263	-111.437	-9.58116	85.8979
	-4.97846	-35.9565						
	-7.63959	-54.801	-12.235	-111.484	-12.2428	-111.543	-4.97492	-35.938
	-9.54398	85.6957						
0.27	-5.75008	118.444	-7.55359	-62.5297	-7.56314	-62.5779	-7.53787	-62.5318
	-7.55625	-62.6268						
	-7.54955	-62.4986	-10.4286	75.5324	-4.95393	-43.3508	-12.7851	-123.65
	-12.8049	-123.747						
	-7.5609	-62.4384	-4.95507	-43.2402	-10.3929	75.6867	-12.7981	-123.587
	-12.8179	-123.689						
	-7.53204	-62.3893	-12.7824	-123.536	-12.792	-123.584	-10.4758	75.9454
	-4.9491	-43.1694						
	-7.55132	-62.4969	-12.8014	-123.637	-12.8108	-123.693	-4.9451	-43.1513
	-10.4243	75.7423						
0.3025	-6.05238	110.87	-7.45612	-70.2796	-7.46729	-70.3208	-7.43898	-70.2899
	-7.45987	-70.3828						
	-7.45249	-70.2482	-11.3369	66.0737	-5.01207	-50.491	-13.3026	-135.314
	-13.3251	-135.408						
	-7.4653	-70.1952	-5.01304	-50.3929	-11.2875	66.2861	-13.3171	-135.253
	-13.3394	-135.354						
	-7.43353	-70.1601	-13.2995	-135.21	-13.3108	-135.252	-11.3954	66.5943
	-5.0051	-50.3099						
	-7.45524	-70.2678	-13.3217	-135.312	-13.332	-135.362	-5.00113	-50.2939
	-11.3263	66.3885						
0.335	-6.4038	103.223	-7.35263	-78.1118	-7.36551	-78.1475	-7.33422	-78.1314
	-7.35763	-78.2204						
	-7.34893	-78.0808	-12.266	57.1244	-5.13664	-57.4859	-13.769	-146.637
	-13.7943	-146.727						
	-7.36358	-78.0307	-5.13779	-57.3955	-12.1986	57.4384	-13.7856	-146.577
	-13.8103	-146.675						
	-7.32893	-78.0151	-13.7665	-146.544	-13.7802	-146.581	-12.3374	57.7992
	-5.12699	-57.3014						
	-7.35333	-78.1202	-13.7916	-146.643	-13.8031	-146.689	-5.12342	-57.29
	-12.2481	57.5824						
0.3675	-6.81047	95.5108	-7.24388	-86.0286	-7.2585	-86.0637	-7.22514	-86.0588
	-7.25103	-86.1444						
	-7.24021	-85.998	-13.2164	48.674	-5.31289	-64.3075	-14.1857	-157.731
	-14.2135	-157.814						
	-7.25656	-85.9482	-5.31423	-64.2209	-13.1287	49.1407	-14.2039	-157.67
	-14.2314	-157.764						
	-7.22	-85.9553	-14.1832	-157.648	-14.1988	-157.685	-13.3023	49.5461
	-5.30057	-64.1198						
	-7.24672	-86.0556	-14.2107	-157.745	-14.2237	-157.787	-5.29712	-64.1155
	-13.1908	49.3086						
0.4	-7.28185	87.7345	-7.13243	-94.0405	-7.14847	-94.0635	-7.11368	-94.082
	-7.14169	-94.1611						
	-7.12808	-94.0039	-14.1905	40.731	-5.53116	-70.9528	-14.555	-168.69
	-14.585	-168.765						
	-7.14624	-93.9522	-5.53267	-70.8742	-14.0818	41.3991	-14.5753	-168.625
	-14.605	-168.712						
	-7.10886	-93.979	-14.5537	-168.612	-14.5705	-168.639	-14.2903	41.8363
	-5.5156	-70.7703						
	-7.13783	-94.0758	-14.5833	-168.704	-14.5976	-168.734	-5.51276	-70.7644
	-14.1553	41.5684						
0.4325	-7.82674	79.8964	-7.01929	-102.143	-7.03739	-102.153	-7.00154	-102.194
	-7.03179	-102.266						
	-7.01524	-102.106	-15.1881	33.315	-5.78424	-77.4269	-14.8829	-179.571
	-14.9144	-179.642						
	-7.03521	-102.046	-5.78579	-77.3536	-15.0628	34.2259	-14.905	-179.498
	-14.9371	-179.58						
	-6.99718	-102.093	-14.8819	-179.497	-14.9007	-179.513	-15.3001	34.698
	-5.76566	-77.2531						
	-7.02822	-102.182	-14.9138	-179.582	-14.9296	-179.603	-5.76269	-77.2451
	-15.1419	34.3947						
0.465	-8.45823	72.0059	-6.90789	-110.337	-6.92731	-110.336	-6.8914	-110.393
	-6.92347	-110.459						
	-6.90427	-110.303	-16.2062	26.4819	-6.06792	-83.7374	-15.1752	169.568
	-15.2085	169.508						
	-6.92542	-110.23	-6.06942	-83.6625	-16.069	27.6163	-15.1989	169.654
	-15.2326	169.579						
	-6.88787	-110.294	-15.1751	169.642	-15.1951	169.64	-16.3283	28.1943
	-6.04642	-83.5708						
	-6.92036	-110.374	-15.2079	169.567	-15.2251	169.56	-6.04351	-83.5602
	-16.1444	27.8451						
0.4975	-9.19253	64.0771	-6.80029	-118.625	-6.82039	-118.609	-6.78491	-118.683
	-6.81863	-118.741						
	-6.79691	-118.59	-17.2386	20.2838	-6.37921	-89.8836	-15.4378	158.696
	-15.4724	158.645						
	-6.81822	-118.501	-6.38066	-89.8074	-17.0916	21.5769	-15.4623	158.796
	-15.4973	158.73						
	-6.78177	-118.581	-15.4379	158.772	-15.4588	158.781	-17.3663	22.3688
	-6.35473	-89.7247						
	-6.81553	-118.653	-15.4724	158.702	-15.49	158.713	-6.35173	-89.7162
	-17.157	21.9592						
0.53	-10.0532	56.1192	-6.69727	-126.995	-6.71823	-126.967	-6.68289	-127.056
	-6.71794	-127.106						
	-6.69452	-126.96	-18.2671	14.7426	-6.71563	-95.8673	-15.676	147.779
	-15.7118	147.737						
	-6.71624	-126.857	-6.71695	-95.79	-18.1094	16.1368	-15.7013	147.894
	-15.7368	147.835						
	-6.68059	-126.951	-15.6762	147.859	-15.6976	147.878	-18.4031	17.2421
	-6.68793	-95.7201						
	-6.71589	-127.015	-15.7122	147.797	-15.7299	147.819	-6.68491	-95.7117
	-18.165	16.7426						
0.5625	-11.0763	48.1639	-6.6014	-135.445	-6.62253	-135.404	-6.58818	-135.509
	-6.62465	-135.55						
	-6.5989	-135.409	-19.2807	9.89381	-7.07512	-101.684	-15.8949	136.805
	-15.9318	136.772						
	-6.62058	-135.293	-7.07635	-101.608	-19.106	11.3192	-15.9206	136.932
	-15.9568	136.883						
	-6.58616	-135.405	-15.8951	136.887	-15.9167	136.918	-19.4191	12.8311
	-7.04432	-101.555						
	-6.62249	-135.459	-15.9329	136.834	-15.9507	136.867	-7.0416	-101.547
	-19.1517	12.2113						
0.595	-12.3101	40.2852	-6.51375	-143.964	-6.53489	-143.914	-6.50182	-144.029
	-6.53935	-144.061						
	-6.51154	-143.929	-20.2599	5.74313	-7.45556	-107.331	-16.0994	125.755
	-16.1373	125.729						
	-6.53307	-143.8	-7.45708	-107.254	-20.0589	7.15585	-16.1253	125.89
	-16.1623	125.852						
	-6.49999	-143.925	-16.0997	125.84	-16.1213	125.878	-20.3901	9.13618
	-7.42184	-107.225						
	-6.53762	-143.969	-16.1379	125.795	-16.1569	125.841	-7.41931	-107.215
	-20.0944	8.37322						
0.6275	-13.8456	32.6705	-6.43584	-152.542	-6.45686	-152.484	-6.42521	-152.607
	-6.46371	-152.632						
	-6.43383	-152.51	-21.1832	2.24405	-7.85519	-112.802	-16.2942	114.623
	-16.3328	114.603						
	-6.4552	-152.371	-7.85666	-112.722	-20.9545	3.60063	-16.32	114.767
	-16.3576	114.737						
	-6.4238	-152.503	-16.2944	114.71	-16.3155	114.757	-21.2945	6.09204
	-7.81913	-112.722						
	-6.46215	-152.538	-16.3336	114.674	-16.3526	114.728	-7.81624	-112.709
	-20.9727	5.16103						
0.66	-15.8955	25.8314	-6.36917	-161.172	-6.38934	-161.101	-6.35951	-161.232
	-6.39899	-161.249						
	-6.36725	-161.14	-22.0346	-0.69502	-8.27144	-118.086	-16.4835	103.413
	-16.5226	103.4						
	-6.38795	-160.991	-8.27314	-118.005	-21.7742	0.550267	-16.5089	103.565
	-16.5472	103.544						
	-6.35835	-161.128	-16.4845	103.498	-16.5041	103.557	-22.1135	3.57158
	-8.23303	-118.036						
	-6.39782	-161.153	-16.524	103.473	-16.5428	103.537	-8.23028	-118.023
	-21.77	2.47878						
0.6925	-18.8199	24.3952	-6.3143	-169.833	-6.33356	-169.761	-6.30544	-169.892
	-6.34568	-169.9						
	-6.31267	-169.802	-22.7954	-3.19507	-8.70149	-123.179	-16.6716	92.1278
	-16.7113	92.1197						
	-6.33255	-169.649	-8.70386	-123.097	-22.5007	-2.1355	-16.6963	92.2867
	-16.7351	92.2726						
	-6.30429	-169.787	-16.6717	92.2177	-16.691	92.2783	-22.831	1.45862
	-8.66219	-123.164						
	-6.34449	-169.801	-16.7123	92.2009	-16.731	92.2693	-8.65911	-123.149
	-22.4701	0.215876						
0.725	-21.1339	32.6714	-6.27136	-178.515	-6.28981	-178.443	-6.2632	-178.574
	-6.30393	-178.572						
	-6.26974	-178.484	-23.4532	-5.42499	-9.14301	-128.076	-16.8615	80.768
	-16.9009	80.7667						
	-6.28916	-178.329	-9.14575	-127.991	-23.1185	-4.60424	-16.8851	80.9276
	-16.9244	80.9255						
	-6.26192	-178.469	-16.8607	80.8619	-16.8795	80.9228	-23.4365	-0.412283
	-9.10294	-128.096						
	-6.30291	-178.473	-16.9022	80.8512	-16.9204	80.9229	-9.09936	-128.084
	-23.0637	-1.82884						
0.7575	-22.5837	42.7021	-6.24008	172.795	-6.25876	172.869	-6.23273	172.736
	-6.27357	172.747						
	-6.23862	172.827	-24.006	-7.52121	-9.59313	-132.772	-17.0546	69.3476
	-17.0939	69.3542						
	-6.2581	172.984	-9.59595	-132.687	-23.6171	-6.93079	-17.0775	69.5095
	-17.1176	69.5155						
	-6.23128	172.842	-17.053	69.4409	-17.0719	69.5019	-23.9283	-2.20381
	-9.55265	-132.835						
	-6.27282	172.849	-17.0957	69.4376	-17.1141	69.5112	-9.54906	-132.822
	-23.548	-3.80359						
0.79	-23.4867	53.1384	-6.22031	164.111	-6.23947	164.185	-6.21408	164.05
	-6.25534	164.072						
	-6.21899	164.144	-24.4547	-9.65242	-10.0484	-137.27	-17.2532	57.8702
	-17.2935	57.8877						
	-6.23925	164.3	-10.0513	-137.185	-24.0037	-9.21192	-17.2764	58.0313
	-17.3176	58.0493						
	-6.2126	164.157	-17.2515	57.9623	-17.2705	58.0253	-24.3126	-4.07302
	-10.0081	-137.381						
	-6.25472	164.172	-17.2944	57.9722	-17.3139	58.0407	-10.0046	-137.368
	-23.928	-5.84498						
0.8225	-23.9511	63.7317	-6.21192	155.442	-6.23122	155.517	-6.20666	155.38
	-6.24856	155.413						
	-6.21042	155.473	-24.8166	-11.9562	-10.5043	-141.578	-17.4598	46.3453
	-17.5013	46.371						
	-6.23137	155.633	-10.5081	-141.49	-24.3031	-11.5588	-17.484	46.5118
	-17.5262	46.5413						
	-6.20528	155.489	-17.459	46.441	-17.4783	46.5072	-24.6029	-6.162
	-10.4661	-141.741						
	-6.24768	155.513	-17.5022	46.4584	-17.5228	46.5339	-10.4624	-141.728
	-24.2179	-8.0982						
0.855	-24.0065	74.3623	-6.21351	146.8	-6.2336	146.879	-6.20934	146.74
	-6.25134	146.785						
	-6.21189	146.829	-25.1035	-14.5592	-10.959	-145.705	-17.6768	34.7811
	-17.7184	34.8157						
	-6.2339	146.996	-10.9629	-145.612	-24.5391	-14.0841	-17.7014	34.9563
	-17.7446	34.9918						
	-6.20795	146.852	-17.6759	34.8781	-17.6958	34.9485	-24.8159	-8.61391
	-10.9234	-145.921						
	-6.25063	146.885	-17.7195	34.903	-17.7407	34.9863	-10.9193	-145.908
	-24.432	-10.6718						
0.8875	-23.6391	84.9395	-6.22436	138.193	-6.24495	138.281	-6.22015	138.141
	-6.26251	138.193						
	-6.22246	138.221	-25.3318	-17.5437	-11.4098	-149.66	-17.9035	23.1953
	-17.9456	23.239						
	-6.2454	138.397	-11.4142	-149.567	-24.7337	-16.9328	-17.9291	23.3786
	-17.9728	23.4215						
	-6.21913	138.252	-17.9028	23.2923	-17.9232	23.3713	-24.9706	-11.5023
	-11.3786	-149.933						
	-6.26198	138.294	-17.947	23.3255	-17.968	23.4141	-11.3739	-149.919
	-24.5893	-13.6425						
0.92	-22.7754	95.2558	-6.24352	129.631	-6.26439	129.726	-6.23929	129.586
	-6.28204	129.648						
	-6.24203	129.659	-25.5257	-20.9503	-11.8536	-153.456	-18.1448	11.5935
	-18.1876	11.6503						
	-6.26518	129.844	-11.8583	-153.365	-24.9037	-20.2155	-18.1704	11.7921
	-18.2149	11.8435						
	-6.23818	129.696	-18.1436	11.6917	-18.1643	11.7819	-25.0916	-14.8408
	-11.8278	-153.787						
	-6.28108	129.748	-18.1879	11.7386	-18.2096	11.8361	-11.8228	-153.777
	-24.7104	-17.02						
0.9525	-21.198	104.717	-6.26865	121.121	-6.29022	121.223	-6.2641	121.081
	-6.30672	121.153						
	-6.26721	121.151	-25.6961	-24.7657	-12.2893	-157.119	-18.3978	-0.0106526
	-18.4411	0.0543461						
	-6.29082	121.342	-12.2937	-157.026	-25.0544	-23.9239	-18.4242	0.196055
	-18.4684	0.25545						
	-6.26299	121.193	-18.3957	0.088831	-18.4182	0.184622	-25.1963	-18.5731
	-12.2707	-157.504						
	-6.30577	121.252	-18.4413	0.143548	-18.4625	0.247887	-12.2655	-157.494
	-24.8157	-20.7824						
0.985	-18.6015	107.818	-6.29819	112.665	-6.31999	112.775	-6.29296	112.631
	-6.33547	112.71						
	-6.29678	112.692	-25.8629	-28.9805	-12.7156	-160.657	-18.6633	-11.6127
	-18.7065	-11.5354						
	-6.32058	112.895	-12.7199	-160.564	-25.1997	-27.9864	-18.6897	-11.4015
	-18.7342	-11.3304						
	-6.29191	112.743	-18.6615	-11.5156	-18.6836	-11.4062	-25.304	-22.7023
	-12.7052	-161.093						
	-6.33468	112.809	-18.7069	-11.4494	-18.7277	-11.3403	-12.6998	-161.083
	-24.9207	-24.9308						
1.0175	-16.6113	101.948	-6.33018	104.265	-6.35263	104.385	-6.32405	104.234
	-6.36666	104.322						
	-6.32907	104.294	-26.0383	-33.5208	-13.1316	-164.092	-18.9403	-23.2067
	-18.9845	-23.117						
	-6.35291	104.505	-13.1357	-164	-25.3574	-32.2769	-18.9672	-22.9817
	-19.0116	-22.9074						
	-6.32313	104.347	-18.9387	-23.1129	-18.9616	-22.9904	-25.4272	-27.1781
	-13.1311	-164.578						
	-6.36584	104.42	-18.984	-23.0354	-19.0053	-22.9146	-13.1259	-164.567
	-25.0344	-29.3891						
1.05	-15.2696	94.6219	-6.36306	95.9178	-6.38557	96.049	-6.35606	95.8895
	-6.39873	95.9854						
	-6.36197	95.947	-26.2337	-38.3621	-13.5365	-167.443	-19.2309	-34.7809
	-19.2751	-34.685						
	-6.38617	96.1658	-13.5411	-167.352	-25.5507	-36.7791	-19.2582	-34.5512
	-19.3027	-34.4668						
	-6.35532	96.0026	-19.2293	-34.6923	-19.2521	-34.5548	-25.5698	-31.9297
	-13.5478	-167.971						
	-6.39806	96.0823	-19.2743	-34.5996	-19.2963	-34.4683	-13.5422	-167.958
	-25.1658	-34.0937						
1.0825	-14.2816	86.9238	-6.39537	87.6195	-6.41809	87.7625	-6.38745	87.5944
	-6.43002	87.6961						
	-6.3946	87.6505	-26.4582	-43.4526	-13.9313	-170.727	-19.535	-46.3325
	-19.5783	-46.2321						
	-6.41861	87.8792	-13.936	-170.638	-25.7905	-41.5276	-19.5618	-46.0937
	-19.6058	-46.003						
	-6.38673	87.7082	-19.5326	-46.2439	-19.5559	-46.0983	-25.7414	-36.9125
	-13.9557	-171.289						
	-6.42964	87.7957	-19.5778	-46.1486	-19.5998	-45.9984	-13.9499	-171.273
	-25.3214	-39.006						
1.115	-13.5279	79.0769	-6.42605	79.3699	-6.44878	79.5228	-6.41722	79.3452
	-6.45939	79.4526						
	-6.4257	79.4012	-26.7142	-48.7555	-14.316	-173.96	-19.8514	-57.8555
	-19.8943	-57.7442						
	-6.44949	79.6395	-14.3207	-173.874	-26.0767	-46.544	-19.8772	-57.6111
	-19.921	-57.5126						
	-6.41654	79.4582	-19.8482	-57.7669	-19.8717	-57.617	-25.9453	-42.079
	-14.355	-174.545						
	-6.45925	79.5545	-19.8934	-57.6683	-19.9149	-57.5061	-14.3487	-174.528
	-25.5064	-44.0836						
1.1475	-12.9489	71.1483	-6.45413	71.1629	-6.47668	71.3247	-6.44422	71.1345
	-6.48637	71.2488						
	-6.45394	71.1951	-26.9982	-54.2574	-14.6912	-177.152	-20.1788	-69.3527
	-20.222	-69.2364						
	-6.47741	71.4418	-14.6959	-177.065	-26.3931	-51.8495	-20.2042	-69.1027
	-20.2479	-68.9958						
	-6.44356	71.2492	-20.1757	-69.2671	-20.1989	-69.1086	-26.1795	-47.4204
	-14.7451	-177.75						
	-6.48616	71.3527	-20.2202	-69.1579	-20.2414	-68.9894	-14.739	-177.733
	-25.7208	-49.3233						
1.18	-12.5084	63.1558	-6.4785	62.9931	-6.50089	63.1628	-6.46777	62.9598
	-6.50988	63.0811						
	-6.47824	63.0273	-27.3148	-59.9249	-15.0579	179.678	-20.5196	-80.8212
	-20.562	-80.6973						
	-6.50121	63.2807	-15.0621	179.766	-26.7359	-57.3518	-20.5437	-80.5622
	-20.5875	-80.45						
	-6.46699	63.0746	-20.5169	-80.7418	-20.5391	-80.5738	-26.4498	-52.8799
	-15.1271	179.084						
	-6.50971	63.1858	-20.5602	-80.6241	-20.5819	-80.4405	-15.1212	179.099
	-25.9697	-54.6813						
1.2125	-12.1821	55.1169	-6.49847	54.8515	-6.52081	55.0313	-6.48705	54.8136
	-6.52906	54.9408						
	-6.49803	54.8882	-27.669	-65.7142	-15.418	176.511	-20.8734	-92.2535
	-20.9155	-92.1219						
	-6.52078	55.1469	-15.4223	176.599	-27.1195	-62.9094	-20.897	-91.9924
	-20.9406	-91.8704						
	-6.48652	54.929	-20.8707	-92.1779	-20.8925	-92.0039	-26.7643	-58.4376
	-15.5034	175.93						
	-6.52913	55.046	-20.9132	-92.0565	-20.9353	-91.8607	-15.4976	175.948
	-26.2601	-60.138						
1.245	-11.9536	47.0366	-6.51337	46.7325	-6.5356	46.9203	-6.50158	46.6868
	-6.54348	46.8206						
	-6.51293	46.7697	-28.0682	-71.5974	-15.7737	173.349	-21.2405	-103.645
	-21.2814	-103.501						
	-6.53553	47.0332	-15.7788	173.431	-27.5622	-68.5278	-21.2629	-103.383
	-21.3061	-103.246						
	-6.50119	46.8026	-21.2375	-103.571	-21.2586	-103.388	-27.1225	-64.0993
	-15.8756	172.786						
	-6.54388	46.9273	-21.2796	-103.44	-21.3012	-103.237	-15.87	172.806
	-26.5856	-65.7246						
1.2775	-11.8126	38.9227	-6.52319	38.6273	-6.54533	38.8241	-6.51113	38.5774
	-6.55332	38.716						
	-6.52253	38.6678	-28.5197	-77.5545	-16.1272	170.16	-21.6213	-115.001
	-21.6628	-114.846						
	-6.54488	38.9368	-16.132	170.244	-28.079	-74.294	-21.6438	-114.732
