! MARKI MICROWAVE INC.
! Email:             	info@markimicrowave.com   				Phone:   408-778-4200
! Model Number:      	PD4-0218							Date:    11/12
! Filename:		PD4_0218.S5P						Version: 1.0
! Description:       	5-port S-parameter data for 4 Way Power Divider PD4-0218
! Frequency Range: 	10 MHz to 18 GHz		
! Port Configuration:	PORT 1: COMMON
!			PORT 2: Output 1 
!			Port 3: Output 2
!			Port 4: Output 3
!			Port 5: Output 4
! S5P File: Measurements: Mag<S11> Ang<S11> Mag<S12> Ang<S12> Mag<S13> Ang<S13> Mag<S14> Ang<S14> ! row 1
!			  Mag<S15> Ang<S15>
!			  Mag<S21> Ang<S21> Mag<S22> Ang<S22> Mag<S23> Ang<S23> Mag<S24> Ang<S24> ! row 2
!			  Mag<S25> Ang<S25>
!			  Mag<S31> Ang<S31> Mag<S32> Ang<S32> Mag<S33> Ang<S33> Mag<S34> Ang<S34> ! row 3
!			  Mag<S35> Ang<S35>
!			  Mag<S41> Ang<S41> Mag<S42> Ang<S42> Mag<S43> Ang<S43> Mag<S44> Ang<S44> ! row 4
!			  Mag<S45> Ang<S45>
!			  Mag<S51> Ang<S51> Mag<S52> Ang<S52> Mag<S53> Ang<S53> Mag<S54> Ang<S54> ! row 5
!			  Mag<S55> Ang<S55>

# GHz S DB R 50

0.01	-4.56466	171.264	-7.99111	-8.67253	-8.00086	-8.56939	-7.98232	-8.58978
	-7.98932	-8.55182						
	-7.9796	-8.66769	-4.8942	161.174	-7.25379	-0.155851	-8.41439	-22.118
	-8.41229	-22.0679						
	-7.9996	-8.38315	-7.26349	0.15547	-4.89788	161.058	-8.42741	-21.7407
	-8.43623	-21.7299						
	-7.9715	-8.44109	-8.42126	-21.8416	-8.41686	-21.7403	-4.88936	161.1
	-7.25894	0.329438						
	-7.96634	-8.44804	-8.41338	-21.7214	-8.42104	-21.684	-7.24363	0.279261
	-4.88914	161.102						
0.0325	-4.59708	168.458	-7.98253	-11.4715	-7.98956	-11.3914	-7.97444	-11.4059
	-7.97918	-11.3692						
	-7.97273	-11.4686	-5.07649	155.378	-6.96551	-1.45961	-8.61897	-28.8534
	-8.61633	-28.8092						
	-7.98836	-11.2551	-6.97347	-1.22212	-5.0811	155.269	-8.62941	-28.5634
	-8.63537	-28.5539						
	-7.96533	-11.2989	-8.62466	-28.6442	-8.62025	-28.564	-5.07487	155.326
	-6.96879	-1.07613						
	-7.96023	-11.3045	-8.61736	-28.5467	-8.62239	-28.5178	-6.95614	-1.11729
	-5.07272	155.331						
0.055	-4.63847	165.134	-7.96979	-14.7926	-7.97455	-14.7353	-7.96228	-14.7475
	-7.96464	-14.7115						
	-7.96173	-14.7944	-5.30423	148.68	-6.64408	-3.32651	-8.872	-36.6546
	-8.86869	-36.6162						
	-7.97333	-14.6446	-6.65009	-3.15477	-5.30827	148.577	-8.87995	-36.4436
	-8.88309	-36.4335						
	-7.95473	-14.6755	-8.87593	-36.5027	-8.87181	-36.4439	-5.30559	148.649
	-6.64492	-3.04171						
	-7.9493	-14.6796	-8.8691	-36.4279	-8.87186	-36.4072	-6.63463	-3.07473
	-5.30201	148.653						
0.0775	-4.69066	161.282	-7.95222	-18.6506	-7.9547	-18.6159	-7.94557	-18.6266
	-7.94536	-18.5931						
	-7.94622	-18.6532	-5.57862	141.108	-6.29775	-5.78485	-9.17582	-45.4774
	-9.17179	-45.4454						
	-7.95357	-18.5675	-6.30186	-5.67945	-5.58237	141.015	-9.18118	-45.3484
	-9.18137	-45.3408						
	-7.93966	-18.5847	-9.17825	-45.3814	-9.17429	-45.3443	-5.58363	141.099
	-6.29616	-5.60219						
	-7.93422	-18.5886	-9.17203	-45.3326	-9.17224	-45.3201	-6.28856	-5.6234
	-5.57835	141.106						
0.1	-4.75556	156.896	-7.92997	-23.0465	-7.93067	-23.0325	-7.92408	-23.0426
	-7.92139	-23.0113						
	-7.92601	-23.0528	-5.90012	132.698	-5.93469	-8.84737	-9.52995	-55.2755
	-9.52512	-55.2506						
	-7.92946	-23.0284	-5.93667	-8.80762	-5.90267	132.624	-9.53296	-55.2231
	-9.53012	-55.2185						
	-7.91982	-23.0325	-9.53066	-55.2327	-9.5275	-55.2172	-5.9093	132.711
	-5.9304	-8.76461						
	-7.91424	-23.0364	-9.52486	-55.2099	-9.52328	-55.2043	-5.92553	-8.77539
	-5.90187	132.721						
0.1225	-4.83352	151.979	-7.90128	-27.9757	-7.90007	-27.9788	-7.89594	-27.9885
	-7.89097	-27.9658						
	-7.89926	-27.981	-6.26362	123.481	-5.56151	-12.4942	-9.9267	-66.0042
	-9.92122	-65.9944						
	-7.89901	-28.0191	-5.56135	-12.5262	-6.26568	123.432	-9.92776	-66.0319
	-9.92168	-66.0341						
	-7.89336	-28.0159	-9.92571	-66.0275	-9.92345	-66.0297	-6.27761	123.524
	-5.55475	-12.5133						
	-7.88765	-28.0198	-9.92068	-66.0313	-9.91702	-66.0274	-5.55245	-12.5175
	-6.26768	123.534						
0.145	-4.92526	146.847	-7.86737	-33.1544	-7.86746	-33.1418	-7.86275	-33.1542
	-7.85682	-33.1344						
	-7.86456	-33.1583	-6.66486	114.268	-5.20512	-16.8703	-10.3588	-76.773
	-10.3521	-76.769						
	-7.86832	-33.1925	-5.20744	-16.9146	-6.66529	114.227	-10.3631	-76.8006
	-10.3568	-76.8062						
	-7.86057	-33.199	-10.359	-76.8123	-10.3585	-76.8017	-6.68301	114.313
	-5.2004	-16.8851						
	-7.85443	-33.2068	-10.3537	-76.8217	-10.3517	-76.8034	-5.19744	-16.893
	-6.67016	114.32						
0.1675	-5.02898	141.703	-7.82748	-38.3399	-7.82705	-38.3235	-7.82149	-38.3333
	-7.81546	-38.3179						
	-7.82503	-38.3429	-7.08207	105.447	-4.90407	-21.8251	-10.805	-87.079
	-10.798	-87.0824						
	-7.82771	-38.3893	-4.90538	-21.8855	-7.08305	105.407	-10.8079	-87.1189
	-10.8009	-87.1362						
	-7.81913	-38.4026	-10.8039	-87.1422	-10.8028	-87.1347	-7.10586	105.496
	-4.89688	-21.8565						
	-7.81242	-38.4192	-10.7987	-87.1634	-10.7954	-87.1419	-4.89418	-21.8772
	-7.08969	105.513						
0.19	-5.14707	136.524	-7.78246	-43.5506	-7.78222	-43.5364	-7.77523	-43.5431
	-7.7692	-43.5381						
	-7.77955	-43.5575	-7.50962	97.0133	-4.67006	-27.1695	-11.2551	-96.9452
	-11.2477	-96.9551						
	-7.78264	-43.6064	-4.672	-27.2318	-7.5115	96.9726	-11.2585	-96.9898
	-11.2513	-97.0133						
	-7.7727	-43.6181	-11.2537	-97.0095	-11.2528	-97.0044	-7.54051	97.0567
	-4.66282	-27.2009						
	-7.76614	-43.6402	-11.2487	-97.0373	-11.2456	-97.0197	-4.65974	-27.2227
	-7.51976	97.0868						
0.2125	-5.28087	131.318	-7.73165	-48.7868	-7.73099	-48.7734	-7.72273	-48.7874
	-7.7167	-48.7893						
	-7.72901	-48.7919	-7.94082	88.9267	-4.50521	-32.7289	-11.6984	-106.418
	-11.6914	-106.437						
	-7.73148	-48.8395	-4.50686	-32.7854	-7.94307	88.8825	-11.7015	-106.461
	-11.6942	-106.492						
	-7.72008	-48.8593	-11.6966	-106.481	-11.6953	-106.476	-7.97809	88.9644
	-4.49688	-32.7655						
	-7.71369	-48.8888	-11.6918	-106.517	-11.6879	-106.5	-4.49381	-32.7887
	-7.95332	89.0075						
0.235	-5.43015	126.088	-7.67495	-54.0474	-7.67425	-54.0413	-7.66518	-54.0594
	-7.65971	-54.0672						
	-7.67193	-54.0513	-8.36825	81.1409	-4.39864	-38.3741	-12.1241	-115.57
	-12.1178	-115.595						
	-7.6747	-54.0966	-4.40072	-38.4228	-8.37052	81.0966	-12.1272	-115.611
	-12.1211	-115.648						
	-7.66254	-54.1204	-12.1223	-115.623	-12.121	-115.624	-8.41092	81.1654
	-4.39053	-38.4106						
	-7.65656	-54.1597	-12.1184	-115.668	-12.1141	-115.655	-4.38739	-38.4325
	-8.38228	81.2241						
0.2575	-5.59836	120.821	-7.61471	-59.3388	-7.61386	-59.3328	-7.60391	-59.3647
	-7.59911	-59.3802						
	-7.6119	-59.3466	-8.79287	73.6428	-4.34771	-44.0394	-12.5347	-124.417
	-12.5289	-124.451						
	-7.61427	-59.3841	-4.34933	-44.0829	-8.79474	73.5904	-12.5373	-124.452
	-12.5317	-124.495						
	-7.60093	-59.4222	-12.5319	-124.467	-12.5308	-124.464	-8.84079	73.6512
	-4.3387	-44.0781						
	-7.59574	-59.4671	-12.5289	-124.516	-12.5242	-124.503	-4.33568	-44.1011
	-8.80829	73.7306						
0.28	-5.78503	115.516	-7.55	-64.6638	-7.54836	-64.6597	-7.53802	-64.6983
	-7.53453	-64.7222						
	-7.54673	-64.6722	-9.20967	66.3746	-4.33868	-49.6781	-12.9204	-133.035
	-12.9156	-133.074						
	-7.54867	-64.7112	-4.34042	-49.7225	-9.21201	66.3127	-12.9229	-133.07
	-12.9185	-133.124						
	-7.53516	-64.7608	-12.9176	-133.088	-12.9164	-133.087	-9.26287	66.3672
	-4.32987	-49.7185						
	-7.53132	-64.8124	-12.916	-133.142	-12.9108	-133.133	-4.32703	-49.743
	-9.22545	66.4708						
0.3025	-5.99236	110.171	-7.48117	-70.0204	-7.47907	-70.0189	-7.46838	-70.0667
	-7.46592	-70.0962						
	-7.47789	-70.0312	-9.62105	59.3283	-4.36748	-55.2692	-13.2824	-141.463
	-13.2785	-141.507						
	-7.47941	-70.0719	-4.36902	-55.3122	-9.62197	59.2528	-13.2851	-141.499
	-13.2813	-141.556						
	-7.46531	-70.1365	-13.2796	-141.522	-13.2776	-141.521	-9.67872	59.3083
	-4.35831	-55.3094						
	-7.46263	-70.1939	-13.2788	-141.58	-13.2731	-141.571	-4.35546	-55.3406
	-9.6368	59.4351						
0.325	-6.2233	104.787	-7.40952	-75.4161	-7.4067	-75.421	-7.3965	-75.4786
	-7.39534	-75.5134						
	-7.40615	-75.427	-10.0276	52.4872	-4.4279	-60.7987	-13.6204	-149.735
	-13.6183	-149.783						
	-7.40706	-75.4751	-4.42938	-60.8415	-10.0274	52.3958	-13.6229	-149.779
	-13.6203	-149.839						
	-7.39366	-75.5504	-13.6178	-149.798	-13.6152	-149.803	-10.0895	52.451
	-4.41872	-60.8413						
	-7.392	-75.6122	-13.6183	-149.858	-13.612	-149.857	-4.41598	-60.875
	-10.0427	52.6023						
0.3475	-6.47797	99.3548	-7.33349	-80.8466	-7.3305	-80.8636	-7.32106	-80.9319
	-7.32116	-80.9649						
	-7.33073	-80.8648	-10.4294	45.8267	-4.51351	-66.2713	-13.9326	-157.913
	-13.9321	-157.954						
	-7.33109	-80.9179	-4.51505	-66.3063	-10.4257	45.7268	-13.9348	-157.96
	-13.9334	-158.02						
	-7.31883	-81.0018	-13.93	-157.966	-13.9271	-157.98	-10.494	45.7703
	-4.50437	-66.3139						
	-7.3182	-81.0674	-13.9323	-158.029	-13.9249	-158.04	-4.50163	-66.3479
	-10.4434	45.941						
0.37	-6.76174	93.8784	-7.25588	-86.3252	-7.25316	-86.3477	-7.24497	-86.4315
	-7.2465	-86.4657						
	-7.2536	-86.3455	-10.8305	39.3499	-4.62465	-71.6728	-14.2249	-165.996
	-14.226	-166.036						
	-7.25363	-86.4052	-4.62598	-71.7091	-10.8218	39.2665	-14.2272	-166.048
	-14.2268	-166.107						
	-7.24294	-86.5024	-14.2219	-166.049	-14.2193	-166.066	-10.896	39.2859
	-4.6154	-71.7204						
	-7.24354	-86.5677	-14.2255	-166.111	-14.2181	-166.126	-4.61283	-71.7528
	-10.8416	39.4693						
0.3925	-7.07512	88.3591	-7.17467	-91.8502	-7.17346	-91.8757	-7.16724	-91.9764
	-7.16995	-92.0087						
	-7.17287	-91.8712	-11.2309	33.0316	-4.75492	-77.0151	-14.4928	-174.036
	-14.4957	-174.071						
	-7.17409	-91.9287	-4.75622	-77.0485	-11.2155	32.9997	-14.497	-174.086
	-14.4976	-174.139						
	-7.16544	-92.0412	-14.4903	-174.08	-14.489	-174.1	-11.2945	32.9696
	-4.74568	-77.0672						
	-7.16736	-92.1053	-14.4948	-174.139	-14.4888	-174.159	-4.74312	-77.096
	-11.2387	33.155						
0.415	-7.42117	82.785	-7.09283	-97.4242	-7.09297	-97.4507	-7.08871	-97.5646
	-7.09289	-97.5935						
	-7.09173	-97.4439	-11.6305	26.8855	-4.90385	-82.3072	-14.7421	177.957
	-14.7462	177.925						
	-7.09379	-97.4988	-4.90475	-82.3355	-11.6101	26.9242	-14.7473	177.91
	-14.7493	177.861						
	-7.08717	-97.6246	-14.7395	177.914	-14.7389	177.894	-11.6916	26.8224
	-4.89431	-82.3585						
	-7.09033	-97.6886	-14.7453	177.86	-14.7407	177.836	-4.89214	-82.3874
	-11.6347	27.0168						
0.4375	-7.80477	77.1689	-7.01159	-103.046	-7.01295	-103.072	-7.01125	-103.194
	-7.01663	-103.223						
	-7.01086	-103.069	-12.0337	20.9233	-5.06964	-87.5456	-14.9732	169.971
	-14.9788	169.942						
	-7.01359	-103.12	-5.0707	-87.5713	-12.0103	21.0444	-14.9795	169.926
	-14.9825	169.88						
	-7.00961	-103.256	-14.9711	169.929	-14.971	169.907	-12.0905	20.8527
	-5.06012	-87.5967						
	-7.01395	-103.316	-14.9777	169.877	-14.9742	169.853	-5.0579	-87.6258
	-12.0344	21.0523						
0.46	-8.22749	71.5018	-6.92996	-108.716	-6.93168	-108.737	-6.93314	-108.865
	-6.9396	-108.892						
	-6.92939	-108.74	-12.4383	15.1364	-5.2504	-92.7433	-15.1859	161.973
	-15.1926	161.947						
	-6.93274	-108.787	-5.25153	-92.7669	-12.4152	15.3387	-15.1929	161.933
	-15.1971	161.889						
	-6.93236	-108.928	-15.1843	161.934	-15.1844	161.912	-12.4904	15.0509
	-5.24052	-92.7967						
	-6.93742	-108.982	-15.1917	161.885	-15.1892	161.863	-5.23858	-92.8238
	-12.4355	15.2544						
0.4825	-8.6985	65.7976	-6.85114	-114.437	-6.85336	-114.455	-6.85849	-114.583
	-6.86573	-114.606						
	-6.85112	-114.459	-12.8474	9.55006	-5.44718	-97.8956	-15.3861	153.967
	-15.3941	153.948						
	-6.85434	-114.502	-5.44813	-97.9177	-12.8279	9.82126	-15.3937	153.928
	-15.399	153.893						
	-6.85774	-114.644	-15.3849	153.932	-15.3854	153.907	-12.8932	9.43432
	-5.43708	-97.9507						
	-6.86378	-114.695	-15.393	153.886	-15.3913	153.867	-5.43487	-97.978
	-12.8414	9.64975						
0.505	-9.2201	60.03	-6.77361	-120.204	-6.77619	-120.218	-6.78501	-120.346
	-6.79281	-120.364						
	-6.77447	-120.226	-13.2568	4.15603	-5.65785	-103.016	-15.574	145.924
	-15.5831	145.911						
	-6.77717	-120.264	-5.65833	-103.036	-13.2442	4.47024	-15.5813	145.894
	-15.5873	145.863						
	-6.78436	-120.402	-15.5729	145.892	-15.573	145.873	-13.2966	3.99106
	-5.64709	-103.072						
	-6.79065	-120.45	-15.5811	145.854	-15.5797	145.839	-5.64496	-103.098
	-13.2474	4.22973						
0.5275	-9.80166	54.2099	-6.69909	-126.015	-6.70165	-126.028	-6.71427	-126.148
	-6.72291	-126.164						
	-6.70048	-126.039	-13.6685	-1.0272	-5.88249	-108.105	-15.7502	137.842
	-15.7604	137.839						
	-6.70288	-126.07	-5.88296	-108.124	-13.6653	-0.700551	-15.7575	137.818
	-15.7642	137.794						
	-6.71392	-126.204	-15.7489	137.816	-15.7493	137.799	-13.7014	-1.26361
	-5.8713	-108.161						
	-6.72061	-126.248	-15.7578	137.783	-15.7569	137.771	-5.86885	-108.188
	-13.6552	-0.996906						
0.55	-10.4511	48.328	-6.62861	-131.87	-6.63024	-131.879	-6.6465	-131.99
	-6.65571	-131.999						
	-6.62981	-131.892	-14.0791	-5.98206	-6.12149	-113.162	-15.9205	129.712
	-15.9312	129.713						
	-6.63142	-131.92	-6.12199	-113.18	-14.0854	-5.68385	-15.9272	129.692
	-15.9344	129.672						
	-6.64589	-132.044	-15.9194	129.687	-15.9193	129.672	-14.1059	-6.3101
	-6.10989	-113.221						
	-6.65373	-132.084	-15.9287	129.659	-15.9271	129.652	-6.10705	-113.243
	-14.0613	-6.00845						
0.5725	-11.1807	42.382	-6.56169	-137.76	-6.56218	-137.765	-6.5815	-137.865
	-6.59146	-137.867						
	-6.56241	-137.78	-14.4898	-10.714	-6.37377	-118.197	-16.0818	121.537
	-16.0921	121.544						
	-6.56318	-137.807	-6.37451	-118.215	-14.5037	-10.4723	-16.0869	121.518
	-16.0953	121.505						
	-6.58073	-137.918	-16.0807	121.509	-16.0792	121.499	-14.5109	-11.1593
	-6.36126	-118.257						
	-6.58956	-137.954	-16.0898	121.489	-16.0877	121.483	-6.35836	-118.279
	-14.4675	-10.8145						
0.595	-12.0105	36.3956	-6.50063	-143.685	-6.49987	-143.692	-6.52249	-143.773
	-6.53285	-143.771						
	-6.50148	-143.705	-14.8989	-15.1812	-6.64171	-123.205	-16.2399	113.303
	-16.2501	113.317						
	-6.50129	-143.732	-6.64284	-123.222	-14.9185	-15.0261	-16.2435	113.284
	-16.2531	113.275						
	-6.52177	-143.825	-16.2388	113.279	-16.2358	113.266	-14.9148	-15.7783
	-6.62843	-123.264						
	-6.53113	-143.856	-16.2481	113.262	-16.2453	113.257	-6.62523	-123.286
	-14.8713	-15.3793						
0.6175	-12.9614	30.3323	-6.44404	-149.637	-6.44205	-149.65	-6.46736	-149.71
	-6.47808	-149.702						
	-6.44483	-149.657	-15.3031	-19.3989	-6.924	-128.195	-16.3933	105.019
	-16.4035	105.039						
	-6.44355	-149.691	-6.92515	-128.212	-15.3253	-19.3434	-16.396	104.992
	-16.406	104.993						
	-6.46685	-149.762	-16.3922	104.992	-16.3883	104.975	-15.3149	-20.163
	-6.90975	-128.254						
	-6.4766	-149.789	-16.4019	104.983	-16.3987	104.973	-6.90621	-128.276
	-15.2695	-19.7072						
0.64	-14.0702	24.1967	-6.39278	-155.615	-6.38953	-155.636	-6.41733	-155.671
	-6.42856	-155.658						
	-6.39356	-155.635	-15.6996	-23.3401	-7.22195	-133.163	-16.5441	96.6672
	-16.5544	96.6947						
	-6.39123	-155.677	-7.22317	-133.182	-15.7214	-23.3862	-16.5458	96.6359
	-16.5562	96.6371						
	-6.41714	-155.724	-16.5438	96.6408	-16.5387	96.6183	-15.7066	-24.2879
	-7.20643	-133.227						
	-6.42739	-155.746	-16.5534	96.6367	-16.5495	96.6229	-7.2029	-133.248
	-15.6589	-23.7676						
0.6625	-15.3982	17.9764	-6.34786	-161.617	-6.34384	-161.648	-6.37362	-161.656
	-6.38501	-161.638						
	-6.34846	-161.636	-16.0845	-27.0017	-7.53616	-138.11	-16.6967	88.2515
	-16.7076	88.2855						
	-6.34571	-161.689	-7.53746	-138.13	-16.103	-27.1425	-16.6979	88.2115
	-16.7088	88.2233						
	-6.3734	-161.708	-16.6962	88.2286	-16.6911	88.1964	-16.0864	-28.1465
	-7.51936	-138.178						
	-6.38438	-161.725	-16.7059	88.2306	-16.7016	88.2083	-7.51558	-138.197
	-16.0356	-27.5504						
0.685	-17.0595	11.5229	-6.30758	-167.633	-6.30321	-167.675	-6.33456	-167.659
	-6.34622	-167.634						
	-6.30823	-167.654	-16.4538	-30.3912	-7.86627	-143.042	-16.8491	79.7709
	-16.8597	79.8082						
	-6.30543	-167.716	-7.86782	-143.06	-16.4643	-30.6147	-16.8503	79.7222
	-16.8606	79.7394						
	-6.33419	-167.711	-16.8488	79.7481	-16.8431	79.7067	-16.452	-31.7352
	-7.84809	-143.114						
	-6.34572	-167.723	-16.8581	79.7537	-16.8534	79.7246	-7.844	-143.133
	-16.3974	-31.0646						
0.7075	-19.3865	4.38736	-6.27477	-173.664	-6.27073	-173.716	-6.30241	-173.676
	-6.31465	-173.645						
	-6.27542	-173.686	-16.8014	-33.4904	-8.21503	-147.949	-17.0079	71.2239
	-17.0182	71.2625						
	-6.27298	-173.757	-8.21685	-147.967	-16.8007	-33.7718	-17.0093	71.1679
	-17.0193	71.1895						
	-6.30244	-173.725	-17.0069	71.2041	-17.0017	71.152	-16.797	-35.0342
	-8.19487	-148.025						
	-6.31422	-173.731	-17.0167	71.2151	-17.0121	71.1759	-8.19111	-148.044
	-16.7382	-34.3						
0.73	-22.546	-12.9984	-6.24737	-179.702	-6.24344	-179.764	-6.27568	-179.698
	-6.28814	-179.662						
	-6.24778	-179.726	-17.1233	-36.3149	-8.58189	-152.837	-17.1694	62.6196
	-17.1788	62.6557						
	-6.24588	-179.807	-8.58411	-152.857	-17.1077	-36.6358	-17.1708	62.5516
	-17.1807	62.5743						
	-6.276	-179.75	-17.1681	62.5978	-17.1633	62.534	-17.1174	-38.0515
	-8.55973	-152.925						
	-6.2883	-179.747	-17.178	62.6092	-17.174	62.5639	-8.55574	-152.941
	-17.0544	-37.2591						
0.7525	-24.4332	-36.8073	-6.22643	174.253	-6.22283	174.183	-6.2549	174.276
	-6.26784	174.32						
	-6.2265	174.231	-17.4125	-38.8747	-8.96815	-157.708	-17.3379	53.9537
	-17.3464	53.9908						
	-6.2253	174.14	-8.97085	-157.727	-17.3799	-39.2115	-17.3388	53.8743
	-17.3499	53.9064						
	-6.25548	174.224	-17.3361	53.9291	-17.3321	53.8597	-17.4073	-40.7933
	-8.94394	-157.806						
	-6.26825	174.235	-17.3464	53.9458	-17.3428	53.8939	-8.93995	-157.821
	-17.3399	-39.9446						
0.775	-25.6502	-60.9085	-6.21231	168.211	-6.20959	168.135	-6.24124	168.251
	-6.25442	168.302						
	-6.21254	168.186	-17.6635	-41.1854	-9.37662	-162.555	-17.5144	45.2244
	-17.5227	45.2686						
	-6.21235	168.091	-9.37951	-162.57	-17.6112	-41.5143	-17.5159	45.1418
	-17.5271	45.182						
	-6.24217	168.198	-17.5125	45.2032	-17.5092	45.1259	-17.6593	-43.2729
	-9.34972	-162.661						
	-6.25477	168.217	-17.5227	45.2255	-17.5198	45.1692	-9.34599	-162.678
	-17.5891	-42.3743						
0.7975	-26.3958	-85.2026	-6.20321	162.173	-6.2011	162.089	-6.23248	162.234
	-6.24546	162.289						
	-6.20337	162.145	-17.8705	-43.2927	-9.80659	-167.381	-17.698	36.4419
	-17.7064	36.4879						
	-6.20408	162.046	-9.81001	-167.395	-17.7994	-43.5867	-17.701	36.3565
	-17.7116	36.3994						
	-6.23342	162.18	-17.6962	36.4223	-17.6941	36.3364	-17.8693	-45.5207
	-9.77719	-167.503						
	-6.24576	162.204	-17.7069	36.4456	-17.7051	36.3854	-9.77349	-167.519
	-17.7966	-44.5807						
0.82	-26.7755	-109.499	-6.20135	156.145	-6.20004	156.057	-6.23018	156.227
	-6.24303	156.287						
	-6.20133	156.116	-18.027	-45.2222	-10.2622	-172.168	-17.8948	27.6108
	-17.9037	27.6554						
	-6.20306	156.016	-10.2658	-172.18	-17.9393	-45.4698	-17.8989	27.5258
	-17.9092	27.5728						
	-6.2312	156.173	-17.8934	27.592	-17.8926	27.5029	-18.0306	-47.5656
	-10.2299	-172.308						
	-6.24367	156.205	-17.9035	27.6199	-17.9028	27.5559	-10.2264	-172.326
	-17.9576	-46.5962						
0.8425	-26.7895	-133.806	-6.20427	150.132	-6.20367	150.042	-6.23244	150.236
	-6.24511	150.302						
	-6.20434	150.101	-18.1295	-47.0364	-10.7437	-176.921	-18.1021	18.7327
	-18.1107	18.7751						
	-6.20703	150.002	-10.7476	-176.929	-18.028	-47.2337	-18.1066	18.646
	-18.1167	18.6969						
	-6.23369	150.182	-18.1004	18.716	-18.1004	18.6212	-18.1409	-49.4747
	-10.7085	-177.081						
	-6.24593	150.219	-18.1105	18.7366	-18.1098	18.6755	-10.7051	-177.101
	-18.0677	-48.4877						
0.865	-26.4353	-158.097	-6.2123	144.138	-6.21274	144.046	-6.23911	144.261
	-6.25148	144.334						
	-6.21247	144.105	-18.1757	-48.8004	-11.2544	178.375	-18.322	9.81665
	-18.3304	9.86159						
	-6.21587	144.006	-11.2582	178.369	-18.0631	-48.9433	-18.3265	9.72733
	-18.336	9.7823						
	-6.24061	144.206	-18.3196	9.79829	-18.3207	9.70166	-18.1971	-51.299
	-11.2156	178.189						
	-6.25241	144.251	-18.3292	9.82206	-18.3295	9.75926	-11.2125	178.167
	-18.1234	-50.3114						
0.8875	-25.6687	177.676	-6.22585	138.166	-6.22672	138.074	-6.25099	138.308
	-6.26307	138.385						
	-6.22595	138.132	-18.1662	-50.5659	-11.7959	173.735	-18.5574	0.868672
