! MARKI MICROWAVE INC.
! Email:             	info@markimicrowave.com   				Phone:   408-778-4200
! Model Number:      	PD4-0140							Date:    11/12
! Filename:		PD4_0140.S5P						Version: 1.0
! Description:       	5-port S-parameter data for 4 Way Power Divider PD4-0140
! Frequency Range: 	10 MHz to 40 GHz		
! Port Configuration:	PORT 1: COMMON
!			PORT 2: Output 1 
!			Port 3: Output 2
!			Port 4: Output 3
!			Port 5: Output 4
! S5P File: Measurements: Mag<S11> Ang<S11> Mag<S12> Ang<S12> Mag<S13> Ang<S13> Mag<S14> Ang<S14> ! row 1
!			  Mag<S15> Ang<S15>
!			  Mag<S21> Ang<S21> Mag<S22> Ang<S22> Mag<S23> Ang<S23> Mag<S24> Ang<S24> ! row 2
!			  Mag<S25> Ang<S25>
!			  Mag<S31> Ang<S31> Mag<S32> Ang<S32> Mag<S33> Ang<S33> Mag<S34> Ang<S34> ! row 3
!			  Mag<S35> Ang<S35>
!			  Mag<S41> Ang<S41> Mag<S42> Ang<S42> Mag<S43> Ang<S43> Mag<S44> Ang<S44> ! row 4
!			  Mag<S45> Ang<S45>
!			  Mag<S51> Ang<S51> Mag<S52> Ang<S52> Mag<S53> Ang<S53> Mag<S54> Ang<S54> ! row 5
!			  Mag<S55> Ang<S55>

# GHz S DB R 50

0.01	-4.49911	178.044	-8.00466	-2.0001	-7.99828	-1.81764	-7.99585	-1.79896
	-8.03423	-1.791						
	-7.98102	-2.07311	-4.5875	174.971	-7.85493	1.3521	-8.04184	-5.75076
	-8.04414	-5.69052						
	-7.97032	-2.04064	-7.88354	1.34952	-4.61261	174.762	-8.05898	-5.81788
	-8.08395	-5.82044						
	-8.002	-1.65948	-8.05522	-5.71933	-8.03295	-5.75454	-4.59374	174.828
	-7.85337	1.54552						
	-7.95857	-1.72191	-8.03947	-5.65579	-8.052	-5.74682	-7.84155	1.72158
	-4.58974	174.871						
0.06	-4.61301	167.748	-7.95686	-12.1478	-7.95625	-12.0931	-7.95872	-12.1551
	-7.96915	-12.1294						
	-7.95147	-12.1867	-5.31645	151.655	-6.73574	-0.0592482	-8.81323	-32.6061
	-8.81348	-32.5996						
	-7.95149	-12.1769	-6.7509	-0.0685818	-5.3319	149.424	-8.81978	-32.6299
	-8.82914	-32.6166						
	-7.96614	-12.1145	-8.8213	-32.6076	-8.81436	-32.6145	-5.32339	149.363
	-6.73665	0.0131361						
	-7.94838	-12.1236	-8.81629	-32.5711	-8.82089	-32.6166	-6.7361	0.0494095
	-5.32298	149.371						
0.11	-4.79537	157.696	-7.88537	-22.34	-7.88545	-22.2983	-7.8952	-22.3897
	-7.90054	-22.3594						
	-7.88371	-22.3678	-6.39654	132.149	-5.96291	-7.849	-9.86045	-54.9321
	-9.86009	-54.9329						
	-7.88481	-22.3553	-5.9732	-7.86047	-6.39348	128.097	-9.86371	-54.9535
	-9.87077	-54.9149						
	-7.90108	-22.3672	-9.86741	-54.9458	-9.86325	-54.9408	-6.38582	127.98
	-5.96446	-7.78783						
	-7.88988	-22.3626	-9.86477	-54.9194	-9.86719	-54.9342	-5.96617	-7.77078
	-6.38352	127.952						
0.16	-5.06565	147.616	-7.77811	-32.6596	-7.77733	-32.6247	-7.79267	-32.7241
	-7.79694	-32.6883						
	-7.77814	-32.6847	-7.5826	115.433	-5.62286	-16.9963	-10.8433	-74.2393
	-10.8434	-74.2224						
	-7.77892	-32.6716	-5.63224	-17.0076	-7.55548	109.684	-10.844	-74.2454
	-10.85	-74.1995						
	-7.79817	-32.7148	-10.8503	-74.2551	-10.8464	-74.2353	-7.54354	109.494
	-5.625	-16.9287						
	-7.79027	-32.6974	-10.8491	-74.2144	-10.85	-74.2079	-5.62843	-16.919
	-7.54094	109.465						
0.21	-5.45225	137.428	-7.64223	-43.1982	-7.64065	-43.1682	-7.66055	-43.2658
	-7.66455	-43.2222						
	-7.64315	-43.2235	-8.83167	100.825	-5.55486	-26.1883	-11.6789	-91.8588
	-11.6795	-91.8166						
	-7.64305	-43.2101	-5.56307	-26.2024	-8.78762	93.4903	-11.6778	-91.8458
	-11.6835	-91.7999						
	-7.66556	-43.265	-11.6853	-91.8662	-11.6809	-91.8399	-8.77035	93.2028
	-5.55649	-26.1063						
	-7.66006	-43.2342	-11.6853	-91.816	-11.6846	-91.8032	-5.56014	-26.1019
	-8.76695	93.2						
0.26	-5.8361	127.192	-7.51861	-53.7422	-7.51703	-53.7316	-7.54159	-53.8388
	-7.54173	-53.7848						
	-7.52243	-53.7602	-10.0276	85.2634	-5.34078	-34.255	-12.486	-110.809
	-12.4868	-110.766						
	-7.52298	-53.7495	-5.34606	-34.2699	-9.97203	76.283	-12.482	-110.788
	-12.4856	-110.725						
	-7.54612	-53.8551	-12.4912	-110.821	-12.4884	-110.786	-9.95209	75.9002
	-5.34194	-34.1769						
	-7.54592	-53.8067	-12.4935	-110.767	-12.4905	-110.739	-5.34724	-34.1932
	-9.94769	75.9086						
0.31	-6.32252	116.931	-7.38027	-64.436	-7.3778	-64.4257	-7.40705	-64.5278
	-7.40834	-64.4637						
	-7.38455	-64.4533	-11.3276	71.5379	-5.30136	-43.3607	-13.2634	-128.339
	-13.2652	-128.283						
	-7.38375	-64.4413	-5.30609	-43.378	-11.2653	60.976	-13.2586	-128.316
	-13.2624	-128.244						
	-7.41096	-64.5451	-13.2688	-128.354	-13.2656	-128.313	-11.242	60.492
	-5.30155	-43.2652						
	-7.4123	-64.4844	-13.2721	-128.284	-13.2678	-128.247	-5.30681	-43.2793
	-11.2347	60.5294						
0.36	-6.9363	106.591	-7.22917	-75.3037	-7.22559	-75.2935	-7.25827	-75.3874
	-7.26044	-75.3111						
	-7.23269	-75.323	-12.6849	59.5234	-5.45352	-52.5699	-13.9593	-144.885
	-13.9614	-144.813						
	-7.23085	-75.3122	-5.45738	-52.5886	-12.6241	47.3817	-13.953	-144.858
	-13.9576	-144.774						
	-7.26154	-75.4073	-13.964	-144.9	-13.9594	-144.854	-12.599	46.7684
	-5.45183	-52.4582						
	-7.26359	-75.3332	-13.9676	-144.816	-13.9622	-144.775	-5.45657	-52.4716
	-12.5878	46.8421						
0.41	-7.71308	96.1648	-7.07067	-86.3653	-7.06628	-86.3612	-7.10158	-86.4397
	-7.10468	-86.3495						
	-7.07414	-86.3865	-14.0755	49.105	-5.74462	-61.4758	-14.5581	-160.85
	-14.561	-160.761						
	-7.07136	-86.379	-5.74832	-61.4943	-14.0262	35.355	-14.5506	-160.817
	-14.5559	-160.724						
	-7.10473	-86.4615	-14.5625	-160.862	-14.557	-160.814	-14.006	34.6032
	-5.74069	-61.3503						
	-7.10747	-86.372	-14.567	-160.76	-14.5605	-160.72	-5.74504	-61.3645
	-13.9868	34.7105						
0.46	-8.70261	85.6823	-6.91216	-97.6273	-6.90694	-97.6268	-6.94464	-97.6899
	-6.9485	-97.5852						
	-6.91532	-97.6491	-15.4778	40.2583	-6.13341	-69.9753	-15.0677	-176.53
	-15.0711	-176.421						
	-6.91176	-97.6453	-6.13701	-69.9955	-15.4555	24.8427	-15.0595	-176.491
	-15.0652	-176.389						
	-6.94745	-97.7135	-15.0719	-176.541	-15.0655	-176.487	-15.4475	23.9513
	-6.12677	-69.8409						
	-6.95089	-97.6088	-15.0769	-176.415	-15.0697	-176.378	-6.13094	-69.8564
	-15.4166	24.0851						
0.51	-9.98727	75.2458	-6.75928	-109.086	-6.7537	-109.092	-6.79289	-109.136
	-6.79737	-109.015						
	-6.76229	-109.109	-16.858	32.9677	-6.59562	-78.0621	-15.5049	167.882
	-15.509	168.002						
	-6.75798	-109.108	-6.59837	-78.0834	-16.888	15.7914	-15.496	167.916
	-15.5027	168.036						
	-6.79551	-109.159	-15.5083	167.87	-15.501	167.921	-16.904	14.7856
	-6.58608	-77.9242						
	-6.79955	-109.037	-15.514	168.008	-15.5061	168.042	-6.58957	-77.9409
	-16.8551	14.9263						
0.56	-11.7375	65.1589	-6.61892	-120.722	-6.61297	-120.732	-6.6532	-120.756
	-6.65813	-120.618						
	-6.6214	-120.743	-18.1827	27.1169	-7.11507	-85.7356	-15.887	152.253
	-15.8921	152.386						
	-6.61663	-120.749	-7.11722	-85.7571	-18.2889	8.06067	-15.8779	152.285
	-15.8852	152.419						
	-6.6553	-120.779	-15.8904	152.242	-15.8827	152.291	-18.3391	7.00073
	-7.10264	-85.6017						
	-6.65987	-120.641	-15.8967	152.398	-15.8881	152.427	-7.10553	-85.619
	-18.2663	7.12099						
0.61	-14.4561	57.3386	-6.49573	-132.505	-6.48949	-132.522	-6.52998	-132.526
	-6.53523	-132.37						
	-6.4978	-132.529	-19.4169	22.4892	-7.68055	-92.9995	-16.2327	136.523
	-16.2385	136.666						
	-6.49292	-132.54	-7.68221	-93.0228	-19.6278	1.45633	-16.223	136.552
	-16.2307	136.702						
	-6.53191	-132.549	-16.2356	136.51	-16.2275	136.554	-19.7198	0.422344
	-7.66567	-92.877						
	-6.53707	-132.393	-16.2423	136.681	-16.2336	136.712	-7.66833	-92.8969
	-19.6169	0.487136						
0.66	-16.9531	62.9755	-6.39434	-144.408	-6.38801	-144.43	-6.42797	-144.413
	-6.43368	-144.24						
	-6.39593	-144.429	-20.5433	18.8121	-8.28313	-99.859	-16.5565	120.654
	-16.5631	120.809						
	-6.39098	-144.447	-8.28438	-99.8805	-20.8724	-4.34224	-16.5468	120.675
	-16.555	120.85						
	-6.42977	-144.436	-16.5593	120.643	-16.551	120.685	-21.0097	-5.24794
	-8.26715	-99.7559						
	-6.43514	-144.263	-16.5665	120.829	-16.5578	120.861	-8.26941	-99.7747
	-20.8722	-5.28474						
0.71	-18.497	70.2514	-6.31693	-156.385	-6.31073	-156.414	-6.34941	-156.378
	-6.35555	-156.187						
	-6.31853	-156.408	-21.5486	15.7999	-8.91358	-106.311	-16.8717	104.647
	-16.879	104.823						
	-6.31365	-156.432	-8.91464	-106.334	-22.002	-9.58835	-16.8619	104.673
	-16.8706	104.858						
	-6.35127	-156.401	-16.8747	104.635	-16.8664	104.677	-22.1847	-10.276
	-8.8977	-106.231						
	-6.35695	-156.21	-16.8824	104.844	-16.8737	104.874	-8.90029	-106.25
	-22.0097	-10.4469						
0.76	-19.5023	77.884	-6.26544	-168.398	-6.25944	-168.431	-6.29626	-168.379
	-6.30261	-168.171						
	-6.26659	-168.423	-22.4337	13.1737	-9.56528	-112.361	-17.1905	88.5202
	-17.1979	88.7138						
	-6.26187	-168.452	-9.56585	-112.384	-23.0059	-14.576	-17.1802	88.5449
	-17.1899	88.7489						
	-6.29771	-168.403	-17.1933	88.5106	-17.1843	88.5513	-23.2314	-14.9595
	-9.55135	-112.306						
	-6.30367	-168.197	-17.2009	88.7347	-17.1922	88.7565	-9.55351	-112.325
	-23.0149	-15.2898						
0.81	-20.1011	85.6862	-6.23839	179.592	-6.23256	179.555	-6.26701	179.621
	-6.27346	179.846						
	-6.23915	179.57	-23.2084	10.6609	-10.2293	-118.026	-17.5193	72.2964
	-17.5274	72.5048						
	-6.23479	179.535	-10.2297	-118.047	-23.875	-19.6349	-17.5092	72.3188
	-17.5191	72.5387						
	-6.26814	179.599	-17.5222	72.2865	-17.5129	72.3208	-24.1375	-19.6486
	-10.2195	-117.995						
	-6.27429	179.823	-17.5302	72.5245	-17.5214	72.5471	-10.2214	-118.011
	-23.8766	-20.1486						
0.86	-20.3389	93.5756	-6.23287	167.628	-6.22714	167.587	-6.25869	167.663
	-6.26525	167.905						
	-6.23383	167.608	-23.8887	8.00391	-10.8988	-123.322	-17.865	56.0039
	-17.8733	56.231						
	-6.22965	167.567	-10.8992	-123.341	-24.6088	-25.0439	-17.8547	56.0256
	-17.865	56.2627						
	-6.26033	167.642	-17.868	55.994	-17.8583	56.0233	-24.8981	-24.6343
	-10.895	-123.308						
	-6.2665	167.882	-17.8761	56.2457	-17.867	56.2677	-10.8971	-123.323
	-24.5918	-25.3105						
0.91	-20.2117	101.479	-6.24646	155.741	-6.24097	155.697	-6.2691	155.777
	-6.27602	156.036						
	-6.24713	155.718	-24.5001	4.89955	-11.5687	-128.272	-18.2318	39.6778
	-18.2409	39.921						
	-6.24309	155.673	-11.5689	-128.292	-25.2097	-31.0632	-18.2216	39.6961
	-18.2318	39.9519						
	-6.27056	155.754	-18.2345	39.6679	-18.2248	39.6913	-25.5154	-30.1905
	-11.5732	-128.264						
	-6.27706	156.012	-18.243	39.9328	-18.2338	39.9553	-11.575	-128.278
	-25.1611	-31.0389						
0.96	-19.6653	109.294	-6.274	143.947	-6.26876	143.898	-6.2934	143.977
	-6.30059	144.254						
	-6.27466	143.925	-25.0849	1.18918	-12.2335	-132.914	-18.622	23.3375
	-18.6311	23.6035						
	-6.27087	143.878	-12.2337	-132.929	-25.6953	-37.8897	-18.6118	23.3583
	-18.622	23.6302						
	-6.29478	143.956	-18.6246	23.3325	-18.6148	23.3541	-26.0056	-36.5634
	-12.2475	-132.894						
	-6.3017	144.232	-18.6332	23.6129	-18.624	23.6369	-12.2494	-132.905
	-25.6018	-37.5522						
1.01	-18.5488	116.717	-6.31003	132.264	-6.30489	132.213	-6.32653	132.285
	-6.33373	132.578						
	-6.31066	132.242	-25.6909	-3.19766	-12.8885	-137.273	-19.037	7.02725
	-19.046	7.31117						
	-6.30723	132.193	-12.8888	-137.289	-26.0867	-45.5487	-19.0264	7.05023
	-19.0365	7.33803						
	-6.32815	132.264	-19.0392	7.02006	-19.0293	7.03956	-26.3885	-43.8308
	-12.9137	-137.223						
	-6.33516	132.556	-19.048	7.31555	-19.0385	7.33898	-12.9156	-137.232
	-25.9355	-44.9111						
1.06	-16.3797	121.758	-6.35055	120.691	-6.34563	120.637	-6.3644	120.698
	-6.37191	121.008						
	-6.35107	120.669	-26.3584	-8.24641	-13.5325	-141.389	-19.4775	-9.23574
	-19.4866	-8.9338						
	-6.34753	120.616	-13.5328	-141.406	-26.4041	-53.9614	-19.4667	-9.21113
	-19.4775	-8.9064						
	-6.36574	120.676	-19.4798	-9.24515	-19.4697	-9.22647	-26.6876	-51.94
	-13.5688	-141.283						
	-6.37282	120.985	-19.4888	-8.93294	-19.4793	-8.91197	-13.5707	-141.293
	-26.1865	-53.0664						
1.11	-14.3509	113.346	-6.39029	109.222	-6.38534	109.166	-6.4021	109.21
	-6.40954	109.539						
	-6.39074	109.198	-27.1031	-13.8794	-14.1634	-145.3	-19.9443	-25.4264
	-19.9531	-25.1089						
	-6.38745	109.146	-14.1639	-145.316	-26.6725	-62.9055	-19.9325	-25.4056
	-19.9438	-25.0816						
	-6.40323	109.189	-19.9459	-25.4425	-19.9355	-25.4211	-26.9337	-60.6892
	-14.2098	-145.111						
	-6.41043	109.516	-19.9553	-25.1085	-19.9454	-25.0913	-14.2116	-145.122
	-26.3824	-61.8171						
1.16	-13.1913	103.239	-6.42518	97.8455	-6.4203	97.7865	-6.43578	97.8125
	-6.44316	98.1594						
	-6.4256	97.8215	-27.941	-19.9676	-14.7817	-149.041	-20.4363	-41.531
	-20.4446	-41.1965						
	-6.42248	97.766	-14.7823	-149.057	-26.908	-72.2087	-20.4237	-41.5121
	-20.4354	-41.1708						
	-6.43684	97.7906	-20.438	-41.5473	-20.427	-41.5281	-27.144	-69.9172
	-14.8363	-148.746						
	-6.44407	98.136	-20.4469	-41.2033	-20.437	-41.1823	-14.8381	-148.755
	-26.5405	-71.0019						
1.21	-12.4846	92.6772	-6.45252	86.5367	-6.44756	86.475	-6.46243	86.4818
	-6.46978	86.8467						
	-6.45298	86.5136	-28.8682	-26.4269	-15.3886	-152.661	-20.9538	-57.5475
	-20.9625	-57.1898						
	-6.44975	86.4556	-15.3894	-152.672	-27.1172	-81.6775	-20.941	-57.5241
	-20.9525	-57.1656						
	-6.46331	86.4607	-20.9554	-57.5596	-20.9439	-57.5457	-27.3259	-79.4034
	-15.4485	-152.233						
	-6.47058	86.8245	-20.9644	-57.203	-20.9545	-57.1745	-15.4504	-152.237
	-26.6697	-80.4319						
1.26	-12.0861	81.8185	-6.47027	75.2769	-6.46554	75.2127	-6.48034	75.1992
	-6.48778	75.5817						
	-6.47124	75.2509	-29.8758	-33.2428	-15.9874	-156.181	-21.4976	-73.4503
	-21.5057	-73.0718						
	-6.4679	75.1912	-15.9885	-156.191	-27.3119	-91.0268	-21.4844	-73.4266
	-21.4956	-73.0495						
	-6.48147	75.1772	-21.4994	-73.4596	-21.4877	-73.4452	-27.4952	-88.8476
	-16.0479	-155.602						
	-6.48886	75.5588	-21.5081	-73.0847	-21.4981	-73.0592	-16.0504	-155.602
	-26.7836	-89.8205						
1.31	-11.9286	70.694	-6.47867	64.0424	-6.47397	63.9766	-6.48945	63.9446
	-6.4971	64.3451						
	-6.47947	64.0139	-30.9399	-40.3269	-16.5837	-159.628	-22.0686	-89.2236
	-22.0765	-88.8309						
	-6.47622	63.9537	-16.5848	-159.642	-27.511	-100.04	-22.0552	-89.2047
	-22.0659	-88.8073						
	-6.49022	63.921	-22.0702	-89.2402	-22.0585	-89.2212	-27.6748	-98.041
	-16.6397	-158.882						
	-6.49794	64.3213	-22.0784	-88.844	-22.0689	-88.8186	-16.6422	-158.883
	-26.9013	-98.963						
1.36	-11.9784	59.2881	-6.47728	52.8096	-6.47267	52.7419	-6.48953	52.694
	-6.49705	53.1119						
	-6.47782	52.7817	-32.0273	-47.5748	-17.1832	-163.027	-22.6681	-104.866
	-22.6752	-104.454						
	-6.47483	52.7206	-17.1841	-163.039	-27.7344	-108.477	-22.6538	-104.849
	-22.665	-104.43						
	-6.49005	52.6722	-22.6696	-104.883	-22.6578	-104.864	-27.8851	-106.739
	-17.2291	-162.105						
	-6.49747	53.0899	-22.6774	-104.469	-22.6678	-104.443	-17.231	-162.108
	-27.045	-107.654						
1.41	-12.2188	47.537	-6.46718	41.5642	-6.46245	41.4949	-6.48109	41.4352
	-6.4886	41.8715						
	-6.4675	41.5368	-33.086	-54.8957	-17.7938	-166.375	-23.2967	-120.357
	-23.3047	-119.928						
	-6.46444	41.4724	-17.7949	-166.39	-27.9921	-116.115	-23.283	-120.338
	-23.2938	-119.906						
	-6.4815	41.4133	-23.2989	-120.375	-23.2868	-120.357	-28.1401	-114.713
	-17.8228	-165.282						
	-6.48861	41.8476	-23.3066	-119.94	-23.2964	-119.917	-17.8246	-165.287
	-27.2266	-115.689						
1.46	-12.6411	35.3428	-6.45042	30.2924	-6.44581	30.2201	-6.46619	30.1518
	-6.47364	30.6073						
	-6.45075	30.2628	-34.0647	-62.2005	-18.4264	-169.662	-23.9591	-135.676
	-23.9673	-135.228						
	-6.44754	30.1969	-18.4274	-169.679	-28.2956	-122.73	-23.945	-135.662
	-23.9558	-135.205						
	-6.46627	30.1288	-23.961	-135.692	-23.9485	-135.681	-28.4572	-121.711
	-18.4308	-168.406						
	-6.47347	30.582	-23.9681	-135.242	-23.9577	-135.22	-18.4328	-168.415
	-27.4627	-122.867						
1.51	-13.2396	22.5895	-6.42858	18.9793	-6.42377	18.9054	-6.44606	18.8324
	-6.45339	19.3059						
	-6.42868	18.9523	-34.9187	-69.4556	-19.0906	-172.851	-24.6572	-150.803
	-24.6646	-150.335						
	-6.42572	18.8844	-19.0916	-172.859	-28.6419	-128.18	-24.6419	-150.788
	-24.6529	-150.31						
	-6.44633	18.8109	-24.6583	-150.814	-24.6465	-150.806	-28.8394	-127.556
	-19.0632	-171.45						
	-6.45341	19.2834	-24.6651	-150.347	-24.6539	-150.325	-19.0654	-171.457
	-27.7576	-129.052						
1.56	-14.014	9.14276	-6.40349	7.62611	-6.39872	7.55127	-6.42275	7.4765
	-6.42991	7.96832						
	-6.40377	7.60039	-35.6065	-76.573	-19.7965	-175.854	-25.3937	-165.691
	-25.4011	-165.206						
	-6.40062	7.53053	-19.7974	-175.863	-29.0102	-132.429	-25.3788	-165.684
	-25.3896	-165.186						
	-6.42329	7.45577	-25.3959	-165.704	-25.3841	-165.703	-29.2688	-132.184
	-19.7299	-174.345						
	-6.42996	7.9465	-25.401	-165.22	-25.3902	-165.195	-19.7322	-174.357
	-28.103	-134.185						
1.61	-14.9613	-5.21875	-6.37813	-3.76957	-6.37347	-3.84471	-6.39899	-3.91915
	-6.40588	-3.40921						
	-6.37819	-3.79669	-36.0913	-83.4963	-20.5507	-178.556	-26.1751	179.709
	-26.182	-179.786						
	-6.37496	-3.86729	-20.552	-178.567	-29.3759	-135.499	-26.1596	179.712
	-26.1707	-179.769						
	-6.39933	-3.94121	-26.1764	179.69	-26.1642	179.691	-29.721	-135.529
	-20.4375	-176.988						
	-6.40556	-3.43401	-26.1811	-179.802	-26.1705	-179.783	-20.4397	-177.005
	-28.482	-138.233						
1.66	-16.0631	-20.7567	-6.3537	-15.2056	-6.34901	-15.2813	-6.37588	-15.3529
	-6.38237	-14.8248						
	-6.35395	-15.2313	-36.3831	-90.2695	-21.3529	179.204	-27.0031	165.477
	-27.0092	165.992						
	-6.35067	-15.3035	-21.3539	179.19	-29.7226	-137.542	-26.9891	165.467
	-26.9981	166.016						
	-6.37651	-15.3746	-27.0056	165.449	-26.9943	165.449	-30.1793	-137.694
	-21.187	-179.245						
	-6.38222	-14.849	-27.0091	165.978	-26.9985	165.998	-21.1895	-179.267
	-28.8797	-141.29						
1.71	-17.2803	-37.7103	-6.33149	-26.6711	-6.32661	-26.7471	-6.35463	-26.8143
	-6.36061	-26.2682						
	-6.33173	-26.6951	-36.4754	-96.8638	-22.1932	177.597	-27.8805	151.716
	-27.8867	152.239						
	-6.3283	-26.7689	-22.1934	177.583	-30.0405	-138.822	-27.8665	151.7
	-27.8763	152.271						
	-6.35542	-26.8366	-27.8839	151.672	-27.8729	151.675	-30.6248	-138.932
	-21.971	179.039						
	-6.36066	-26.2938	-27.8864	152.228	-27.8762	152.249	-21.9738	179.013
	-29.2825	-143.553						
1.76	-18.5554	-56.2023	-6.3127	-38.16	-6.30787	-38.2383	-6.33667	-38.2996
	-6.34223	-37.7359						
	-6.31276	-38.1846	-36.3819	-103.194	-23.0455	176.774	-28.8083	138.551
	-28.8131	139.098						
	-6.30908	-38.2592	-23.0457	176.767	-30.3318	-139.568	-28.7924	138.526
	-28.8013	139.131						
	-6.33716	-38.322	-28.8101	138.511	-28.7992	138.507	-31.0574	-139.426
	-22.7702	178						
	-6.34181	-37.762	-28.8127	139.084	-28.8021	139.107	-22.7727	177.973
	-29.6914	-145.198						
1.81	-19.8295	-76.1819	-6.29737	-49.6668	-6.29218	-49.7473	-6.32148	-49.8035
	-6.32645	-49.2208						
	-6.29745	-49.6892	-36.1379	-108.915	-23.8746	176.827	-29.7744	126.158
	-29.778	126.731						
	-6.29365	-49.766	-23.875	176.823	-30.6271	-139.932	-29.757	126.139
	-29.7669	126.769						
	-6.32235	-49.8247	-29.7748	126.133	-29.7644	126.116	-31.5057	-139.268
	-23.5536	177.732						
	-6.32646	-49.2451	-29.7776	126.72	-29.7663	126.736	-23.5579	177.701
	-30.1345	-146.386						
1.86	-21.0378	-97.3871	-6.2856	-61.1796	-6.28026	-61.2623	-6.30983	-61.3151
	-6.31401	-60.7141						
	-6.28596	-61.2034	-35.8351	-114.451	-24.6417	177.741	-30.7594	114.737
	-30.7612	115.33						
	-6.28202	-61.2817	-24.6416	177.731	-30.9206	-140.369	-30.7421	114.713
	-30.7489	115.383						
	-6.31089	-61.3367	-30.7586	114.726	-30.7474	114.701	-31.9628	-138.944
	-24.2886	178.234						
	-6.31459	-60.7387	-30.7613	115.333	-30.7498	115.343	-24.2933	178.205
	-30.5963	-147.567						
1.91	-22.1582	-119.398	-6.27755	-72.6969	-6.27209	-72.78	-6.3016	-72.8295
	-6.30536	-72.2114						
	-6.27793	-72.7195	-35.5153	-119.692	-25.3115	179.371	-31.722	104.456
	-31.7226	105.066						
	-6.27383	-72.7996	-25.3115	179.362	-31.2503	-141.128	-31.7075	104.431
	-31.7136	105.127						
	-6.30293	-72.8504	-31.7227	104.444	-31.7123	104.422	-32.4715	-138.647
	-24.9443	179.419						
	-6.30584	-72.2353	-31.7255	105.072	-31.7118	105.081	-24.9488	179.392
	-31.1129	-148.979						
1.96	-23.204	-141.852	-6.27229	-84.2097	-6.26696	-84.2944	-6.29654	-84.3412
	-6.29918	-83.7054						
	-6.27321	-84.2317	-35.2253	-124.397	-25.8594	-178.456	-32.6096	95.3786
	-32.6121	96.0078						
	-6.2687	-84.3136	-25.8593	-178.473	-31.661	-142.345	-32.5983	95.339
	-32.604	96.0479						
