! MARKI MICROWAVE INC.
! Email:             	info@markimicrowave.com   				Phone:   408-778-4200
! Model Number:      	PD4-0R526							Date:    06/13
! Filename:		PD4_0R526.S5P						Version: 1.0
! Description:       	5-port S-parameter data for 4 Way Power Divider PD4-0R526
! Frequency Range: 	10 MHz to 27 GHz		
! Port Configuration:	PORT 1: COMMON
!			PORT 2: Output 1 
!			Port 3: Output 2
!			Port 4: Output 3
!			Port 5: Output 4
! S5P File: Measurements: Mag<S11> Ang<S11> Mag<S12> Ang<S12> Mag<S13> Ang<S13> Mag<S14> Ang<S14> ! row 1
!			  Mag<S15> Ang<S15>
!			  Mag<S21> Ang<S21> Mag<S22> Ang<S22> Mag<S23> Ang<S23> Mag<S24> Ang<S24> ! row 2
!			  Mag<S25> Ang<S25>
!			  Mag<S31> Ang<S31> Mag<S32> Ang<S32> Mag<S33> Ang<S33> Mag<S34> Ang<S34> ! row 3
!			  Mag<S35> Ang<S35>
!			  Mag<S41> Ang<S41> Mag<S42> Ang<S42> Mag<S43> Ang<S43> Mag<S44> Ang<S44> ! row 4
!			  Mag<S45> Ang<S45>
!			  Mag<S51> Ang<S51> Mag<S52> Ang<S52> Mag<S53> Ang<S53> Mag<S54> Ang<S54> ! row 5
!			  Mag<S55> Ang<S55>

# GHz S DB R 50
0.01	-4.8377	160.996	-7.8802	-19.4467	-7.89897	-19.4629	-7.87535	-19.7182
	-7.87636	-19.7423						
	-7.88909	-19.4504	-6.89061	143.874	-7.17633	-7.86332	-9.44414	-42.2603
	-9.45013	-42.1964						
	-7.90409	-19.5022	-7.17702	-8.02662	-6.88564	143.898	-9.46013	-42.3028
	-9.46786	-42.3062						
	-7.90155	-19.8662	-9.47008	-42.417	-9.47243	-42.3357	-6.91356	143.739
	-7.17005	-8.23566						
	-7.90617	-19.8645	-9.47903	-42.4918	-9.50173	-42.3848	-7.18883	-8.19263
	-6.91511	143.664						
0.0438	-5.00328	155.112	-7.83141	-26.3371	-7.84524	-26.3494	-7.82414	-26.558
	-7.82753	-26.5877						
	-7.83899	-26.3399	-7.98329	134.702	-7.0168	-12.3821	-9.95554	-54.3072
	-9.96273	-54.2658						
	-7.85055	-26.3847	-7.01808	-12.5196	-7.98032	134.725	-9.96775	-54.3462
	-9.97671	-54.3584						
	-7.8464	-26.6831	-9.97654	-54.441	-9.97717	-54.374	-8.01356	134.677
	-7.01066	-12.6841						
	-7.85281	-26.6945	-9.98658	-54.5133	-10.0041	-54.4247	-7.02585	-12.6504
	-8.00882	134.571						
0.0776	-5.22314	148.231	-7.7586	-34.3592	-7.76659	-34.3621	-7.74815	-34.5395
	-7.75391	-34.5764						
	-7.76502	-34.3624	-9.30596	124.821	-6.87841	-17.6784	-10.4824	-67.9903
	-10.4906	-67.9697						
	-7.77197	-34.3963	-6.87987	-17.7917	-9.3041	124.824	-10.4895	-68.0206
	-10.4996	-68.0424						
	-7.76648	-34.6426	-10.4981	-68.0991	-10.4963	-68.0399	-9.35196	124.97
	-6.87203	-17.9126						
	-7.77468	-34.6652	-10.5093	-68.1676	-10.5207	-68.0921	-6.88384	-17.8855
	-9.3348	124.809						
0.1114	-5.52433	140.277	-7.67012	-43.6707	-7.67312	-43.6668	-7.65734	-43.8047
	-7.66555	-43.8499						
	-7.67557	-43.6736	-10.9194	114.822	-6.77301	-23.8235	-11.051	-83.3646
	-11.0607	-83.365						
	-7.67898	-43.6999	-6.77497	-23.913	-10.9182	114.821	-11.0538	-83.3898
	-11.0653	-83.4212						
	-7.67194	-43.8878	-11.0618	-83.4488	-11.058	-83.4004	-10.9887	115.181
	-6.76702	-23.9912						
	-7.68207	-43.9212	-11.0745	-83.5147	-11.0798	-83.4516	-6.77535	-23.969
	-10.9584	114.956						
0.1452	-5.92736	131.291	-7.56856	-54.2658	-7.56654	-54.259	-7.5537	-54.3559
	-7.56419	-54.4075						
	-7.57295	-54.2695	-12.8041	105.397	-6.70855	-30.7618	-11.6528	-100.393
	-11.6636	-100.411						
	-7.57303	-54.2887	-6.71127	-30.8259	-12.8053	105.404	-11.6517	-100.412
	-11.6642	-100.45						
	-7.56419	-54.4186	-11.6583	-100.453	-11.6524	-100.418	-12.9013	106.024
	-6.70299	-30.8609						
	-7.57664	-54.4629	-11.6723	-100.515	-11.6719	-100.469	-6.70775	-30.8475
	-12.856	105.687						
0.179	-6.43388	121.25	-7.43303	-66.082	-7.42554	-66.0727	-7.41623	-66.134
	-7.4292	-66.1908						
	-7.43637	-66.0886	-14.9135	97.0647	-6.67884	-38.4222	-12.2317	-119.193
	-12.2442	-119.233						
	-7.43286	-66.1002	-6.6824	-38.4591	-14.9158	97.0727	-12.2269	-119.208
	-12.2405	-119.252						
	-7.42305	-66.1739	-12.2327	-119.225	-12.2241	-119.205	-15.0222	98.0214
	-6.67365	-38.4532						
	-7.43757	-66.2281	-12.2482	-119.284	-12.2412	-119.254	-6.6749	-38.4474
	-14.9649	97.5299						
0.2128	-7.12475	110.437	-7.31302	-79.0842	-7.30212	-79.0775	-7.29465	-79.1107
	-7.31016	-79.1729						
	-7.31522	-79.0922	-17.0189	91.1763	-6.7331	-46.7917	-12.8861	-139.017
	-12.9004	-139.072						
	-7.30917	-79.1003	-6.73641	-46.8109	-17.023	91.2267	-12.8783	-139.03
	-12.8936	-139.082						
	-7.29853	-79.1429	-12.8837	-139.041	-12.8735	-139.034	-17.1186	92.481
	-6.72715	-46.7703						
	-7.31539	-79.2049	-12.9007	-139.094	-12.8901	-139.083	-6.72606	-46.7794
	-17.0607	91.8503						
0.2466	-7.9752	99.567	-7.15282	-92.2288	-7.1419	-92.2293	-7.13511	-92.2699
	-7.15253	-92.3332						
	-7.15488	-92.2376	-18.9901	88.265	-6.89419	-55.4152	-13.4131	-158.179
	-13.4296	-158.237						
	-7.14817	-92.2511	-6.89726	-55.4323	-18.9911	88.3154	-13.4049	-158.195
	-13.4225	-158.25						
	-7.13716	-92.3101	-13.4094	-158.209	-13.3987	-158.208	-19.0753	89.8396
	-6.88787	-55.3903						
	-7.15576	-92.3704	-13.4276	-158.261	-13.4169	-158.261	-6.88515	-55.4059
	-19.0218	89.0921						
0.2804	-9.08026	89.1198	-7.00965	-105.6	-6.99821	-105.616	-6.99242	-105.663
	-7.01164	-105.724						
	-7.01222	-105.61	-20.6866	87.9223	-7.17938	-63.9109	-13.8906	-176.701
	-13.909	-176.755						
	-7.00462	-105.636	-7.18214	-63.925	-20.6844	88.0116	-13.8818	-176.725
	-13.9014	-176.782						
	-6.99435	-105.701	-13.8858	-176.728	-13.8751	-176.74	-20.7515	89.7184
	-7.17163	-63.8911						
	-7.01408	-105.761	-13.9055	-176.777	-13.895	-176.79	-7.16854	-63.9037
	-20.7039	88.9063						
0.3142	-10.4866	79.6135	-6.86757	-119.139	-6.85636	-119.165	-6.85152	-119.197
	-6.87133	-119.254						
	-6.86972	-119.147	-22.126	89.2735	-7.5383	-72.1538	-14.2744	164.973
	-14.2943	164.925						
	-6.86273	-119.183	-7.54141	-72.1669	-22.1227	89.4039	-14.2667	164.941
	-14.2872	164.888						
	-6.85369	-119.254	-14.2705	164.926	-14.2596	164.907	-22.1699	91.3049
	-7.52931	-72.1175						
	-6.87433	-119.312	-14.2912	164.885	-14.281	164.861	-7.52635	-72.1489
	-22.1267	90.4502						
0.348	-12.2408	72.3433	-6.71928	-132.843	-6.70888	-132.872	-6.70619	-132.866
	-6.72684	-132.918						
	-6.72125	-132.847	-23.306	92.0046	-7.94707	-80.1506	-14.5759	146.644
	-14.5961	146.601						
	-6.71425	-132.889	-7.9498	-80.1676	-23.3021	92.1986	-14.5679	146.603
	-14.5891	146.553						
	-6.70724	-132.966	-14.5702	146.546	-14.5604	146.524	-23.3297	94.3223
	-7.93629	-80.0755						
	-6.72848	-133.022	-14.5925	146.51	-14.5829	146.482	-7.93312	-80.1512
	-23.2907	93.4562						
0.3818	-14.0104	69.6439	-6.61851	-146.71	-6.60827	-146.747	-6.60768	-146.743
	-6.62891	-146.789						
	-6.62069	-146.712	-24.1811	95.8583	-8.40722	-87.836	-14.8888	128.27
	-14.9094	128.23						
	-6.6139	-146.761	-8.40995	-87.8527	-24.1805	96.1507	-14.881	128.224
	-14.9033	128.177						
	-6.60898	-146.843	-14.8831	128.17	-14.8731	128.143	-24.1858	98.3358
	-8.39418	-87.7676						
	-6.63089	-146.893	-14.9059	128.141	-14.8969	128.105	-8.39101	-87.8469
	-24.1496	97.4775						
0.4156	-15.4833	69.604	-6.50136	-160.65	-6.4906	-160.693	-6.49321	-160.69
	-6.5145	-160.731						
	-6.50271	-160.654	-24.763	100.529	-8.8871	-95.3811	-15.1206	109.718
	-15.1417	109.684						
	-6.49656	-160.706	-8.89053	-95.3969	-24.7678	100.906	-15.1125	109.671
	-15.1354	109.624						
	-6.49433	-160.792	-15.1162	109.617	-15.105	109.586	-24.7378	103.097
	-8.87248	-95.3278						
	-6.51665	-160.835	-15.1391	109.596	-15.1288	109.555	-8.86837	-95.405
	-24.7061	102.262						
0.4494	-16.5835	70.7797	-6.43704	-174.695	-6.42669	-174.753	-6.4321	-174.736
	-6.4538	-174.773						
	-6.43788	-174.7	-24.9749	105.529	-9.40258	-102.717	-15.3952	91.1139
	-15.4169	91.0849						
	-6.43335	-174.76	-9.40747	-102.729	-24.9839	106.022	-15.3889	91.0566
	-15.4128	91.0166						
	-6.43385	-174.833	-15.3922	91.0148	-15.381	90.9677	-24.9028	108.138
	-9.38662	-102.685						
	-6.45634	-174.872	-15.4155	90.9989	-15.4057	90.9439	-9.38227	-102.763
	-24.8797	107.363						
0.4832	-17.4287	72.413	-6.37872	171.253	-6.36778	171.186	-6.3765	171.212
	-6.39853	171.182						
	-6.37901	171.248	-24.8113	110.179	-9.94116	-109.988	-15.6441	72.4262
	-15.6659	72.4022						
	-6.37437	171.18	-9.94647	-110	-24.8249	110.763	-15.6382	72.3596
	-15.6622	72.3264						
	-6.37765	171.118	-15.6414	72.3303	-15.6293	72.272	-24.6906	112.802
	-9.92358	-109.984						
	-6.40081	171.085	-15.6648	72.3178	-15.6549	72.2516	-9.9178	-110.063
	-24.6735	112.109						
0.517	-18.0445	74.2941	-6.33308	157.192	-6.322	157.114	-6.33351	157.156
	-6.35587	157.128						
	-6.33367	157.185	-24.2911	113.545	-10.5082	-117.248	-15.8878	53.6318
	-15.9104	53.6109						
	-6.32854	157.111	-10.513	-117.255	-24.306	114.228	-15.8815	53.5572
	-15.9063	53.5276						
	-6.33462	157.062	-15.8852	53.5386	-15.8729	53.4697	-24.1286	116.109
	-10.4882	-117.274						
	-6.35793	157.033	-15.9085	53.5286	-15.8992	53.4514	-10.482	-117.354
	-24.1168	115.555						
0.5508	-18.4335	76.2959	-6.32835	143.165	-6.31762	143.079	-6.33132	143.143
	-6.35377	143.12						
	-6.32864	143.16	-23.5189	114.674	-11.1177	-124.519	-16.1826	34.8707
	-16.2056	34.8542						
	-6.3237	143.076	-11.1223	-124.528	-23.5367	115.452	-16.1762	34.7876
	-16.202	34.7632						
	-6.33195	143.046	-16.1802	34.7764	-16.1681	34.7002	-23.3367	117.08
	-11.0961	-124.589						
	-6.35536	143.021	-16.203	34.772	-16.1943	34.6857	-11.0891	-124.671
	-23.321	116.721						
0.5846	-18.6185	78.2929	-6.30391	129.183	-6.29279	129.09	-6.30853	129.159
	-6.331	129.142						
	-6.30482	129.178	-22.6969	113.817	-11.7686	-131.965	-16.428	15.9999
	-16.4517	15.9885						
	-6.29945	129.088	-11.7738	-131.971	-22.7199	114.668	-16.4219	15.9078
	-16.4475	15.8929						
	-6.30987	129.075	-16.4267	15.9156	-16.4138	15.8326	-22.5101	116.025
	-11.7452	-132.101						
	-6.33308	129.055	-16.4496	15.9186	-16.4403	15.8239	-11.7381	-132.174
	-22.4828	115.855						
0.6184	-18.5453	80.0963	-6.33208	115.282	-6.32075	115.179	-6.33675	115.276
	-6.35927	115.264						
	-6.33263	115.275	-21.8945	111.221	-12.5034	-139.489	-16.7626	-2.74945
	-16.786	-2.7529						
	-6.32745	115.178	-12.5082	-139.493	-21.927	112.179	-16.7563	-2.85182
	-16.7809	-2.85786						
	-6.3388	115.189	-16.7618	-2.83301	-16.7485	-2.92675	-21.7125	113.318
	-12.478	-139.688						
	-6.36195	115.174	-16.7852	-2.82597	-16.7751	-2.92806	-12.4718	-139.768
	-21.6662	113.314						
0.6522	-18.1998	81.4222	-6.34177	101.465	-6.33064	101.358	-6.34678	101.474
	-6.36917	101.466						
	-6.34248	101.457	-21.1351	107.525	-13.329	-147.244	-17.0666	-21.4945
	-17.0898	-21.4941						
	-6.33723	101.353	-13.3339	-147.251	-21.1814	108.531	-17.0599	-21.6044
	-17.0843	-21.604						
	-6.34974	101.384	-17.0664	-21.5798	-17.0525	-21.679	-20.9653	109.502
	-13.3034	-147.534						
	-6.3729	101.375	-17.0898	-21.5712	-17.0792	-21.676	-13.2972	-147.612
	-20.9012	109.649						
0.686	-17.5044	81.4889	-6.35706	87.7117	-6.34569	87.5931	-6.36194	87.682
	-6.38452	87.6767						
	-6.35883	87.7006	-20.424	102.761	-14.2962	-155.202	-17.3959	-40.27
	-17.419	-40.2677						
	-6.35281	87.5891	-14.3011	-155.204	-20.4786	103.798	-17.3872	-40.3895
	-17.4127	-40.3834						
	-6.36498	87.6397	-17.3945	-40.3042	-17.3807	-40.4183	-20.266	104.536
	-14.2727	-155.658						
	-6.38852	87.6358	-17.4179	-40.2939	-17.4069	-40.4107	-14.2655	-155.694
	-20.1857	104.83						
0.7198	-16.5153	78.1644	-6.38535	74.0448	-6.37321	73.9161	-6.38833	74.0144
	-6.41047	74.0139						
	-6.3866	74.0297	-19.7675	96.9104	-15.4729	-163.247	-17.7611	-58.8707
	-17.7843	-58.8597						
	-6.3806	73.9084	-15.4779	-163.253	-19.833	97.9444	-17.7524	-58.9969
	-17.7784	-58.9838						
	-6.39141	73.9806	-17.7608	-58.8874	-17.7453	-59.0154	-19.6215	98.5251
	-15.4544	-163.892						
	-6.41495	73.9801	-17.7834	-58.8808	-17.7712	-59.0026	-15.447	-163.921
	-19.5266	98.9613						
0.7536	-15.6266	71.069	-6.37873	60.4187	-6.3663	60.2818	-6.37965	60.4012
	-6.40224	60.4013						
	-6.37951	60.4007	-19.173	90.1545	-16.9424	-171.474	-18.0837	-77.4822
	-18.1073	-77.4665						
	-6.37305	60.2711	-16.948	-171.483	-19.2456	91.1745	-18.0747	-77.6195
	-18.1003	-77.6008						
	-6.38234	60.3658	-18.083	-77.5	-18.0679	-77.6363	-19.0403	91.6405
	-16.9363	-172.411						
	-6.4058	60.3685	-18.1051	-77.4952	-18.0931	-77.6212	-16.9285	-172.431
	-18.9337	92.2392						
0.7874	-15.1613	61.6	-6.41323	46.8434	-6.40172	46.7	-6.41223	46.8348
	-6.43495	46.8364						
	-6.41481	46.8264	-18.7015	82.2467	-19.0307	-178.484	-18.5094	-95.8255
	-18.5329	-95.8091						
	-6.40771	46.6869	-19.0371	-178.498	-18.784	83.2616	-18.5	-95.9719
	-18.5255	-95.9491						
	-6.41496	46.7984	-18.5077	-95.8415	-18.4938	-95.9837	-18.5914	83.6065
	-19.0904	179.932						
	-6.43888	46.804	-18.5294	-95.8361	-18.5186	-95.9712	-19.0868	179.908
	-18.4751	84.3902						
0.8212	-14.9773	51.5727	-6.41118	33.2963	-6.40026	33.1459	-6.40872	33.3002
	-6.43135	33.3033						
	-6.4137	33.2802	-18.3462	73.6372	-21.6676	-178.473	-18.8916	-114.144
	-18.9154	-114.123						
	-6.40585	33.1313	-21.6853	-178.457	-18.4425	74.6409	-18.882	-114.292
	-18.907	-114.274						
	-6.41105	33.2523	-18.8895	-114.163	-18.8764	-114.316	-18.2642	74.8433
	-21.8859	-179.089						
	-6.43477	33.2599	-18.9105	-114.16	-18.8999	-114.299	-21.8793	-179.09
	-18.1434	75.8465						
0.855	-15.0692	41.297	-6.41472	19.7545	-6.40403	19.5995	-6.40952	19.7563
	-6.43212	19.7622						
	-6.41751	19.737	-18.1481	64.3051	-23.4878	-172.793	-19.3115	-132.297
	-19.3352	-132.279						
	-6.40984	19.5826	-23.5068	-172.775	-18.2603	65.2942	-19.3012	-132.452
	-19.3273	-132.433						
	-6.41303	19.7078	-19.31	-132.322	-19.2968	-132.475	-18.0919	65.295
	-23.7008	-172.699						
	-6.43617	19.7168	-19.3306	-132.313	-19.3197	-132.456	-23.6955	-172.705
	-17.9719	66.5592						
0.8888	-15.3764	31.1274	-6.41797	6.21881	-6.40744	6.06195	-6.41064	6.21761
	-6.43287	6.22627						
	-6.42058	6.20506	-18.1167	54.4462	-24.7643	-166.541	-19.7512	-150.246
	-19.7737	-150.227						
	-6.41299	6.0427	-24.7831	-166.537	-18.2484	55.414	-19.7402	-150.409
	-19.7667	-150.396						
	-6.41432	6.16947	-19.7489	-150.276	-19.7367	-150.439	-18.0828	55.1853
	-24.9628	-166.042						
	-6.43742	6.17841	-19.7698	-150.267	-19.7588	-150.413	-24.9579	-166.044
	-17.9708	56.7496						
0.9226	-15.856	21.0981	-6.39291	-7.31477	-6.38227	-7.47588	-6.38336	-7.32533
	-6.40527	-7.31688						
	-6.39557	-7.32759	-18.2374	44.1309	-25.6927	-160.122	-20.1611	-168.11
	-20.1825	-168.085						
	-6.38818	-7.4986	-25.713	-160.126	-18.3916	45.0864	-20.1498	-168.28
	-20.175	-168.268						
	-6.38793	-7.3737	-20.1582	-168.14	-20.146	-168.307	-18.2211	44.603
	-25.8755	-159.309						
	-6.41112	-7.36227	-20.1798	-168.129	-20.1691	-168.28	-25.8723	-159.305
	-18.1262	46.5072						
0.9564	-16.5358	11.6705	-6.40356	-20.8754	-6.39237	-21.0407	-6.39277	-20.8975
	-6.41402	-20.8886						
	-6.40518	-20.8893	-18.578	33.3934	-26.3218	-153.797	-20.6455	174.415
	-20.6654	174.44						
	-6.39845	-21.0691	-26.3434	-153.805	-18.7619	34.3581	-20.6344	174.236
	-20.6596	174.241						
	-6.39722	-20.9484	-20.6429	174.378	-20.6304	174.211	-18.5768	33.5416
	-26.4905	-152.712						
	-6.42036	-20.937	-20.6639	174.392	-20.6531	174.237	-26.4865	-152.707
	-18.5119	35.8558						
0.9902	-17.3353	2.73464	-6.37982	-34.4401	-6.36848	-34.6075	-6.36841	-34.4749
	-6.3889	-34.4645						
	-6.38119	-34.4539	-19.0822	22.2224	-26.7184	-147.427	-21.0794	157.059
	-21.0987	157.083						
	-6.37474	-34.6378	-26.7399	-147.436	-19.3068	23.232	-21.0681	156.875
	-21.0939	156.877						
	-6.37248	-34.5279	-21.0771	157.017	-21.0645	156.851	-19.0906	21.9552
	-26.8698	-146.082						
	-6.39596	-34.5166	-21.0971	157.036	-21.086	156.876	-26.866	-146.074
	-19.0753	24.7562						
1.024	-18.2361	-5.35734	-6.3758	-47.9673	-6.36441	-48.1406	-6.36409	-48.0147
	-6.38417	-48.0032						
	-6.3769	-47.9815	-19.8263	10.7213	-26.87	-141.05	-21.5445	140.09
	-21.5625	140.112						
	-6.37084	-48.17	-26.8914	-141.063	-20.1141	11.7899	-21.5336	139.899
	-21.5585	139.9						
	-6.36799	-48.0703	-21.542	140.04	-21.5296	139.877	-19.83	9.90536
	-27.0024	-139.433						
	-6.39132	-48.0604	-21.5614	140.066	-21.5502	139.898	-26.9991	-139.435
	-19.8962	13.2827						
1.0578	-19.1697	-12.7193	-6.36683	-61.5798	-6.35587	-61.7575	-6.35579	-61.6398
	-6.37556	-61.6296						
	-6.36806	-61.5942	-20.821	-1.51395	-26.7665	-134.79	-21.9906	123.298
	-22.0084	123.318						
	-6.36224	-61.7853	-26.7877	-134.798	-21.2068	-0.385574	-21.9809	123.102
	-22.0047	123.104						
	-6.3599	-61.6958	-21.9889	123.249	-21.9774	123.081	-20.7948	-3.06533
	-26.8761	-132.874						
	-6.38307	-61.6867	-22.0082	123.276	-21.9984	123.105	-26.8737	-132.875
	-21.0026	0.923201						
1.0916	-20.0943	-19.4721	-6.34374	-75.2196	-6.33313	-75.4016	-6.33414	-75.2899
	-6.35368	-75.2805						
	-6.3448	-75.2325	-22.0966	-15.0922	-26.3682	-128.662	-22.4066	106.686
	-22.4244	106.707						
	-6.33934	-75.4264	-26.3901	-128.66	-22.6507	-14.1372	-22.3975	106.491
	-22.4207	106.487						
	-6.3385	-75.3457	-22.4044	106.644	-22.3944	106.464	-21.9737	-17.5304
	-26.4501	-126.385						
	-6.36134	-75.3385	-22.4248	106.673	-22.4153	106.488	-26.4473	-126.387
	-22.4256	-13.2244						
1.1254	-20.9609	-25.7102	-6.35254	-88.8621	-6.34225	-89.0475	-6.34493	-88.9376
	-6.36398	-88.9269						
	-6.35377	-88.8734	-23.693	-30.9355	-25.5128	-122.799	-22.8392	90.4545
	-22.856	90.4734						
	-6.34892	-89.0711	-25.5338	-122.8	-24.4452	-31.1794	-22.8307	90.2496
	-22.8535	90.2467						
	-6.34954	-88.9973	-22.8375	90.4058	-22.8273	90.2224	-23.3604	-33.9132
	-25.5515	-119.99						
	-6.37199	-88.9902	-22.858	90.4326	-22.8481	90.2459	-25.5482	-119.997
	-24.1224	-30.3771						
1.1592	-21.7456	-31.9345	-6.33111	-102.511	-6.32082	-102.699	-6.3249	-102.592
	-6.3435	-102.58						
	-6.3323	-102.523	-25.283	-50.3433	-23.9553	-118.976	-23.2	74.326
	-23.2168	74.3403						
	-6.3279	-102.725	-23.9728	-118.977	-26.064	-52.6351	-23.1912	74.1062
	-23.2142	74.1104						
	-6.33009	-102.651	-23.1984	74.2665	-23.188	74.0867	-24.7107	-53.035
	-23.8629	-115.374						
	-6.35212	-102.645	-23.2181	74.2961	-23.2097	74.1102	-23.8543	-115.376
	-25.6608	-51.4373						
1.193	-22.4174	-38.2857	-6.34078	-116.171	-6.33074	-116.362	-6.33654	-116.252
	-6.35489	-116.239						
	-6.34153	-116.184	-26.6801	-72.0484	-22.2393	-124.811	-23.5672	58.4613
	-23.5839	58.4794						
	-6.33755	-116.39	-22.2458	-124.84	-27.3452	-75.8316	-23.5591	58.2394
	-23.5817	58.2414						
	-6.34128	-116.313	-23.5645	58.4018	-23.5541	58.2202	-25.92	-73.9388
	-22.0061	-122.465						
	-6.36343	-116.308	-23.5845	58.4305	-23.576	58.2347	-22.0014	-122.495
	-26.9002	-74.2002						
1.2268	-22.9667	-45.1187	-6.33868	-129.82	-6.32911	-130.014	-6.33617	-129.899
	-6.35469	-129.886						
	-6.33917	-129.832	-27.7727	-95.1303	-21.3461	-132.988	-23.8742	42.7055
	-23.8908	42.7256						
	-6.33528	-130.044	-21.3526	-133.022	-28.2844	-99.8838	-23.8677	42.4809
	-23.8885	42.4797						
	-6.34087	-129.962	-23.8718	42.6434	-23.8616	42.4574	-26.8756	-95.9335
	-21.0859	-131.061						
	-6.36279	-129.955	-23.8919	42.6719	-23.8837	42.4707	-21.0805	-131.096
	-27.8125	-97.7502						
1.2606	-23.3848	-52.661	-6.3316	-143.478	-6.32228	-143.676	-6.32993	-143.547
	-6.34864	-143.536						
	-6.33198	-143.491	-28.589	-118.797	-20.891	-141.446	-24.1316	27.0279
	-24.1485	27.0548						
	-6.3283	-143.706	-20.8969	-141.471	-28.9477	-124.18	-24.1254	26.7998
	-24.1461	26.804						
	-6.33524	-143.614	-24.1298	26.9698	-24.1194	26.7817	-27.6082	-118.406
	-20.6013	-139.725						
	-6.35711	-143.607	-24.15	26.9978	-24.1425	26.7918	-20.5961	-139.765
	-28.4715	-121.551						
1.2944	-23.6439	-61.1622	-6.3481	-157.124	-6.33891	-157.327	-6.34693	-157.185
	-6.36599	-157.172						
	-6.34811	-157.138	-29.2113	-142.319	-20.7536	-149.749	-24.3704	11.4245
	-24.3876	11.4527						
	-6.34466	-157.353	-20.7594	-149.767	-29.4293	-148.187	-24.365	11.1984
	-24.3857	11.2053						
	-6.35212	-157.251	-24.3693	11.3715	-24.3595	11.1737	-28.1743	-140.839
	-20.4281	-148.181						
	-6.37414	-157.245	-24.3891	11.3942	-24.3811	11.1816	-20.4225	-148.22
	-28.9481	-145.168						
1.3282	-23.7303	-70.7784	-6.33249	-170.768	-6.32419	-170.967	-6.33214	-170.808
	-6.35207	-170.797						
	-6.33358	-170.784	-29.5266	-165.832	-20.8227	-157.79	-24.526	-4.23585
	-24.5446	-4.20538						
	-6.3301	-171	-20.8279	-157.814	-29.6023	-172.051	-24.5214	-4.46025
