! MARKI MICROWAVE INC.
! Email:             	info@markimicrowave.com   				Phone:   408-778-4200
! Model Number:      	PD4-0R532							Date:    06/13
! Filename:		PD4_0R532.S5P						Version: 1.0
! Description:       	5-port S-parameter data for 4 Way Power Divider PD4-0R532
! Frequency Range: 	10 MHz to 34 GHz		
! Port Configuration:	PORT 1: COMMON
!			PORT 2: Output 1 
!			Port 3: Output 2
!			Port 4: Output 3
!			Port 5: Output 4
! S5P File: Measurements: Mag<S11> Ang<S11> Mag<S12> Ang<S12> Mag<S13> Ang<S13> Mag<S14> Ang<S14> ! row 1
!			  Mag<S15> Ang<S15>
!			  Mag<S21> Ang<S21> Mag<S22> Ang<S22> Mag<S23> Ang<S23> Mag<S24> Ang<S24> ! row 2
!			  Mag<S25> Ang<S25>
!			  Mag<S31> Ang<S31> Mag<S32> Ang<S32> Mag<S33> Ang<S33> Mag<S34> Ang<S34> ! row 3
!			  Mag<S35> Ang<S35>
!			  Mag<S41> Ang<S41> Mag<S42> Ang<S42> Mag<S43> Ang<S43> Mag<S44> Ang<S44> ! row 4
!			  Mag<S45> Ang<S45>
!			  Mag<S51> Ang<S51> Mag<S52> Ang<S52> Mag<S53> Ang<S53> Mag<S54> Ang<S54> ! row 5
!			  Mag<S55> Ang<S55>

# GHz S DB R 50



0.01	-4.8377	160.996	-7.8802	-19.4467	-7.89897	-19.4629	-7.87535	-19.7182
	-7.87636	-19.7423						
	-7.88909	-19.4504	-6.89061	143.874	-7.17633	-7.86332	-9.44414	-42.2603
	-9.45013	-42.1964						
	-7.90409	-19.5022	-7.17702	-8.02662	-6.88564	143.898	-9.46013	-42.3028
	-9.46786	-42.3062						
	-7.90155	-19.8662	-9.47008	-42.417	-9.47243	-42.3357	-6.91356	143.739
	-7.17005	-8.23566						
	-7.90617	-19.8645	-9.47903	-42.4918	-9.50173	-42.3848	-7.18883	-8.19263
	-6.91511	143.664						
0.05256	-5.04604	153.462	-7.8086	-28.2426	-7.82113	-28.2535	-7.80088	-28.4501
	-7.80493	-28.4815						
	-7.81589	-28.2447	-8.28758	132.092	-6.97426	-13.6315	-10.0688	-57.6889
	-10.0762	-57.6534						
	-7.82654	-28.2877	-6.97577	-13.7626	-8.28516	132.117	-10.08	-57.7265
	-10.0893	-57.7411						
	-7.82209	-28.5691	-10.0884	-57.8157	-10.0885	-57.7528	-8.32044	132.102
	-6.96835	-13.915						
	-7.82896	-28.5842	-10.0988	-57.8878	-10.1149	-57.8036	-6.98243	-13.8842
	-8.31368	131.988						
0.09512	-5.36084	144.255	-7.70861	-38.9824	-7.71371	-38.9812	-7.69698	-39.1385
	-7.70409	-39.1798						
	-7.71452	-38.985	-10.0983	119.507	-6.81515	-20.7316	-10.7545	-75.7599
	-10.7636	-75.7513						
	-7.71943	-39.0162	-6.81701	-20.835	-10.0971	119.505	-10.7596	-75.7894
	-10.7702	-75.814						
	-7.71324	-39.2313	-10.7679	-75.8546	-10.7646	-75.8007	-10.1561	119.754
	-6.8092	-20.9344						
	-7.72252	-39.2593	-10.7797	-75.9224	-10.7877	-75.8533	-6.81888	-20.9086
	-10.1318	119.565						
0.13768	-5.8146	133.385	-7.57995	-51.732	-7.57908	-51.7248	-7.56561	-51.8309
	-7.5755	-51.8814						
	-7.58453	-51.7352	-12.3617	107.176	-6.71169	-29.1165	-11.4837	-96.4891
	-11.4942	-96.5035						
	-7.58544	-51.7552	-6.7142	-29.1864	-12.3627	107.184	-11.4835	-96.5081
	-11.4957	-96.5455						
	-7.57704	-51.8981	-11.4904	-96.5547	-11.485	-96.5154	-12.4559	107.743
	-6.70616	-29.2305						
	-7.58896	-51.9403	-11.5042	-96.6168	-11.5051	-96.5661	-6.71173	-29.2153
	-12.4132	107.432						
0.18024	-6.45334	120.861	-7.42624	-66.5318	-7.41855	-66.5224	-7.40937	-66.5824
	-7.42243	-66.6394						
	-7.42953	-66.5385	-14.9941	96.7622	-6.67776	-38.7134	-12.2488	-119.915
	-12.2614	-119.956						
	-7.42589	-66.5497	-6.68134	-38.7493	-14.9964	96.7708	-12.2439	-119.93
	-12.2575	-119.974						
	-7.41607	-66.6215	-12.2496	-119.946	-12.241	-119.926	-15.1031	97.7328
	-6.67259	-38.7418						
	-7.43066	-66.676	-12.2652	-120.004	-12.2579	-119.976	-6.67371	-38.7364
	-15.0453	97.2349						
0.2228	-7.33829	107.111	-7.24967	-82.9288	-7.2386	-82.9243	-7.23092	-82.9556
	-7.2469	-83.0197						
	-7.25147	-82.9376	-17.6504	89.8117	-6.75504	-49.337	-13.0173	-144.897
	-13.0322	-144.952						
	-7.24523	-82.9456	-6.75811	-49.3554	-17.6535	89.8753	-13.0089	-144.909
	-13.0249	-144.963						
	-7.23433	-82.9945	-13.0146	-144.925	-13.004	-144.921	-17.7463	91.2274
	-6.74855	-49.3104						
	-7.2518	-83.0575	-13.0321	-144.979	-13.0211	-144.971	-6.74738	-49.3269
	-17.6883	90.5525						
0.26536	-8.54294	93.6094	-7.05974	-99.6058	-7.04835	-99.6166	-7.04206	-99.6628
	-7.06052	-99.7253						
	-7.06215	-99.6154	-19.9809	87.78	-7.0335	-60.1789	-13.6669	-168.556
	-13.6844	-168.612						
	-7.05453	-99.638	-7.03602	-60.1946	-19.9814	87.8482	-13.658	-168.577
	-13.6768	-168.634						
	-7.04394	-99.7004	-13.6623	-168.583	-13.6517	-168.59	-20.0558	89.483
	-7.02615	-60.1573						
	-7.06332	-99.7613	-13.6815	-168.633	-13.6708	-168.642	-7.02332	-60.1704
	-20.0056	88.6944						
0.30792	-10.1866	81.064	-6.87442	-116.588	-6.86309	-116.614	-6.85819	-116.664
	-6.87784	-116.722						
	-6.87684	-116.596	-21.896	88.8769	-7.45887	-70.6823	-14.178	168.296
	-14.1978	168.247						
	-6.86984	-116.631	-7.46203	-70.6947	-21.8925	88.9983	-14.1702	168.265
	-14.1906	168.212						
	-6.86045	-116.701	-14.1739	168.269	-14.1629	168.25	-21.9438	90.8418
	-7.45037	-70.664						
	-6.88098	-116.761	-14.1944	168.226	-14.184	168.202	-7.4473	-70.6773
	-21.8998	89.9912						
0.35048	-12.3785	71.9001	-6.70447	-133.846	-6.69413	-133.876	-6.69156	-133.87
	-6.71227	-133.922						
	-6.70648	-133.85	-23.3852	92.2487	-7.97703	-80.7359	-14.5884	145.29
	-14.6087	145.247						
	-6.69948	-133.892	-7.97973	-80.753	-23.3813	92.4488	-14.5805	145.248
	-14.6017	145.198						
	-6.69262	-133.97	-14.5826	145.192	-14.573	145.17	-23.4075	94.5819
	-7.96609	-80.6612						
	-6.7139	-134.025	-14.6051	145.156	-14.5955	145.128	-7.96293	-80.7371
	-23.3688	93.7159						
0.39304	-14.567	69.3455	-6.56018	-151.321	-6.54983	-151.36	-6.55025	-151.357
	-6.57153	-151.401						
	-6.56245	-151.323	-24.4224	97.3373	-8.55903	-90.3992	-14.9393	122.08
	-14.9601	122.042						
	-6.55579	-151.374	-8.56184	-90.4167	-24.4238	97.6587	-14.9314	122.033
	-14.954	121.987						
	-6.55167	-151.458	-14.9339	121.979	-14.9235	121.951	-24.4187	99.8516
	-8.54531	-90.3343						
	-6.57381	-151.507	-14.9567	121.953	-14.9474	121.915	-8.54187	-90.4143
	-24.3839	98.998						
0.4356	-16.1797	70.2169	-6.44693	-168.947	-6.43645	-169.001	-6.441	-168.983
	-6.46254	-169.022						
	-6.44806	-168.951	-24.9423	103.497	-9.18505	-99.7619	-15.2599	98.7012
	-15.2817	98.6701						
	-6.44315	-169.01	-9.18959	-99.776	-24.9496	103.948	-15.2536	98.6449
	-15.277	98.6037						
	-6.44246	-169.087	-15.2566	98.5977	-15.2452	98.5542	-24.8904	106.091
	-9.16993	-99.7175						
	-6.46483	-169.128	-15.2797	98.5782	-15.2698	98.5282	-9.1653	-99.7994
	-24.8644	105.293						
0.47816	-17.3275	72.1514	-6.36832	173.353	-6.35737	173.287	-6.36568	173.312
	-6.38767	173.28						
	-6.36855	173.348	-24.8706	109.572	-9.85473	-108.938	-15.5763	75.1813
	-15.598	75.1566						
	-6.36403	173.281	-9.86018	-108.951	-24.8841	110.142	-15.5705	75.116
	-15.5945	75.0823						
	-6.36684	173.218	-15.5737	75.0842	-15.5616	75.0283	-24.7577	112.197
	-9.83752	-108.93						
	-6.38998	173.183	-15.5971	75.072	-15.5871	75.0071	-9.83179	-109.008
	-24.7393	111.486						
0.52072	-18.1023	74.5123	-6.32199	155.652	-6.31089	155.573	-6.32269	155.617
	-6.34508	155.59						
	-6.32258	155.645	-24.2195	113.815	-10.5707	-118.06	-15.9022	51.5579
	-15.9249	51.5373						
	-6.31744	155.57	-10.5755	-118.067	-24.2347	114.511	-15.8959	51.4824
	-15.9208	51.4533						
	-6.32378	155.522	-15.8996	51.4645	-15.8873	51.3949	-24.0536	116.368
	-10.5505	-118.09						
	-6.34712	155.494	-15.9229	51.4552	-15.9137	51.3767	-10.5442	-118.17
	-24.0421	115.832						
0.56328	-18.5337	77.0458	-6.3037	137.989	-6.29302	137.902	-6.30762	137.972
	-6.33002	137.951						
	-6.30402	137.984	-23.2182	114.624	-11.3474	-127.284	-16.2475	27.8737
	-16.2707	27.8585						
	-6.29894	137.898	-11.3522	-127.291	-23.2365	115.425	-16.2408	27.7874
	-16.2669	27.7664						
	-6.30811	137.873	-16.2451	27.7788	-16.2331	27.6994	-23.0325	116.967
	-11.3252	-127.372						
	-6.33143	137.851	-16.2679	27.775	-16.2592	27.6868	-11.318	-127.455
	-23.0128	116.674						
0.60584	-18.6085	79.4661	-6.30885	120.439	-6.29748	120.337	-6.31355	120.424
	-6.33601	120.411						
	-6.30945	120.432	-22.1889	112.373	-12.2167	-136.699	-16.6152	4.18718
	-16.6386	4.18287						
	-6.30398	120.337	-12.2211	-136.702	-22.2182	113.303	-16.6086	4.08801
	-16.6338	4.07949						
	-6.31523	120.34	-16.6138	4.1062	-16.601	4.01332	-22.0041	114.512
	-12.1912	-136.871						
	-6.3385	120.323	-16.6373	4.1126	-16.6274	4.01168	-12.1851	-136.949
	-21.9649	114.454						
0.6484	-18.2648	81.3423	-6.32707	103.01	-6.31588	102.904	-6.33209	103.017
	-6.35443	103.009						
	-6.32766	103.002	-21.217	108.042	-13.2247	-146.398	-17.0067	-19.43
	-17.03	-19.4295						
	-6.3225	102.899	-13.2296	-146.406	-21.2622	109.042	-17.0002	-19.5387
	-17.0245	-19.5389						
	-6.33506	102.927	-17.0066	-19.5149	-16.9926	-19.6128	-21.046	110.032
	-13.199	-146.678						
	-6.3582	102.918	-17.03	-19.5066	-17.0193	-19.61	-13.1929	-146.755
	-20.9839	110.161						
0.69096	-17.3796	81.3338	-6.35045	85.7026	-6.33895	85.5823	-6.35497	85.663
	-6.37752	85.6583						
	-6.3523	85.6908	-20.3227	102.007	-14.4487	-156.415	-17.4279	-43.038
	-17.4511	-43.035						
	-6.34622	85.5783	-14.4537	-156.416	-20.3785	103.045	-17.4189	-43.1585
	-17.4447	-43.1515						
	-6.35829	85.6315	-17.4267	-43.06	-17.4128	-43.1767	-20.1665	103.745
	-14.4255	-156.904						
	-6.38189	85.6281	-17.4501	-43.05	-17.4389	-43.1681	-14.4184	-156.93
	-20.0839	104.06						
0.73352	-16.1128	75.809	-6.37429	68.5062	-6.36198	68.3741	-6.37667	68.4821
	-6.3988	68.4822						
	-6.37551	68.489	-19.5142	94.3317	-16.0173	-166.638	-17.8731	-66.464
	-17.8963	-66.4504						
	-6.36941	68.3647	-16.0223	-166.645	-19.5833	95.3538	-17.8641	-66.5957
	-17.8899	-66.5798						
	-6.37985	68.4463	-17.8729	-66.4813	-17.8573	-66.6133	-19.3725	95.8885
	-16.0023	-167.381						
	-6.40333	68.4471	-17.8951	-66.4753	-17.8828	-66.5973	-15.9951	-167.408
	-19.2726	96.3882						
0.77608	-15.2669	64.9167	-6.39219	51.3876	-6.38046	51.2458	-6.3917	51.3768
	-6.41431	51.3779						
	-6.39387	51.3701	-18.8401	85.0276	-18.2215	-176.527	-18.346	-89.7218
	-18.37	-89.7046						
	-6.38686	51.2334	-18.2267	-176.537	-18.9182	86.0438	-18.3367	-89.8687
	-18.3626	-89.8432						
	-6.39476	51.3404	-18.3449	-89.7399	-18.3306	-89.8812	-18.7212	86.4331
	-18.2389	-177.804						
	-6.41852	51.3446	-18.3665	-89.7326	-18.3558	-89.8671	-18.2327	-177.827
	-18.6077	87.1512						
0.81864	-14.9709	52.3496	-6.40229	34.3202	-6.39139	34.1703	-6.40006	34.3245
	-6.42268	34.3274						
	-6.4048	34.3042	-18.3611	74.3394	-21.5205	-178.836	-18.8454	-112.798
	-18.8692	-112.778						
	-6.39695	34.1558	-21.538	-178.821	-18.4564	75.3432	-18.8359	-112.947
	-18.8609	-112.928						
	-6.40229	34.2766	-18.8433	-112.818	-18.8302	-112.971	-18.2769	75.5597
	-21.7383	-179.511						
	-6.42608	34.2841	-18.8643	-112.815	-18.8538	-112.954	-21.7316	-179.511
	-18.1564	76.5441						
0.8612	-15.0988	39.4092	-6.40407	17.2767	-6.39348	17.121	-6.39844	17.2782
	-6.421	17.2848						
	-6.40687	17.2589	-18.1203	62.5552	-23.771	-171.625	-19.3699	-135.637
	-19.3934	-135.62						
	-6.39928	17.1037	-23.7899	-171.608	-18.2358	63.5393	-19.3595	-135.795
	-19.3858	-135.776						
	-6.40208	17.2295	-19.3684	-135.665	-19.3554	-135.818	-18.0682	63.5002
	-23.9811	-171.433						
	-6.42519	17.2387	-19.389	-135.654	-19.3781	-135.798	-23.9758	-171.437
	-17.9492	64.8157						
0.90376	-15.5584	26.6271	-6.39948	0.225725	-6.38915	0.0678216	-6.3912	0.221372
	-6.41343	0.230449						
	-6.40239	0.213265	-18.1415	49.9366	-25.2198	-163.683	-19.9176	-158.209
	-19.9398	-158.187						
	-6.39466	0.0474586	-25.2393	-163.685	-18.282	50.8954	-19.9065	-158.374
	-19.9324	-158.362						
	-6.39525	0.17328	-19.9148	-158.24	-19.9028	-158.406	-18.1153	50.5615
	-25.4112	-163.037						
	-6.41837	0.183054	-19.9361	-158.231	-19.9251	-158.378	-25.4072	-163.037
	-18.0098	52.2673						
0.94632	-16.3091	14.3706	-6.3894	-16.8252	-6.37837	-16.9891	-6.37897	-16.8426
	-6.40056	-16.8344						
	-6.39121	-16.8389	-18.4446	36.6324	-26.1648	-155.661	-20.482	179.556
	-20.5022	179.583						
	-6.38443	-17.0167	-26.186	-155.669	-18.6184	37.5837	-20.4708	179.379
	-20.4962	179.386						
	-6.38338	-16.893	-20.4792	179.523	-20.4668	179.355	-18.4387	36.8875
	-26.3378	-154.654						
	-6.40652	-16.8813	-20.5004	179.536	-20.4896	179.382	-26.3337	-154.648
	-18.3633	39.0675						
0.98888	-17.2999	3.04436	-6.37569	-33.9152	-6.36434	-34.0825	-6.36429	-33.9497
	-6.38481	-33.9393						
	-6.37707	-33.929	-19.0533	22.6473	-26.7087	-147.675	-21.0547	157.705
	-21.0741	157.728						
	-6.37062	-34.1127	-26.7303	-147.685	-19.2758	23.6536	-21.0434	157.52
	-21.0693	157.523						
	-6.3684	-34.0024	-21.0524	157.663	-21.0398	157.497	-19.0616	22.3988
	-26.8608	-146.341						
	-6.39187	-33.9911	-21.0725	157.682	-21.0614	157.522	-26.857	-146.333
	-19.044	25.1774						
1.03144	-18.4375	-7.1022	-6.36163	-50.9568	-6.35021	-51.1313	-6.34983	-51.0075
	-6.36988	-50.9959						
	-6.36264	-50.971	-20.007	8.05574	-26.8739	-139.663	-21.625	136.328
	-21.6429	136.35						
	-6.35673	-51.1607	-26.8954	-139.676	-20.3125	9.13289	-21.6143	136.135
	-21.6391	136.135						
	-6.3539	-51.0632	-21.6227	136.278	-21.6104	136.114	-20.0071	7.09724
	-27.0017	-137.986						
	-6.37714	-51.0536	-21.6421	136.304	-21.6308	136.135	-26.9986	-137.988
	-20.0979	10.6038						
1.074	-19.6169	-16.0587	-6.34837	-68.1126	-6.33767	-68.2939	-6.338	-68.179
	-6.35765	-68.1697						
	-6.34968	-68.1283	-21.384	-7.83427	-26.6204	-131.834	-22.1809	115.279
	-22.1988	115.3						
	-6.34405	-68.3201	-26.6418	-131.835	-21.8381	-6.74276	-22.1711	115.085
	-22.1948	115.082						
	-6.34238	-68.235	-22.179	115.234	-22.1682	115.058	-21.3231	-9.8125
	-26.7183	-129.758						
	-6.36536	-68.2267	-22.1985	115.262	-22.1895	115.086	-26.7156	-129.756
	-21.6332	-5.59912						
1.11656	-20.7435	-24.1316	-6.33773	-85.2893	-6.32758	-85.4737	-6.3297	-85.3631
	-6.34872	-85.3523						
	-6.33911	-85.3008	-23.2425	-26.5487	-25.8071	-124.282	-22.7127	94.6426
	-22.7297	94.6622						
	-6.33403	-85.4977	-25.8278	-124.283	-23.955	-26.3507	-22.7037	94.4387
	-22.7269	94.4355						
	-6.33428	-85.423	-22.7109	94.595	-22.7007	94.4095	-22.9719	-29.4625
	-25.8599	-121.65						
	-6.35683	-85.4154	-22.7313	94.6213	-22.7215	94.4339	-25.8572	-121.658
	-23.6594	-25.5836						
1.15912	-21.7439	-31.9202	-6.33082	-102.478	-6.32053	-102.666	-6.3246	-102.56
	-6.34321	-102.547						
	-6.33201	-102.491	-25.279	-50.297	-23.9604	-118.964	-23.1987	74.3628
	-23.2155	74.3771						
	-6.32762	-102.693	-23.9779	-118.966	-26.0602	-52.585	-23.19	74.1431
	-23.2129	74.1472						
	-6.3298	-102.619	-23.1972	74.3033	-23.1868	74.1236	-24.7072	-52.9898
	-23.8686	-115.358						
	-6.35182	-102.613	-23.2168	74.3329	-23.2085	74.147	-23.86	-115.36
	-25.6571	-51.3879						
1.20168	-22.5721	-39.9966	-6.32765	-119.672	-6.31783	-119.864	-6.32405	-119.754
	-6.34237	-119.741						
	-6.32844	-119.685	-26.9633	-78.0163	-21.9342	-126.761	-23.6348	54.3767
	-23.6514	54.3951						
	-6.32454	-119.893	-21.9402	-126.791	-27.5853	-82.0881	-23.627	54.1545
	-23.6492	54.1553						
	-6.32865	-119.815	-23.6318	54.317	-23.6217	54.1325	-26.164	-79.6257
	-21.6922	-124.567						
	-6.35079	-119.81	-23.6519	54.3447	-23.6433	54.147	-21.6872	-124.595
	-27.1333	-80.33						
1.24424	-23.2003	-48.9082	-6.32814	-136.863	-6.31889	-137.06	-6.32618	-136.939
	-6.34479	-136.926						
	-6.32857	-136.877	-28.2096	-107.358	-21.06	-137.342	-24.0042	34.5967
	-24.0212	34.6193						
	-6.32492	-137.09	-21.0664	-137.371	-28.6409	-112.459	-23.998	34.3701
	-24.0187	34.3714						
	-6.3312	-137.004	-24.0026	34.5358	-23.9921	34.3503	-27.2647	-107.531
	-20.7855	-135.534						
	-6.3531	-136.996	-24.0226	34.5666	-24.0148	34.3613	-20.7805	-135.572
	-28.1646	-110.056						
1.2868	-23.5995	-59.1358	-6.33202	-154.054	-6.32261	-154.256	-6.33065	-154.117
	-6.34961	-154.104						
	-6.33182	-154.068	-29.0607	-137.106	-20.7519	-147.902	-24.3052	14.917
	-24.3221	14.9439						
	-6.3284	-154.283	-20.7579	-147.924	-29.308	-142.858	-24.2998	14.6888
	-24.3207	14.6946						
	-6.33599	-154.183	-24.3045	14.8599	-24.2942	14.6643	-28.0381	-135.855
	-20.4356	-146.301						
	-6.35795	-154.178	-24.3242	14.8861	-24.3159	14.6743	-20.4299	-146.343
	-28.8302	-139.916						
1.32936	-23.7317	-71.145	-6.33716	-171.235	-6.32887	-171.434	-6.33682	-171.275
	-6.35675	-171.264						
	-6.33827	-171.25	-29.5456	-166.609	-20.8321	-158.052	-24.537	-4.76734
	-24.5557	-4.73686						
	-6.33479	-171.467	-20.8373	-158.076	-29.6169	-172.849	-24.5324	-4.99169
	-24.5534	-4.97672						
	-6.34206	-171.352	-24.5356	-4.82168	-24.5264	-5.01949	-28.4675	-163.935
	-20.4598	-156.622						
	-6.36402	-171.346	-24.5557	-4.8	-24.5489	-5.01332	-20.4536	-156.656
	-29.1213	-169.395						
1.37192	-23.6162	-85.2592	-6.34656	171.505	-6.33799	171.298	-6.34567	171.475
	-6.36613	171.486						
	-6.34724	171.489	-29.668	164.467	-21.2055	-167.674	-24.7113	-24.6681
	-24.7299	-24.6293						
	-6.34402	171.267	-21.2112	-167.701	-29.5434	157.772	-24.7062	-24.8898
	-24.7288	-24.8823						
	-6.35117	171.402	-24.7098	-24.7192	-24.701	-24.9243	-28.5494	168.694
	-20.7625	-166.454						
	-6.37326	171.408	-24.7307	-24.6941	-24.7251	-24.916	-20.7554	-166.476
	-29.0266	161.855						
1.41448	-23.3013	-101.534	-6.35715	154.348	-6.34887	154.135	-6.35574	154.331
	-6.37641	154.342						
	-6.35791	154.33	-29.3625	136.746	-21.8249	-176.482	-24.8326	-44.6922
	-24.8514	-44.6474						
	-6.35477	154.102	-21.8306	-176.51	-29.0035	129.694	-24.8283	-44.9093
	-24.8506	-44.9102						
	-6.36123	154.26	-24.8315	-44.7352	-24.8224	-44.9511	-28.2319	142.774
	-21.2916	-175.553						
	-6.38318	154.267	-24.8511	-44.7087	-24.8462	-44.9406	-21.2833	-175.571
	-28.4542	134.561						
1.45704	-22.8631	-119.663	-6.36908	137.206	-6.36079	136.989	-6.36622	137.2
	-6.38736	137.212						
	-6.36981	137.187	-28.5353	111.313	-22.6604	175.555	-24.9066	-64.987
	-24.9251	-64.9414						
	-6.36651	136.952	-22.6666	175.522	-27.8386	104.3	-24.9021	-65.2117
	-24.9243	-65.2159						
	-6.37128	137.134	-24.9046	-65.0345	-24.8954	-65.2444	-27.4831	119.429
	-22.0157	176.02						
	-6.39347	137.141	-24.9242	-65.0075	-24.9199	-65.2358	-22.0066	176.015
	-27.2989	110.326						
1.4996	-22.3624	-139.051	-6.38264	120.075	-6.37462	119.852	-6.37799	120.079
	-6.39943	120.091						
	-6.38394	120.054	-27.2303	90.5914	-23.6993	168.472	-24.9521	-85.6305
	-24.9714	-85.5852						
	-6.38009	119.815	-23.702	168.437	-26.2112	85.3393	-24.9487	-85.8537
	-24.9713	-85.8601						
	-6.38286	120.015	-24.9485	-85.669	-24.9408	-85.89	-26.425	100.091
	-22.9156	168.219						
	-6.40515	120.024	-24.9707	-85.6437	-24.9662	-85.8768	-22.9066	168.219
	-25.7769	91.9847						
1.54216	-21.8357	-158.988	-6.39702	102.964	-6.38864	102.732	-6.39008	102.975
	-6.4117	102.989						
	-6.3981	102.941	-25.9775	75.3942	-24.9681	162.393	-24.9832	-106.606
	-25.0027	-106.562						
	-6.39442	102.698	-24.9748	162.362	-24.9216	72.3113	-24.9817	-106.839
	-25.0033	-106.834						
	-6.39457	102.915	-24.9797	-106.649	-24.9742	-106.874	-25.3838	85.0868
	-24.0185	160.986						
	-6.4167	102.922	-25.0029	-106.61	-24.998	-106.854	-24.0081	160.97
	-24.523	79.0338						
1.58472	-21.3162	-178.853	-6.41262	85.8672	-6.40326	85.6277	-6.40267	85.8825
	-6.42422	85.8969						
	-6.41281	85.8464	-25.0308	63.3714	-26.5446	157.887	-25.0163	-127.935
	-25.0371	-127.88						
	-6.40969	85.5968	-26.5553	157.863	-24.0497	61.5735	-25.015	-128.173
	-25.0361	-128.155						
	-6.40669	85.8257	-25.0135	-127.971	-25.0081	-128.196	-24.557	72.7901
	-25.3962	154.345						
	-6.42922	85.8332	-25.0365	-127.933	-25.0325	-128.176	-25.3861	154.325
	-23.6368	68.3593						
1.62728	-20.8191	161.843	-6.42636	68.7899	-6.41667	68.5414	-6.41425	68.8023
	-6.43559	68.818						
	-6.42627	68.7685	-24.3483	52.7919	-28.4987	156.853	-25.0635	-149.586
	-25.085	-149.539						
	-6.42331	68.5154	-28.5075	156.872	-23.4418	51.7779	-25.0636	-149.831
	-25.0836	-149.807						
	-6.41727	68.7517	-25.0603	-149.63	-25.0555	-149.858	-23.9182	61.8077
	-27.2532	148.833						
	-6.43952	68.7605	-25.0831	-149.585	-25.0783	-149.838	-27.2418	148.811
	-22.9833	58.6495						
1.66984	-20.3822	143.482	-6.43906	51.7252	-6.42931	51.4687	-6.4249	51.7365
	-6.44615	51.7523						
	-6.43978	51.7057	-23.8682	42.7471	-30.3064	162.137	-25.1375	-171.491
	-25.1603	-171.448						
