! MARKI MICROWAVE INC.
! Email:             	info@markimicrowave.com   				Phone:   408-778-4200
! Model Number:      	PD4-0120							Date:    11/12
! Filename:		PD4_0120.S5P						Version: 1.0
! Description:       	5-port S-parameter data for 4 Way Power Divider PD4-0120
! Frequency Range: 	10 MHz to 20 GHz		
! Port Configuration:	PORT 1: COMMON
!			PORT 2: Output 1 
!			Port 3: Output 2
!			Port 4: Output 3
!			Port 5: Output 4
! S5P File: Measurements: Mag<S11> Ang<S11> Mag<S12> Ang<S12> Mag<S13> Ang<S13> Mag<S14> Ang<S14> ! row 1
!			  Mag<S15> Ang<S15>
!			  Mag<S21> Ang<S21> Mag<S22> Ang<S22> Mag<S23> Ang<S23> Mag<S24> Ang<S24> ! row 2
!			  Mag<S25> Ang<S25>
!			  Mag<S31> Ang<S31> Mag<S32> Ang<S32> Mag<S33> Ang<S33> Mag<S34> Ang<S34> ! row 3
!			  Mag<S35> Ang<S35>
!			  Mag<S41> Ang<S41> Mag<S42> Ang<S42> Mag<S43> Ang<S43> Mag<S44> Ang<S44> ! row 4
!			  Mag<S45> Ang<S45>
!			  Mag<S51> Ang<S51> Mag<S52> Ang<S52> Mag<S53> Ang<S53> Mag<S54> Ang<S54> ! row 5
!			  Mag<S55> Ang<S55>

# GHz S DB R 50

0.01	-4.56466	171.264	-7.99111	-8.67253	-8.00086	-8.56939	-7.98232	-8.58978
	-7.98932	-8.55182						
	-7.9796	-8.66769	-4.8942	161.174	-7.25379	-0.155851	-8.41439	-22.118
	-8.41229	-22.0679						
	-7.9996	-8.38315	-7.26349	0.15547	-4.89788	161.058	-8.42741	-21.7407
	-8.43623	-21.7299						
	-7.9715	-8.44109	-8.42126	-21.8416	-8.41686	-21.7403	-4.88936	161.1
	-7.25894	0.329438						
	-7.96634	-8.44804	-8.41338	-21.7214	-8.42104	-21.684	-7.24363	0.279261
	-4.88914	161.102						
0.035	-4.60086	168.119	-7.98113	-11.8098	-7.98792	-11.7322	-7.97311	-11.7459
	-7.97759	-11.7094						
	-7.97149	-11.8072	-5.09813	154.683	-6.93156	-1.6323	-8.64289	-29.6621
	-8.64018	-29.6183						
	-7.9867	-11.6012	-6.93933	-1.40227	-5.10275	154.575	-8.65308	-29.3813
	-8.65875	-29.3718						
	-7.96418	-11.6432	-8.64843	-29.4598	-8.64409	-29.382	-5.09689	154.634
	-6.93463	-1.25952						
	-7.9591	-11.6488	-8.6412	-29.365	-8.64601	-29.3368	-6.92223	-1.29976
	-5.09451	154.638						
0.06	-4.6488	164.327	-7.96606	-15.5997	-7.97031	-15.5477	-7.95874	-15.5597
	-7.9605	-15.5244						
	-7.95852	-15.6023	-5.36013	147.074	-6.5692	-3.8167	-8.93386	-38.5265
	-8.9303	-38.4893						
	-7.9691	-15.4665	-6.5747	-3.65931	-5.36402	146.972	-8.94102	-38.3334
	-8.94358	-38.3233						
	-7.95152	-15.4952	-8.9373	-38.3868	-8.93316	-38.333	-5.36223	147.048
	-6.56935	-3.55455						
	-7.9461	-15.499	-8.93058	-38.3185	-8.93279	-38.2988	-6.5597	-3.58534
	-5.35833	147.052						
0.085	-4.71043	159.883	-7.94514	-20.0528	-7.94694	-20.0258	-7.93868	-20.0354
	-7.93772	-20.0024						
	-7.93976	-20.0564	-5.67925	138.398	-6.17822	-6.73355	-9.28652	-48.636
	-9.28228	-48.6064						
	-7.94575	-19.9913	-6.18167	-6.64956	-5.68265	138.311	-9.29097	-48.5332
	-9.29029	-48.527						
	-7.93341	-20.0033	-9.28845	-48.5573	-9.28471	-48.5284	-5.6855	138.396
	-6.17578	-6.58372						
	-7.92792	-20.0068	-9.2824	-48.5172	-9.28189	-48.5078	-6.16915	-6.60089
	-5.67951	138.404						
0.11	-4.78804	154.778	-7.91761	-25.1668	-7.91741	-25.1617	-7.91193	-25.172
	-7.90816	-25.1426						
	-7.91463	-25.1744	-6.05493	128.701	-5.76985	-10.3915	-9.6992	-59.9322
	-9.69403	-59.9113						
	-7.91626	-25.1766	-5.7708	-10.3807	-6.05714	128.635	-9.7012	-59.913
	-9.69688	-59.9113						
	-7.90843	-25.1773	-9.69904	-59.9155	-9.69626	-59.9091	-6.06613	128.726
	-5.7644	-10.353						
	-7.90282	-25.1821	-9.69351	-59.9046	-9.69104	-59.9008	-5.7606	-10.3604
	-6.05773	128.735						
0.135	-4.88247	149.131	-7.88231	-30.8488	-7.88243	-30.8451	-7.87814	-30.8573
	-7.87247	-30.835						
	-7.87945	-30.8509	-6.4824	118.306	-5.35711	-14.8323	-10.162	-72.0539
	-10.1555	-72.0454						
	-7.88318	-30.8921	-5.35966	-14.875	-6.48338	118.264	-10.1663	-72.0861
	-10.1604	-72.0906						
	-7.87615	-30.8932	-10.1625	-72.0863	-10.1617	-72.084	-6.49827	118.352
	-5.35391	-14.8531						
	-7.87038	-30.8992	-10.1574	-72.094	-10.1555	-72.0865	-5.3512	-14.8577
	-6.48657	118.359						
0.16	-4.99228	143.416	-7.8411	-36.6105	-7.84079	-36.5916	-7.83547	-36.6042
	-7.82935	-36.5874						
	-7.83863	-36.6143	-6.94021	108.335	-4.99645	-20.1134	-10.6535	-83.7056
	-10.6465	-83.7057						
	-7.84135	-36.6543	-4.99778	-20.1696	-6.94092	108.298	-10.6565	-83.7395
	-10.6496	-83.7517						
	-7.83301	-36.6663	-10.6526	-83.7582	-10.6516	-83.7471	-6.96204	108.384
	-4.98927	-20.1417						
	-7.8262	-36.6786	-10.6472	-83.7766	-10.644	-83.7527	-4.98654	-20.1549
	-6.94735	108.396						
0.185	-5.119	137.675	-7.79283	-42.3907	-7.79239	-42.3772	-7.7857	-42.3816
	-7.77966	-42.3751						
	-7.7899	-42.3957	-7.41307	98.8498	-4.71511	-25.9554	-11.1543	-94.7934
	-11.1468	-94.8031						
	-7.79289	-42.4463	-4.71714	-26.0192	-7.41487	98.8095	-11.1576	-94.8406
	-11.1504	-94.8631						
	-7.78323	-42.457	-11.153	-94.8608	-11.1519	-94.8558	-7.44247	98.8939
	-4.70812	-25.9871						
	-7.77662	-42.4778	-11.148	-94.8869	-11.1449	-94.8716	-4.70517	-26.0082
	-7.42242	98.9232						
0.21	-5.26446	131.896	-7.73706	-48.203	-7.73648	-48.1889	-7.72826	-48.2026
	-7.7221	-48.2036						
	-7.73441	-48.2089	-7.89176	89.7994	-4.51922	-32.1036	-11.6481	-105.395
	-11.6412	-105.412						
	-7.73693	-48.2561	-4.52086	-32.1602	-7.89396	89.7557	-11.6514	-105.437
	-11.644	-105.467						
	-7.72553	-48.2754	-11.6464	-105.457	-11.6452	-105.452	-7.92843	89.8379
	-4.51093	-32.1394						
	-7.71911	-48.3036	-11.6415	-105.492	-11.6377	-105.475	-4.50776	-32.1625
	-7.90411	89.8794						
0.235	-5.43015	126.088	-7.67495	-54.0474	-7.67425	-54.0413	-7.66518	-54.0594
	-7.65971	-54.0672						
	-7.67193	-54.0513	-8.36825	81.1409	-4.39864	-38.3741	-12.1241	-115.57
	-12.1178	-115.595						
	-7.6747	-54.0966	-4.40072	-38.4228	-8.37052	81.0966	-12.1272	-115.611
	-12.1211	-115.648						
	-7.66254	-54.1204	-12.1223	-115.623	-12.121	-115.624	-8.41092	81.1654
	-4.39053	-38.4106						
	-7.65656	-54.1597	-12.1184	-115.668	-12.1141	-115.655	-4.38739	-38.4325
	-8.38228	81.2241						
0.26	-5.61736	120.232	-7.60713	-59.9281	-7.6062	-59.9215	-7.59617	-59.9548
	-7.59151	-59.9714						
	-7.60435	-59.9361	-8.83857	72.8159	-4.34371	-44.6674	-12.5776	-125.394
	-12.5719	-125.429						
	-7.6066	-59.9732	-4.34523	-44.7112	-8.84042	72.7624	-12.5799	-125.428
	-12.5745	-125.473						
	-7.59323	-60.013	-12.5747	-125.445	-12.5735	-125.441	-8.88708	72.8223
	-4.33463	-44.7068						
	-7.58817	-60.0584	-12.5718	-125.494	-12.567	-125.48	-4.33162	-44.7298
	-8.85413	72.9051						
0.285	-5.82884	114.331	-7.53467	-65.8504	-7.53301	-65.8476	-7.5225	-65.8875
	-7.51929	-65.9131						
	-7.53134	-65.8593	-9.30102	64.7858	-4.34134	-50.9262	-13.0021	-134.928
	-12.9974	-134.968						
	-7.53331	-65.899	-4.34312	-50.9702	-9.30322	64.7212	-13.0046	-134.965
	-13.0005	-135.018						
	-7.5196	-65.9514	-12.9993	-134.981	-12.9981	-134.981	-9.35529	64.7748
	-4.33252	-50.9661						
	-7.51606	-66.0046	-12.9978	-135.037	-12.9928	-135.028	-4.32963	-50.9918
	-9.31674	64.8836						
0.31	-6.06592	108.379	-7.45709	-71.8137	-7.45473	-71.813	-7.44407	-71.8651
	-7.44204	-71.8959						
	-7.45384	-71.8246	-9.75643	57.0232	-4.38387	-57.1196	-13.3969	-144.24
	-13.3937	-144.286						
	-7.45496	-71.8673	-4.38536	-57.163	-9.7569	56.9406	-13.3995	-144.278
	-13.3962	-144.337						
	-7.44109	-71.936	-13.3943	-144.301	-13.392	-144.301	-9.81542	56.9961
	-4.3747	-57.1616						
	-7.43877	-71.9949	-13.3939	-144.361	-13.3879	-144.352	-4.37187	-57.1924
	-9.77198	57.1326						
0.335	-6.33286	102.378	-7.37592	-77.8228	-7.37288	-77.835	-7.36312	-77.8968
	-7.36235	-77.9296						
	-7.37268	-77.8378	-10.2064	49.5005	-4.46235	-63.2413	-13.7615	-153.385
	-13.7599	-153.427						
	-7.37321	-77.8873	-4.46395	-63.2777	-10.2047	49.4037	-13.7635	-153.43
	-13.7616	-153.489						
	-7.36026	-77.9664	-13.7589	-153.44	-13.7559	-153.451	-10.2695	49.4548
	-4.45305	-63.2826						
	-7.35903	-78.0312	-13.7599	-153.503	-13.7531	-153.509	-4.45043	-63.3169
	-10.2209	49.6151						
0.36	-6.63152	96.3164	-7.29041	-83.8838	-7.28749	-83.904	-7.27864	-83.9812
	-7.27938	-84.0147						
	-7.28784	-83.9047	-10.6522	42.2034	-4.57221	-69.2812	-14.0971	-162.415
	-14.0975	-162.456						
	-7.28803	-83.9597	-4.57365	-69.3163	-10.6455	42.1103	-14.0993	-162.464
	-14.0984	-162.524						
	-7.27637	-84.0511	-14.0943	-162.468	-14.0915	-162.484	-10.7172	42.1427
	-4.56289	-69.3254						
	-7.27641	-84.1175	-14.0971	-162.53	-14.0899	-162.545	-4.56041	-69.3599
	-10.6645	42.3222						
0.385	-6.96646	90.201	-7.20208	-90.0016	-7.19983	-90.0289	-7.19287	-90.1199
	-7.19518	-90.1531						
	-7.19992	-90.022	-11.0963	35.1161	-4.70858	-75.2431	-14.405	-171.359
	-14.4075	-171.396						
	-7.20028	-90.0844	-4.70986	-75.2801	-11.084	35.0611	-14.4083	-171.416
	-14.4085	-171.469						
	-7.19105	-90.1891	-14.4026	-171.411	-14.4003	-171.43	-11.1617	35.0502
	-4.69939	-75.2938						
	-7.19266	-90.2543	-14.4068	-171.47	-14.4	-171.492	-4.69695	-75.3248
	-11.1055	35.2387						
0.41	-7.34058	84.0262	-7.11072	-96.1809	-7.11059	-96.2074	-7.10574	-96.3183
	-7.10964	-96.3473						
	-7.10942	-96.2006	-11.5412	28.2335	-4.8689	-81.1374	-14.6876	179.732
	-14.6915	179.699						
	-7.11141	-96.2564	-4.86983	-81.166	-11.5216	28.255	-14.6926	179.684
	-14.6944	179.633						
	-7.10413	-96.3796	-14.6851	179.69	-14.6844	179.669	-11.6028	28.1692
	-4.8593	-81.1893						
	-7.10707	-96.4434	-14.6907	179.633	-14.6856	179.61	-4.85711	-81.2176
	-11.5461	28.3628						
0.435	-7.75943	77.7918	-7.01998	-102.418	-7.02124	-102.444	-7.01926	-102.566
	-7.02451	-102.594						
	-7.01921	-102.441	-11.9884	21.5715	-5.04976	-86.9679	-14.9472	170.855
	-14.9527	170.826						
	-7.02184	-102.492	-5.05081	-86.9937	-11.9651	21.6831	-14.9534	170.81
	-14.9563	170.764						
	-7.01755	-102.627	-14.9449	170.813	-14.9449	170.791	-12.0456	21.5017
	-5.04025	-87.019						
	-7.02183	-102.688	-14.9516	170.762	-14.9478	170.737	-5.03798	-87.048
	-11.9894	21.7008						
0.46	-8.22749	71.5018	-6.92996	-108.716	-6.93168	-108.737	-6.93314	-108.865
	-6.9396	-108.892						
	-6.92939	-108.74	-12.4383	15.1364	-5.2504	-92.7433	-15.1859	161.973
	-15.1926	161.947						
	-6.93274	-108.787	-5.25153	-92.7669	-12.4152	15.3387	-15.1929	161.933
	-15.1971	161.889						
	-6.93236	-108.928	-15.1843	161.934	-15.1844	161.912	-12.4904	15.0509
	-5.24052	-92.7967						
	-6.93742	-108.982	-15.1917	161.885	-15.1892	161.863	-5.23858	-92.8238
	-12.4355	15.2544						
0.485	-8.75289	65.1559	-6.84169	-115.074	-6.84404	-115.093	-6.84954	-115.22
	-6.85687	-115.243						
	-6.84177	-115.096	-12.8923	8.93574	-5.46927	-98.4682	-15.4062	153.072
	-15.4143	153.055						
	-6.84502	-115.138	-5.47017	-98.4899	-12.8736	9.21347	-15.414	153.034
	-15.4193	152.999						
	-6.84881	-115.281	-15.4051	153.038	-15.4057	153.013	-12.9375	8.81621
	-5.45911	-98.5231						
	-6.85497	-115.331	-15.4134	152.992	-15.4117	152.974	-5.45691	-98.5509
	-12.886	9.03379						
0.51	-9.34335	58.7372	-6.75633	-121.491	-6.75903	-121.505	-6.7685	-121.631
	-6.77663	-121.649						
	-6.75738	-121.513	-13.3477	2.9817	-5.7062	-104.151	-15.6133	144.131
	-15.6228	144.119						
	-6.75994	-121.55	-5.70655	-104.171	-13.3373	3.30107	-15.6206	144.102
	-15.627	144.072						
	-6.76802	-121.687	-15.6123	144.099	-15.6125	144.082	-13.3862	2.80308
	-5.69532	-104.207						
	-6.77437	-121.734	-15.6207	144.064	-15.6195	144.048	-5.69319	-104.233
	-13.3375	3.04685						
0.535	-10.0094	52.2523	-6.67478	-127.962	-6.67702	-127.973	-6.69072	-128.091
	-6.6997	-128.104						
	-6.67607	-127.985	-13.8051	-2.70541	-5.96039	-109.795	-15.8069	135.134
	-15.8174	135.135						
	-6.67819	-128.014	-5.96081	-109.814	-13.8051	-2.38649	-15.8139	135.114
	-15.8209	135.09						
	-6.69043	-128.146	-15.806	135.11	-15.8058	135.094	-13.8358	-2.97041
	-5.94892	-109.851						
	-6.69741	-128.189	-15.8146	135.078	-15.8135	135.068	-5.94651	-109.878
	-13.7904	-2.6934						
0.56	-10.7637	45.688	-6.59798	-134.483	-6.59923	-134.491	-6.61666	-134.597
	-6.62616	-134.603						
	-6.59892	-134.504	-14.2612	-8.11914	-6.23153	-115.404	-15.9925	126.084
	-16.003	126.087						
	-6.60023	-134.531	-6.23223	-115.423	-14.2713	-7.8409	-15.9985	126.065
	-16.0061	126.046						
	-6.61596	-134.65	-15.9914	126.056	-15.9907	126.044	-14.2854	-8.49485
	-6.21957	-115.463						
	-6.62434	-134.689	-16.0006	126.033	-15.9989	126.026	-6.21667	-115.486
	-14.2414	-8.17512						
0.585	-11.6275	39.0607	-6.52672	-141.046	-6.52656	-141.053	-6.54777	-141.141
	-6.55792	-141.142						
	-6.52749	-141.067	-14.7173	-13.2283	-6.52065	-120.983	-16.169	116.969
	-16.1793	116.98						
	-6.52769	-141.093	-6.5215	-121.001	-14.7352	-13.0339	-16.1733	116.95
	-16.1824	116.941						
	-6.54705	-141.194	-16.1681	116.943	-16.1657	116.931	-14.7357	-13.7542
	-6.50768	-121.043						
	-6.55634	-141.227	-16.1773	116.924	-16.1749	116.919	-6.50464	-121.065
	-14.6926	-13.3827						
0.61	-12.6283	32.3529	-6.46166	-147.65	-6.46017	-147.66	-6.48453	-147.728
	-6.49512	-147.722						
	-6.4624	-147.67	-15.1686	-18.028	-6.82775	-126.536	-16.3418	107.785
	-16.3515	107.802						
	-6.46164	-147.701	-6.82898	-126.553	-15.1904	-17.9377	-16.3445	107.761
	-16.3546	107.757						
	-6.48403	-147.78	-16.3405	107.759	-16.3369	107.742	-15.1819	-18.7342
	-6.8139	-126.595						
	-6.49369	-147.808	-16.3501	107.747	-16.347	107.738	-6.81056	-126.617
	-15.1373	-18.2991						
0.635	-13.8074	25.5625	-6.40336	-154.285	-6.40032	-154.303	-6.42757	-154.343
	-6.4388	-154.333						
	-6.40408	-154.304	-15.6127	-22.4899	-7.15395	-132.062	-16.5101	98.5286
	-16.5202	98.5542						
	-6.40193	-154.345	-7.15529	-132.081	-15.6346	-22.5137	-16.5117	98.4998
	-16.5222	98.5004						
	-6.42737	-154.397	-16.5095	98.5024	-16.5046	98.4808	-15.6205	-23.3961
	-7.13883	-132.125						
	-6.43756	-154.42	-16.5191	98.4974	-16.5153	98.4852	-7.13535	-132.146
	-15.5737	-22.89						
0.66	-15.2357	18.6627	-6.35187	-160.949	-6.34786	-160.979	-6.3775	-160.99
	-6.38886	-160.972						
	-6.35241	-160.968	-16.0424	-26.6128	-7.49988	-137.564	-16.6784	89.1878
	-16.6892	89.2211						
	-6.34971	-161.02	-7.50126	-137.584	-16.0615	-26.744	-16.6796	89.1484
	-16.6905	89.1602						
	-6.37727	-161.042	-16.6779	89.165	-16.6727	89.1326	-16.0448	-27.7352
	-7.48329	-137.632						
	-6.38815	-161.059	-16.6877	89.1666	-16.6833	89.1446	-7.47955	-137.651
	-15.9945	-27.1478						
0.685	-17.0595	11.5229	-6.30758	-167.633	-6.30321	-167.675	-6.33456	-167.659
	-6.34622	-167.634						
	-6.30823	-167.654	-16.4538	-30.3912	-7.86627	-143.042	-16.8491	79.7709
	-16.8597	79.8082						
	-6.30543	-167.716	-7.86782	-143.06	-16.4643	-30.6147	-16.8503	79.7222
	-16.8606	79.7394						
	-6.33419	-167.711	-16.8488	79.7481	-16.8431	79.7067	-16.452	-31.7352
	-7.84809	-143.114						
	-6.34572	-167.723	-16.8581	79.7537	-16.8534	79.7246	-7.844	-143.133
	-16.3974	-31.0646						
0.71	-19.7224	3.41464	-6.27074	-174.334	-6.26676	-174.387	-6.29847	-174.345
	-6.31077	-174.313						
	-6.27137	-174.357	-16.8386	-33.8211	-8.25442	-148.496	-17.0242	70.2686
	-17.0345	70.3069						
	-6.26899	-174.429	-8.25629	-148.514	-16.8363	-34.107	-17.0257	70.2117
	-17.0357	70.2337						
	-6.2985	-174.394	-17.0232	70.249	-17.0181	70.1956	-16.8339	-35.3865
	-8.23407	-148.573						
	-6.31038	-174.398	-17.0331	70.2602	-17.0286	70.2199	-8.2303	-148.591
	-16.7747	-34.6457						
0.735	-23.048	-18.2622	-6.24166	178.955	-6.23782	178.892	-6.26997	178.963
	-6.28254	179.001						
	-6.24201	178.932	-17.1902	-36.9104	-8.66566	-153.922	-17.2056	60.6961
	-17.2146	60.7317						
	-6.24022	178.849	-8.66797	-153.942	-17.1712	-37.2368	-17.2067	60.6249
	-17.2167	60.6499						
	-6.27047	178.911	-17.2042	60.6739	-17.1994	60.6083	-17.1845	-38.6874
	-8.64308	-154.012						
	-6.28284	178.916	-17.214	60.6858	-17.2099	60.6395	-8.63917	-154.028
	-17.1205	-37.8834						
0.76	-24.8944	-44.8487	-6.2206	172.239	-6.21734	172.167	-6.24928	172.267
	-6.26225	172.313						
	-6.22086	172.216	-17.5013	-39.6747	-9.10163	-159.328	-17.3948	51.0481
	-17.4033	51.0911						
	-6.22003	172.123	-9.10447	-159.347	-17.462	-40.0074	-17.3961	50.9677
	-17.4073	51.0035						
	-6.25007	172.215	-17.393	51.0263	-17.3893	50.954	-17.496	-41.6499
	-9.07652	-159.429						
	-6.2627	172.229	-17.4032	51.0459	-17.4	50.9909	-9.07255	-159.444
	-17.4276	-40.7837						
0.785	-26.0279	-71.7154	-6.2071	165.526	-6.2046	165.447	-6.23632	165.575
	-6.24937	165.628						
	-6.20732	165.501	-17.7615	-42.1483	-9.56457	-164.705	-17.5938	41.3243
	-17.6026	41.3694						
	-6.20744	165.404	-9.56768	-164.719	-17.7007	-42.4653	-17.5963	41.2401
	-17.607	41.2818						
	-6.23714	165.522	-17.5921	41.303	-17.5894	41.2211	-17.7581	-44.303
	-9.5367	-164.818						
	-6.24964	165.545	-17.6025	41.3269	-17.6001	41.2702	-9.53287	-164.834
	-17.6865	-43.3844						
0.81	-26.6469	-98.7042	-6.20103	158.823	-6.19948	158.736	-6.23029	158.895
	-6.24316	158.953						
	-6.20123	158.794	-17.9639	-44.3821	-10.0564	-170.048	-17.8054	31.5418
	-17.8136	31.5873						
	-6.20253	158.695	-10.0598	-170.06	-17.8834	-44.6522	-17.8091	31.456
	-17.8192	31.5002						
	-6.2312	158.841	-17.8035	31.5223	-17.8023	31.4328	-17.9652	-46.6789
	-10.0255	-170.179						
	-6.24355	158.87	-17.8138	31.5493	-17.8128	31.4834	-10.0217	-170.196
	-17.8922	-45.7204						
0.835	-26.8178	-125.703	-6.20216	152.134	-6.20126	152.045	-6.23051	152.231
	-6.24336	152.295						
	-6.20217	152.104	-18.1016	-46.4424	-10.5798	-175.345	-18.0305	21.6929
	-18.0393	21.7367						
	-6.20464	152.004	-10.5836	-175.354	-18.0045	-46.6547	-18.0346	21.6091
	-18.045	21.6572						
	-6.23186	152.177	-18.0291	21.6767	-18.0285	21.5841	-18.11	-48.8503
	-10.5455	-175.497						
	-6.24407	152.212	-18.039	21.6976	-18.0382	21.6361	-10.5422	-175.517
	-18.0372	-47.8668						
0.86	-26.5444	-152.699	-6.20983	145.468	-6.21005	145.377	-6.23702	145.587
	-6.24947	145.658						
	-6.20991	145.435	-18.1702	-48.4113	-11.1379	179.414	-18.2714	11.7995
	-18.2797	11.8443						
	-6.21314	145.337	-11.142	179.407	-18.0601	-48.5643	-18.2759	11.7115
	-18.2856	11.7665						
	-6.23843	145.531	-18.2691	11.7818	-18.27	11.6843	-18.1892	-50.8985
	-11.1001	179.234						
	-6.25045	145.575	-18.2789	11.8062	-18.2787	11.7434	-11.0971	179.213
	-18.1158	-49.9108						
0.885	-25.772	-179.605	-6.22353	138.828	-6.22429	138.736	-6.24889	138.968
	-6.261	139.045						
	-6.22358	138.794	-18.1702	-50.3668	-11.7337	174.242	-18.5291	1.86203
	-18.5369	1.91234						
	-6.22762	138.697	-11.7382	174.239	-18.0508	-50.4773	-18.5339	1.77141
	-18.5434	1.83493						
	-6.25021	138.912	-18.5266	1.84422	-18.528	1.74629	-18.2011	-52.9028
	-11.6924	174.029						
	-6.26159	138.963	-18.5365	1.8703	-18.5361	1.80986	-11.6894	174.006
	-18.1264	-51.9227						
0.91	-24.3375	153.759	-6.24218	132.217	-6.24355	132.126	-6.26514	132.376
	-6.27672	132.458						
	-6.24245	132.186	-18.1044	-52.3906	-12.3712	169.166	-18.8031	-8.1016
	-18.8108	-8.04693						
	-6.24681	132.089	-12.3758	169.16	-17.9785	-52.4659	-18.8083	-8.19667
	-18.8178	-8.12444						
	-6.26639	132.321	-18.8006	-8.12729	-18.8026	-8.21969	-18.1439	-54.9389
	-12.3266	168.908						
	-6.27742	132.377	-18.8107	-8.09039	-18.81	-8.15319	-12.3231	168.883
	-18.0682	-53.9738						
0.935	-21.562	129.384	-6.26529	125.639	-6.2669	125.552	-6.28554	125.815
	-6.29632	125.904						
	-6.2653	125.61	-17.977	-54.5711	-13.053	164.213	-19.0962	-18.0935
	-19.1039	-18.029						
	-6.27056	125.513	-13.0581	164.206	-17.8475	-54.6239	-19.1019	-18.1901
	-19.1108	-18.1117						
	-6.28629	125.759	-19.0937	-18.1211	-19.0958	-18.2064	-18.0256	-57.0952
	-13.0059	163.904						
	-6.29689	125.82	-19.1031	-18.0806	-19.103	-18.1387	-13.0016	163.878
	-17.9499	-56.1493						
0.96	-18.8358	120.616	-6.29158	119.102	-6.29381	119.011	-6.30879	119.285
	-6.3191	119.379						
	-6.29166	119.071	-17.7966	-56.9655	-13.7844	159.419	-19.4073	-28.0945
	-19.4157	-28.0226						
	-6.29754	118.974	-13.7898	159.41	-17.6652	-56.9994	-19.4139	-28.1911
	-19.4225	-28.1043						
	-6.30937	119.231	-19.4049	-28.1223	-19.4069	-28.2086	-17.8512	-59.4376
	-13.734	159.047						
	-6.31968	119.295	-19.4143	-28.0748	-19.4142	-28.1354	-13.7298	159.024
	-17.7777	-58.5202						
0.985	-17.1588	113.443	-6.32064	112.601	-6.32323	112.512	-6.33465	112.788
	-6.34416	112.888						
	-6.32043	112.568	-17.5734	-59.6472	-14.5668	154.844	-19.7392	-38.1067
	-19.7482	-38.0322						
	-6.32666	112.474	-14.5724	154.833	-17.441	-59.6578	-19.7462	-38.1992
